#   Hz   S  RI   R   50
! 
1.400000e+09  5.741075e-01  7.790752e-01   
             
1.404000e+09  5.797994e-01  7.745504e-01   
             
1.408000e+09  5.854199e-01  7.699661e-01   
             
1.412000e+09  5.909665e-01  7.653318e-01   
             
1.416000e+09  5.964387e-01  7.606573e-01   
             
1.420000e+09  6.018382e-01  7.559518e-01   
             
1.424000e+09  6.071685e-01  7.512239e-01   
             
1.428000e+09  6.124350e-01  7.464812e-01   
             
1.432000e+09  6.176441e-01  7.417295e-01   
             
1.436000e+09  6.228037e-01  7.369733e-01   
             
1.440000e+09  6.279220e-01  7.322149e-01   
             
1.444000e+09  6.330074e-01  7.274549e-01   
             
1.448000e+09  6.380681e-01  7.226920e-01   
             
1.452000e+09  6.431119e-01  7.179228e-01   
             
1.456000e+09  6.481453e-01  7.131429e-01   
             
1.460000e+09  6.531736e-01  7.083459e-01   
             
1.464000e+09  6.582008e-01  7.035250e-01   
             
1.468000e+09  6.632288e-01  6.986724e-01   
             
1.472000e+09  6.682579e-01  6.937803e-01   
             
1.476000e+09  6.732869e-01  6.888408e-01   
             
1.480000e+09  6.783126e-01  6.838468e-01   
             
1.484000e+09  6.833304e-01  6.787920e-01   
             
1.488000e+09  6.883345e-01  6.736710e-01   
             
1.492000e+09  6.933181e-01  6.684801e-01   
             
1.496000e+09  6.982738e-01  6.632171e-01   
             
1.500000e+09  7.031940e-01  6.578813e-01   
             
1.504000e+09  7.080712e-01  6.524738e-01   
             
1.508000e+09  7.128981e-01  6.469969e-01   
             
1.512000e+09  7.176686e-01  6.414548e-01   
             
1.516000e+09  7.223771e-01  6.358525e-01   
             
1.520000e+09  7.270198e-01  6.301960e-01   
             
1.524000e+09  7.315939e-01  6.244919e-01   
             
1.528000e+09  7.360983e-01  6.187472e-01   
             
1.532000e+09  7.405334e-01  6.129688e-01   
             
1.536000e+09  7.449009e-01  6.071632e-01   
             
1.540000e+09  7.492040e-01  6.013362e-01   
             
1.544000e+09  7.534469e-01  5.954927e-01   
             
1.548000e+09  7.576347e-01  5.896364e-01   
             
1.552000e+09  7.617733e-01  5.837699e-01   
             
1.556000e+09  7.658687e-01  5.778942e-01   
             
1.560000e+09  7.699269e-01  5.720089e-01   
             
1.564000e+09  7.739536e-01  5.661122e-01   
             
1.568000e+09  7.779541e-01  5.602012e-01   
             
1.572000e+09  7.819325e-01  5.542719e-01   
             
1.576000e+09  7.858922e-01  5.483191e-01   
             
1.580000e+09  7.898350e-01  5.423374e-01   
             
1.584000e+09  7.937618e-01  5.363209e-01   
             
1.588000e+09  7.976717e-01  5.302636e-01   
             
1.592000e+09  8.015629e-01  5.241599e-01   
             
1.596000e+09  8.054321e-01  5.180047e-01   
             
1.600000e+09  8.092751e-01  5.117937e-01   
             
1.604000e+09  8.130869e-01  5.055235e-01   
             
1.608000e+09  8.168617e-01  4.991919e-01   
             
1.612000e+09  8.205935e-01  4.927981e-01   
             
1.616000e+09  8.242763e-01  4.863422e-01   
             
1.620000e+09  8.279041e-01  4.798260e-01   
             
1.624000e+09  8.314717e-01  4.732520e-01   
             
1.628000e+09  8.349743e-01  4.666240e-01   
             
1.632000e+09  8.384084e-01  4.599466e-01   
             
1.636000e+09  8.417710e-01  4.532249e-01   
             
1.640000e+09  8.450609e-01  4.464644e-01   
             
1.644000e+09  8.482777e-01  4.396706e-01   
             
1.648000e+09  8.514224e-01  4.328490e-01   
             
1.652000e+09  8.544968e-01  4.260045e-01   
             
1.656000e+09  8.575041e-01  4.191413e-01   
             
1.660000e+09  8.604480e-01  4.122628e-01   
             
1.664000e+09  8.633329e-01  4.053714e-01   
             
1.668000e+09  8.661636e-01  3.984684e-01   
             
1.672000e+09  8.689448e-01  3.915538e-01   
             
1.676000e+09  8.716813e-01  3.846265e-01   
             
1.680000e+09  8.743772e-01  3.776845e-01   
             
1.684000e+09  8.770362e-01  3.707247e-01   
             
1.688000e+09  8.796612e-01  3.637430e-01   
             
1.692000e+09  8.822537e-01  3.567350e-01   
             
1.696000e+09  8.848147e-01  3.496959e-01   
             
1.700000e+09  8.873436e-01  3.426208e-01   
             
1.704000e+09  8.898390e-01  3.355046e-01   
             
1.708000e+09  8.922981e-01  3.283432e-01   
             
1.712000e+09  8.947176e-01  3.211324e-01   
             
1.716000e+09  8.970929e-01  3.138694e-01   
             
1.720000e+09  8.994193e-01  3.065521e-01   
             
1.724000e+09  9.016913e-01  2.991792e-01   
             
1.728000e+09  9.039036e-01  2.917508e-01   
             
1.732000e+09  9.060509e-01  2.842681e-01   
             
1.736000e+09  9.081281e-01  2.767332e-01   
             
1.740000e+09  9.101308e-01  2.691491e-01   
             
1.744000e+09  9.120554e-01  2.615196e-01   
             
1.748000e+09  9.138991e-01  2.538492e-01   
             
1.752000e+09  9.156601e-01  2.461425e-01   
             
1.756000e+09  9.173378e-01  2.384047e-01   
             
1.760000e+09  9.189324e-01  2.306404e-01   
             
1.764000e+09  9.204453e-01  2.228541e-01   
             
1.768000e+09  9.218788e-01  2.150497e-01   
             
1.772000e+09  9.232358e-01  2.072305e-01   
             
1.776000e+09  9.245200e-01  1.993988e-01   
             
1.780000e+09  9.257353e-01  1.915559e-01   
             
1.784000e+09  9.268856e-01  1.837020e-01   
             
1.788000e+09  9.279751e-01  1.758364e-01   
             
1.792000e+09  9.290073e-01  1.679573e-01   
             
1.796000e+09  9.299853e-01  1.600620e-01   
             
1.800000e+09  9.309115e-01  1.521471e-01   
             
1.804000e+09  9.317873e-01  1.442086e-01   
             
1.808000e+09  9.326133e-01  1.362419e-01   
             
1.812000e+09  9.333888e-01  1.282427e-01   
             
1.816000e+09  9.341121e-01  1.202064e-01   
             
1.820000e+09  9.347808e-01  1.121288e-01   
             
1.824000e+09  9.353911e-01  1.040063e-01   
             
1.828000e+09  9.359388e-01  9.583601e-02   
             
1.832000e+09  9.364188e-01  8.761581e-02   
             
1.836000e+09  9.368258e-01  7.934463e-02   
             
1.840000e+09  9.371543e-01  7.102240e-02   
             
1.844000e+09  9.373989e-01  6.265009e-02   
             
1.848000e+09  9.375542e-01  5.422969e-02   
             
1.852000e+09  9.376156e-01  4.576407e-02   
             
1.856000e+09  9.375790e-01  3.725688e-02   
             
1.860000e+09  9.374413e-01  2.871237e-02   
             
1.864000e+09  9.372002e-01  2.013518e-02   
             
1.868000e+09  9.368544e-01  1.153011e-02   
             
1.872000e+09  9.364037e-01  2.901911e-03   
             
1.876000e+09  9.358488e-01 -5.744968e-03   
             
1.880000e+09  9.351913e-01 -1.440658e-02   
             
1.884000e+09  9.344336e-01 -2.307968e-02   
             
1.888000e+09  9.335786e-01 -3.176186e-02   
             
1.892000e+09  9.326295e-01 -4.045168e-02   
             
1.896000e+09  9.315897e-01 -4.914874e-02   
             
1.900000e+09  9.304626e-01 -5.785366e-02   
             
1.904000e+09  9.292512e-01 -6.656808e-02   
             
1.908000e+09  9.279578e-01 -7.529452e-02   
             
1.912000e+09  9.265841e-01 -8.403630e-02   
             
1.916000e+09  9.251310e-01 -9.279732e-02   
             
1.920000e+09  9.235980e-01 -1.015819e-01   
             
1.924000e+09  9.219840e-01 -1.103944e-01   
             
1.928000e+09  9.202863e-01 -1.192392e-01   
             
1.932000e+09  9.185016e-01 -1.281204e-01   
             
1.936000e+09  9.166252e-01 -1.370414e-01   
             
1.940000e+09  9.146517e-01 -1.460050e-01   
             
1.944000e+09  9.125753e-01 -1.550131e-01   
             
1.948000e+09  9.103893e-01 -1.640664e-01   
             
1.952000e+09  9.080871e-01 -1.731647e-01   
             
1.956000e+09  9.056620e-01 -1.823066e-01   
             
1.960000e+09  9.031075e-01 -1.914896e-01   
             
1.964000e+09  9.004177e-01 -2.007103e-01   
             
1.968000e+09  8.975873e-01 -2.099643e-01   
             
1.972000e+09  8.946118e-01 -2.192468e-01   
             
1.976000e+09  8.914878e-01 -2.285522e-01   
             
1.980000e+09  8.882128e-01 -2.378751e-01   
             
1.984000e+09  8.847855e-01 -2.472098e-01   
             
1.988000e+09  8.812054e-01 -2.565509e-01   
             
1.992000e+09  8.774731e-01 -2.658939e-01   
             
1.996000e+09  8.735898e-01 -2.752345e-01   
             
2.000000e+09  8.695573e-01 -2.845696e-01   
             
2.004000e+09  8.653779e-01 -2.938971e-01   
             
2.008000e+09  8.610537e-01 -3.032159e-01   
             
2.012000e+09  8.565868e-01 -3.125260e-01   
             
2.016000e+09  8.519788e-01 -3.218285e-01   
             
2.020000e+09  8.472307e-01 -3.311254e-01   
             
2.024000e+09  8.423424e-01 -3.404195e-01   
             
2.028000e+09  8.373129e-01 -3.497141e-01   
             
2.032000e+09  8.321398e-01 -3.590130e-01   
             
2.036000e+09  8.268196e-01 -3.683199e-01   
             
2.040000e+09  8.213472e-01 -3.776385e-01   
             
2.044000e+09  8.157164e-01 -3.869717e-01   
             
2.048000e+09  8.099199e-01 -3.963220e-01   
             
2.052000e+09  8.039490e-01 -4.056906e-01   
             
2.056000e+09  7.977946e-01 -4.150777e-01   
             
2.060000e+09  7.914468e-01 -4.244821e-01   
             
2.064000e+09  7.848954e-01 -4.339013e-01   
             
2.068000e+09  7.781304e-01 -4.433311e-01   
             
2.072000e+09  7.711417e-01 -4.527661e-01   
             
2.076000e+09  7.639200e-01 -4.621996e-01   
             
2.080000e+09  7.564568e-01 -4.716237e-01   
             
2.084000e+09  7.487442e-01 -4.810295e-01   
             
2.088000e+09  7.407760e-01 -4.904075e-01   
             
2.092000e+09  7.325465e-01 -4.997478e-01   
             
2.096000e+09  7.240517e-01 -5.090403e-01   
             
2.100000e+09  7.152885e-01 -5.182753e-01   
             
2.104000e+09  7.062548e-01 -5.274433e-01   
             
2.108000e+09  6.969493e-01 -5.365355e-01   
             
2.112000e+09  6.873714e-01 -5.455440e-01   
             
2.116000e+09  6.775207e-01 -5.544620e-01   
             
2.120000e+09  6.673965e-01 -5.632835e-01   
             
2.124000e+09  6.569982e-01 -5.720036e-01   
             
2.128000e+09  6.463240e-01 -5.806184e-01   
             
2.132000e+09  6.353714e-01 -5.891248e-01   
             
2.136000e+09  6.241366e-01 -5.975199e-01   
             
2.140000e+09  6.126141e-01 -6.058012e-01   
             
2.144000e+09  6.007970e-01 -6.139660e-01   
             
2.148000e+09  5.886765e-01 -6.220110e-01   
             
2.152000e+09  5.762423e-01 -6.299319e-01   
             
2.156000e+09  5.634822e-01 -6.377231e-01   
             
2.160000e+09  5.503828e-01 -6.453771e-01   
             
2.164000e+09  5.369296e-01 -6.528843e-01   
             
2.168000e+09  5.231070e-01 -6.602328e-01   
             
2.172000e+09  5.088994e-01 -6.674080e-01   
             
2.176000e+09  4.942907e-01 -6.743923e-01   
             
2.180000e+09  4.792656e-01 -6.811655e-01   
             
2.184000e+09  4.638097e-01 -6.877046e-01   
             
2.188000e+09  4.479096e-01 -6.939836e-01   
             
2.192000e+09  4.315541e-01 -6.999743e-01   
             
2.196000e+09  4.147336e-01 -7.056462e-01   
             
2.200000e+09  3.974411e-01 -7.109668e-01   
             
2.204000e+09  3.796720e-01 -7.159022e-01   
             
2.208000e+09  3.614244e-01 -7.204171e-01   
             
2.212000e+09  3.426987e-01 -7.244758e-01   
             
2.216000e+09  3.234981e-01 -7.280416e-01   
             
2.220000e+09  3.038279e-01 -7.310781e-01   
             
2.224000e+09  2.836958e-01 -7.335485e-01   
             
2.228000e+09  2.631109e-01 -7.354163e-01   
             
2.232000e+09  2.420841e-01 -7.366451e-01   
             
2.236000e+09  2.206277e-01 -7.371985e-01   
             
2.240000e+09  1.987547e-01 -7.370397e-01   
             
2.244000e+09  1.764793e-01 -7.361316e-01   
             
2.248000e+09  1.538163e-01 -7.344360e-01   
             
2.252000e+09  1.307817e-01 -7.319134e-01   
             
2.256000e+09  1.073923e-01 -7.285222e-01   
             
2.260000e+09  8.366671e-02 -7.242185e-01   
             
2.264000e+09  5.962548e-02 -7.189556e-01   
             
2.268000e+09  3.529208e-02 -7.126835e-01   
             
2.272000e+09  1.069368e-02 -7.053488e-01   
             
2.276000e+09 -1.413774e-02 -6.968943e-01   
             
2.280000e+09 -3.916430e-02 -6.872598e-01   
             
2.284000e+09 -6.434096e-02 -6.763818e-01   
             
2.288000e+09 -8.961431e-02 -6.641946e-01   
             
2.292000e+09 -1.149214e-01 -6.506313e-01   
             
2.296000e+09 -1.401884e-01 -6.356245e-01   
             
2.300000e+09 -1.653302e-01 -6.191084e-01   
             
2.304000e+09 -1.902492e-01 -6.010206e-01   
             
2.308000e+09 -2.148349e-01 -5.813037e-01   
             
2.312000e+09 -2.389642e-01 -5.599076e-01   
             
2.316000e+09 -2.625014e-01 -5.367924e-01   
             
2.320000e+09 -2.852990e-01 -5.119298e-01   
             
2.324000e+09 -3.071990e-01 -4.853064e-01   
             
2.328000e+09 -3.280345e-01 -4.569250e-01   
             
2.332000e+09 -3.476313e-01 -4.268074e-01   
             
2.336000e+09 -3.658112e-01 -3.949952e-01   
             
2.340000e+09 -3.823940e-01 -3.615520e-01   
             
2.344000e+09 -3.972010e-01 -3.265636e-01   
             
2.348000e+09 -4.100580e-01 -2.901384e-01   
             
2.352000e+09 -4.207989e-01 -2.524077e-01   
             
2.356000e+09 -4.292687e-01 -2.135241e-01   
             
2.360000e+09 -4.353268e-01 -1.736611e-01   
             
2.364000e+09 -4.388503e-01 -1.330108e-01   
             
2.368000e+09 -4.397362e-01 -9.178152e-02   
             
2.372000e+09 -4.379042e-01 -5.019540e-02   
             
2.376000e+09 -4.332981e-01 -8.485166e-03   
             
2.380000e+09 -4.258876e-01  3.310910e-02   
             
2.384000e+09 -4.156689e-01  7.434345e-02   
             
2.388000e+09 -4.026652e-01  1.149736e-01   
             
2.392000e+09 -3.869263e-01  1.547583e-01   
             
2.396000e+09 -3.685280e-01  1.934631e-01   
             
2.400000e+09 -3.475709e-01  2.308630e-01   
             
2.404000e+09 -3.241788e-01  2.667459e-01   
             
2.408000e+09 -2.984969e-01  3.009152e-01   
             
2.412000e+09 -2.706891e-01  3.331919e-01   
             
2.416000e+09 -2.409358e-01  3.634167e-01   
             
2.420000e+09 -2.094312e-01  3.914517e-01   
             
2.424000e+09 -1.763803e-01  4.171812e-01   
             
2.428000e+09 -1.419960e-01  4.405129e-01   
             
2.432000e+09 -1.064964e-01  4.613781e-01   
             
2.436000e+09 -7.010156e-02  4.797315e-01   
             
2.440000e+09 -3.303108e-02  4.955513e-01   
             
2.444000e+09  4.498849e-03  5.088381e-01   
             
2.448000e+09  4.227786e-02  5.196141e-01   
             
2.452000e+09  8.010373e-02  5.279216e-01   
             
2.456000e+09  1.177845e-01  5.338219e-01   
             
2.460000e+09  1.551404e-01  5.373929e-01   
             
2.464000e+09  1.920051e-01  5.387280e-01   
             
2.468000e+09  2.282276e-01  5.379329e-01   
             
2.472000e+09  2.636727e-01  5.351246e-01   
             
2.476000e+09  2.982216e-01  5.304281e-01   
             
2.480000e+09  3.317729e-01  5.239748e-01   
             
2.484000e+09  3.642420e-01  5.159000e-01   
             
2.488000e+09  3.955611e-01  5.063406e-01   
             
2.492000e+09  4.256784e-01  4.954332e-01   
             
2.496000e+09  4.545578e-01  4.833121e-01   
             
2.500000e+09  4.821773e-01  4.701076e-01   
             
2.504000e+09  5.085280e-01  4.559444e-01   
             
2.508000e+09  5.336126e-01  4.409405e-01   
             
2.512000e+09  5.574437e-01  4.252061e-01   
             
2.516000e+09  5.800427e-01  4.088428e-01   
             
2.520000e+09  6.014376e-01  3.919433e-01   
             
2.524000e+09  6.216617e-01  3.745913e-01   
             
2.528000e+09  6.407518e-01  3.568614e-01   
             
2.532000e+09  6.587473e-01  3.388195e-01   
             
2.536000e+09  6.756885e-01  3.205234e-01   
             
2.540000e+09  6.916156e-01  3.020232e-01   
             
2.544000e+09  7.065678e-01  2.833627e-01   
             
2.548000e+09  7.205827e-01  2.645796e-01   
             
2.552000e+09  7.336958e-01  2.457068e-01   
             
2.556000e+09  7.459403e-01  2.267732e-01   
             
2.560000e+09  7.573467e-01  2.078047e-01   
             
2.564000e+09  7.679431e-01  1.888248e-01   
             
2.568000e+09  7.777557e-01  1.698556e-01   
             
2.572000e+09  7.868084e-01  1.509179e-01   
             
2.576000e+09  7.951241e-01  1.320323e-01   
             
2.580000e+09  8.027245e-01  1.132188e-01   
             
2.584000e+09  8.096307e-01  9.449752e-02   
             
2.588000e+09  8.158638e-01  7.588830e-02   
             
2.592000e+09  8.214454e-01  5.741091e-02   
             
2.596000e+09  8.263976e-01  3.908468e-02   
             
2.600000e+09  8.307433e-01  2.092826e-02   
             
2.604000e+09  8.345067e-01  2.959336e-03   
             
2.608000e+09  8.377128e-01 -1.480580e-02   
             
2.612000e+09  8.403879e-01 -3.235253e-02   
             
2.616000e+09  8.425588e-01 -4.966830e-02   
             
2.620000e+09  8.442532e-01 -6.674283e-02   
             
2.624000e+09  8.454987e-01 -8.356835e-02   
             
2.628000e+09  8.463229e-01 -1.001397e-01   
             
2.632000e+09  8.467528e-01 -1.164545e-01   
             
2.636000e+09  8.468144e-01 -1.325127e-01   
             
2.640000e+09  8.465324e-01 -1.483169e-01   
             
2.644000e+09  8.459294e-01 -1.638717e-01   
             
2.648000e+09  8.450261e-01 -1.791836e-01   
             
2.652000e+09  8.438410e-01 -1.942604e-01   
             
2.656000e+09  8.423899e-01 -2.091111e-01   
             
2.660000e+09  8.406862e-01 -2.237451e-01   
             
2.664000e+09  8.387407e-01 -2.381718e-01   
             
2.668000e+09  8.365618e-01 -2.524002e-01   
             
2.672000e+09  8.341560e-01 -2.664386e-01   
             
2.676000e+09  8.315277e-01 -2.802942e-01   
             
2.680000e+09  8.286799e-01 -2.939726e-01   
             
2.684000e+09  8.256146e-01 -3.074781e-01   
             
2.688000e+09  8.223332e-01 -3.208130e-01   
             
2.692000e+09  8.188365e-01 -3.339781e-01   
             
2.696000e+09  8.151260e-01 -3.469726e-01   
             
2.700000e+09  8.112033e-01 -3.597943e-01   
             
2.704000e+09  8.070711e-01 -3.724397e-01   
             
2.708000e+09  8.027333e-01 -3.849046e-01   
             
2.712000e+09  7.981947e-01 -3.971842e-01   
             
2.716000e+09  7.934620e-01 -4.092736e-01   
             
2.720000e+09  7.885428e-01 -4.211681e-01   
             
2.724000e+09  7.834463e-01 -4.328637e-01   
             
2.728000e+09  7.781825e-01 -4.443572e-01   
             
2.732000e+09  7.727625e-01 -4.556466e-01   
             
2.736000e+09  7.671979e-01 -4.667316e-01   
             
2.740000e+09  7.615003e-01 -4.776131e-01   
             
2.744000e+09  7.556816e-01 -4.882937e-01   
             
2.748000e+09  7.497528e-01 -4.987776e-01   
             
2.752000e+09  7.437242e-01 -5.090705e-01   
             
2.756000e+09  7.376051e-01 -5.191793e-01   
             
2.760000e+09  7.314032e-01 -5.291120e-01   
             
2.764000e+09  7.251248e-01 -5.388770e-01   
             
2.768000e+09  7.187744e-01 -5.484836e-01   
             
2.772000e+09  7.123546e-01 -5.579405e-01   
             
