!---------------------------------------------------------------------
! ZVRE, 3.52
!---------------------------------------------------------------------
! symbol freq-unit parameter-type data-format keyword impedance-ohm
#        HZ        S              RI          R       50
!---------------------------------------------------------------------
! freq                reS11          imS11           
  2.00000000000E+09  0.802591       -0.485236     
  2.00250000000E+09  0.798885       -0.494963     
  2.00500000000E+09  0.796164       -0.502483     
  2.00750000000E+09  0.792385       -0.511681     
  2.01000000000E+09  0.788794       -0.52033      
  2.01250000000E+09  0.784269       -0.5272       
  2.01500000000E+09  0.77821        -0.533623     
  2.01750000000E+09  0.772375       -0.539985     
  2.02000000000E+09  0.766116       -0.545383     
  2.02250000000E+09  0.759901       -0.549133     
  2.02500000000E+09  0.753658       -0.553039     
  2.02750000000E+09  0.747911       -0.555196     
  2.03000000000E+09  0.742229       -0.556281     
  2.03250000000E+09  0.738029       -0.556805     
  2.03500000000E+09  0.735251       -0.556626     
  2.03750000000E+09  0.731648       -0.556801     
  2.04000000000E+09  0.730523       -0.557412     
  2.04250000000E+09  0.72938        -0.557884     
  2.04500000000E+09  0.728512       -0.559656     
  2.04750000000E+09  0.727734       -0.561443     
  2.05000000000E+09  0.728043       -0.564055     
  2.05250000000E+09  0.72836        -0.56667      
  2.05500000000E+09  0.72697        -0.571739     
  2.05750000000E+09  0.726164       -0.574988     
  2.06000000000E+09  0.725698       -0.58016      
  2.06250000000E+09  0.722932       -0.584882     
  2.06500000000E+09  0.720809       -0.591788     
  2.06750000000E+09  0.716635       -0.597252     
  2.07000000000E+09  0.711831       -0.603572     
  2.07250000000E+09  0.706677       -0.608879     
  2.07500000000E+09  0.699911       -0.614203     
  2.07750000000E+09  0.692057       -0.618812     
  2.08000000000E+09  0.684786       -0.623547     
  2.08250000000E+09  0.676379       -0.626844     
  2.08500000000E+09  0.667882       -0.629733     
  2.08750000000E+09  0.659368       -0.631528     
  2.09000000000E+09  0.651846       -0.63243      
  2.09250000000E+09  0.644531       -0.63243      
  2.09500000000E+09  0.638347       -0.63423      
  2.09750000000E+09  0.633141       -0.634701     
  2.10000000000E+09  0.628756       -0.63615      
  2.10250000000E+09  0.625008       -0.637246     
  2.10500000000E+09  0.621246       -0.640211     
  2.10750000000E+09  0.618812       -0.643373     
  2.11000000000E+09  0.614808       -0.647355     
  2.11250000000E+09  0.612218       -0.653118     
  2.11500000000E+09  0.608302       -0.659334     
  2.11750000000E+09  0.604414       -0.667228     
  2.12000000000E+09  0.599072       -0.676278     
  2.12250000000E+09  0.592879       -0.685906     
  2.12500000000E+09  0.584083       -0.697561     
  2.12750000000E+09  0.575225       -0.709437     
  2.13000000000E+09  0.563405       -0.720976     
  2.13250000000E+09  0.550462       -0.732421     
  2.13500000000E+09  0.534956       -0.74368      
  2.13750000000E+09  0.519095       -0.752985     
  2.14000000000E+09  0.502325       -0.761975     
  2.14250000000E+09  0.483299       -0.769301     
  2.14500000000E+09  0.465114       -0.774065     
  2.14750000000E+09  0.445662       -0.777008     
  2.15000000000E+09  0.42747        -0.778928     
  2.15250000000E+09  0.410195       -0.778473     
  2.15500000000E+09  0.393706       -0.776811     
  2.15750000000E+09  0.379002       -0.775073     
  2.16000000000E+09  0.366695       -0.771753     
  2.16250000000E+09  0.354731       -0.769511     
  2.16500000000E+09  0.34612        -0.767469     
  2.16750000000E+09  0.337813       -0.765532     
  2.17000000000E+09  0.331313       -0.765145     
  2.17250000000E+09  0.325835       -0.766109     
  2.17500000000E+09  0.319945       -0.766323     
  2.17750000000E+09  0.314478       -0.769193     
  2.18000000000E+09  0.309554       -0.773133     
  2.18250000000E+09  0.302945       -0.778856     
  2.18500000000E+09  0.296068       -0.783632     
  2.18750000000E+09  0.287692       -0.790477     
  2.19000000000E+09  0.279776       -0.796566     
  2.19250000000E+09  0.269932       -0.803087     
  2.19500000000E+09  0.259272       -0.809034     
  2.19750000000E+09  0.247235       -0.814226     
  2.20000000000E+09  0.236613       -0.818495     
  2.20250000000E+09  0.224675       -0.822129     
  2.20500000000E+09  0.213787       -0.824914     
  2.20750000000E+09  0.203204       -0.825775     
  2.21000000000E+09  0.193815       -0.825243     
  2.21250000000E+09  0.185783       -0.825059     
  2.21500000000E+09  0.179392       -0.824265     
  2.21750000000E+09  0.173851       -0.823516     
  2.22000000000E+09  0.168425       -0.822177     
  2.22250000000E+09  0.164343       -0.823171     
  2.22500000000E+09  0.160413       -0.823484     
  2.22750000000E+09  0.157154       -0.824956     
  2.23000000000E+09  0.153014       -0.827989     
  2.23250000000E+09  0.148189       -0.830592     
  2.23500000000E+09  0.143684       -0.834827     
  2.23750000000E+09  0.137642       -0.838341     
  2.24000000000E+09  0.131384       -0.843277     
  2.24250000000E+09  0.123487       -0.848571     
  2.24500000000E+09  0.114271       -0.852146     
  2.24750000000E+09  0.102539       -0.856823     
  2.25000000000E+09  0.0885757      -0.858766     
  2.25250000000E+09  0.0756705      -0.858987     
  2.25500000000E+09  0.0595157      -0.858298     
  2.25750000000E+09  0.0445814      -0.854257     
  2.26000000000E+09  0.0292409      -0.849526     
  2.26250000000E+09  0.0133052      -0.842068     
  2.26500000000E+09 -0.00158277     -0.832297     
  2.26750000000E+09 -0.0151587      -0.822379     
  2.27000000000E+09 -0.0269206      -0.809287     
  2.27250000000E+09 -0.036172       -0.795969     
  2.27500000000E+09 -0.0446138      -0.781063     
  2.27750000000E+09 -0.050865       -0.766635     
  2.28000000000E+09 -0.0545132      -0.753461     
  2.28250000000E+09 -0.056048       -0.740623     
  2.28500000000E+09 -0.0567275      -0.729743     
  2.28750000000E+09 -0.0575866      -0.719851     
  2.29000000000E+09 -0.0582833      -0.7121       
  2.29250000000E+09 -0.0588252      -0.705196     
  2.29500000000E+09 -0.0610926      -0.701066     
  2.29750000000E+09 -0.064749       -0.698329     
  2.30000000000E+09 -0.0693044      -0.695654     
  2.30250000000E+09 -0.076099       -0.694292     
  2.30500000000E+09 -0.0852503      -0.694207     
  2.30750000000E+09 -0.0969493      -0.693155     
  2.31000000000E+09 -0.111072       -0.692824     
  2.31250000000E+09 -0.128375       -0.692463     
  2.31500000000E+09 -0.146914       -0.688985     
  2.31750000000E+09 -0.167509       -0.683563     
  2.32000000000E+09 -0.18893        -0.676902     
  2.32250000000E+09 -0.210208       -0.667813     
  2.32500000000E+09 -0.233487       -0.655794     
  2.32750000000E+09 -0.255424       -0.641853     
  2.33000000000E+09 -0.275583       -0.626198     
  2.33250000000E+09 -0.296098       -0.608155     
  2.33500000000E+09 -0.314678       -0.590082     
  2.33750000000E+09 -0.331236       -0.569407     
  2.34000000000E+09 -0.346559       -0.549702     
  2.34250000000E+09 -0.359513       -0.528811     
  2.34500000000E+09 -0.370842       -0.507932     
  2.34750000000E+09 -0.381255       -0.488109     
  2.35000000000E+09 -0.391859       -0.468912     
  2.35250000000E+09 -0.401856       -0.450676     
  2.35500000000E+09 -0.411864       -0.431615     
  2.35750000000E+09 -0.421809       -0.41277      
  2.36000000000E+09 -0.431187       -0.393893     
  2.36250000000E+09 -0.441715       -0.375524     
  2.36500000000E+09 -0.451438       -0.356037     
  2.36750000000E+09 -0.461345       -0.335094     
  2.37000000000E+09 -0.470019       -0.31493      
  2.37250000000E+09 -0.47839        -0.294204     
  2.37500000000E+09 -0.486705       -0.272953     
  2.37750000000E+09 -0.494222       -0.250766     
  2.38000000000E+09 -0.499128       -0.227051     
  2.38250000000E+09 -0.502798       -0.204294     
  2.38500000000E+09 -0.505411       -0.180116     
  2.38750000000E+09 -0.505972       -0.156171     
  2.39000000000E+09 -0.503895       -0.133127     
  2.39250000000E+09 -0.50046        -0.110484     
  2.39500000000E+09 -0.494587       -0.0905516    
  2.39750000000E+09 -0.488869       -0.0714702    
  2.40000000000E+09 -0.482202       -0.0555128    
  2.40250000000E+09 -0.476726       -0.0403732    
  2.40500000000E+09 -0.472198       -0.0263631    
  2.40750000000E+09 -0.468381       -0.0123       
  2.41000000000E+09 -0.46474         0.00251387   
  2.41250000000E+09 -0.46103         0.016954     
  2.41500000000E+09 -0.457605        0.0321217    
  2.41750000000E+09 -0.453354        0.0485827    
  2.42000000000E+09 -0.448739        0.0638685    
  2.42250000000E+09 -0.444426        0.0803792    
  2.42500000000E+09 -0.439771        0.0985419    
  2.42750000000E+09 -0.433303        0.117722     
  2.43000000000E+09 -0.425804        0.137442     
  2.43250000000E+09 -0.416427        0.157955     
  2.43500000000E+09 -0.405257        0.178778     
  2.43750000000E+09 -0.391385        0.200678     
  2.44000000000E+09 -0.374907        0.221155     
  2.44250000000E+09 -0.357008        0.240955     
  2.44500000000E+09 -0.337476        0.259941     
  2.44750000000E+09 -0.315563        0.278243     
  2.45000000000E+09 -0.292488        0.29435      
  2.45250000000E+09 -0.268306        0.309056     
  2.45500000000E+09 -0.243987        0.320693     
  2.45750000000E+09 -0.219137        0.330663     
  2.46000000000E+09 -0.19535         0.338435     
  2.46250000000E+09 -0.17282         0.345594     
  2.46500000000E+09 -0.149852        0.351982     
  2.46750000000E+09 -0.128157        0.357528     
  2.47000000000E+09 -0.1078          0.362331     
  2.47250000000E+09 -0.0886387       0.368538     
  2.47500000000E+09 -0.0694585       0.375651     
  2.47750000000E+09 -0.0494852       0.384263     
  2.48000000000E+09 -0.0286963       0.39269      
  2.48250000000E+09 -0.00702579      0.401149     
  2.48500000000E+09  0.0155622       0.409475     
  2.48750000000E+09  0.039234        0.417094     
  2.49000000000E+09  0.0645955       0.42438      
  2.49250000000E+09  0.0904353       0.430466     
  2.49500000000E+09  0.117142        0.434375     
  2.49750000000E+09  0.143796        0.437884     
  2.50000000000E+09  0.170505        0.440116     
  2.50250000000E+09  0.198883        0.441674     
  2.50500000000E+09  0.227441        0.439774     
  2.50750000000E+09  0.255043        0.435541     
  2.51000000000E+09  0.28099         0.429257     
  2.51250000000E+09  0.303896        0.422694     
  2.51500000000E+09  0.326784        0.415859     
  2.51750000000E+09  0.348239        0.408429     
  2.52000000000E+09  0.368943        0.398922     
  2.52250000000E+09  0.388511        0.391931     
  2.52500000000E+09  0.407197        0.383069     
  2.52750000000E+09  0.425734        0.374728     
  2.53000000000E+09  0.442982        0.366521     
  2.53250000000E+09  0.459594        0.357809     
  2.53500000000E+09  0.475296        0.348872     
  2.53750000000E+09  0.491111        0.340523     
  2.54000000000E+09  0.506337        0.331698     
  2.54250000000E+09  0.52156         0.32278      
  2.54500000000E+09  0.537127        0.313213     
  2.54750000000E+09  0.552583        0.303065     
  2.55000000000E+09  0.568078        0.292064     
  2.55250000000E+09  0.582385        0.280043     
  2.55500000000E+09  0.595477        0.266845     
  2.55750000000E+09  0.607433        0.253668     
  2.56000000000E+09  0.619117        0.239723     
  2.56250000000E+09  0.629506        0.225771     
  2.56500000000E+09  0.640086        0.212677     
  2.56750000000E+09  0.6496          0.198661     
  2.57000000000E+09  0.658745        0.185309     
  2.57250000000E+09  0.666976        0.171392     
  2.57500000000E+09  0.674644        0.157778     
  2.57750000000E+09  0.682298        0.14496      
  2.58000000000E+09  0.688748        0.130075     
  2.58250000000E+09  0.694277        0.116714     
  2.58500000000E+09  0.699309        0.102832     
  2.58750000000E+09  0.704083        0.0907278    
  2.59000000000E+09  0.709355        0.0777959    
  2.59250000000E+09  0.714446        0.065741     
  2.59500000000E+09  0.720981        0.0539703    
  2.59750000000E+09  0.724991        0.041237     
  2.60000000000E+09  0.730406        0.0283313    
  2.60250000000E+09  0.735247        0.0146375    
  2.60500000000E+09  0.739273        0.00232249   
  2.60750000000E+09  0.743569       -0.0109401    
  2.61000000000E+09  0.747615       -0.0245374    
  2.61250000000E+09  0.751511       -0.0376337    
  2.61500000000E+09  0.754998       -0.0511987    
  2.61750000000E+09  0.75905        -0.0650724    
  2.62000000000E+09  0.762084       -0.0800167    
  2.62250000000E+09  0.765199       -0.0943462    
  2.62500000000E+09  0.767212       -0.108699     
  2.62750000000E+09  0.769408       -0.123241     
  2.63000000000E+09  0.771289       -0.137492     
  2.63250000000E+09  0.773493       -0.152265     
  2.63500000000E+09  0.775316       -0.167087     
  2.63750000000E+09  0.776337       -0.182144     
  2.64000000000E+09  0.777216       -0.196139     
  2.64250000000E+09  0.776793       -0.210185     
  2.64500000000E+09  0.777119       -0.222667     
  2.64750000000E+09  0.776903       -0.236351     
  2.65000000000E+09  0.776125       -0.249808     
  2.65250000000E+09  0.774226       -0.26288      
  2.65500000000E+09  0.771227       -0.275114     
  2.65750000000E+09  0.767555       -0.287846     
  2.66000000000E+09  0.764457       -0.297952     
  2.66250000000E+09  0.762654       -0.30867      
  2.66500000000E+09  0.757966       -0.318902     
  2.66750000000E+09  0.754787       -0.328862     
  2.67000000000E+09  0.751165       -0.33803      
  2.67250000000E+09  0.749707       -0.346371     
  2.67500000000E+09  0.745657       -0.353987     
  2.67750000000E+09  0.742878       -0.363619     
  2.68000000000E+09  0.740528       -0.370165     
  2.68250000000E+09  0.738599       -0.376189     
  2.68500000000E+09  0.73662        -0.384286     
  2.68750000000E+09  0.734975       -0.391387     
  2.69000000000E+09  0.736711       -0.39863      
  2.69250000000E+09  0.734648       -0.405719     
  2.69500000000E+09  0.733087       -0.413021     
  2.69750000000E+09  0.730995       -0.421118     
  2.70000000000E+09  0.730274       -0.430064     
  2.70250000000E+09  0.728196       -0.437274     
  2.70500000000E+09  0.726083       -0.445231     
  2.70750000000E+09  0.724293       -0.452598     
  2.71000000000E+09  0.72168        -0.459279     
  2.71250000000E+09  0.718377       -0.467121     
  2.71500000000E+09  0.715143       -0.475763     
  2.71750000000E+09  0.710717       -0.483675     
  2.72000000000E+09  0.706152       -0.490082     
  2.72250000000E+09  0.702395       -0.497994     
  2.72500000000E+09  0.698613       -0.50379      
  2.72750000000E+09  0.694964       -0.509691     
  2.73000000000E+09  0.69105        -0.516294     
  2.73250000000E+09  0.68814        -0.522329     
  2.73500000000E+09  0.685526       -0.528487     
  2.73750000000E+09  0.683148       -0.534221     
  2.74000000000E+09  0.681657       -0.540499     
  2.74250000000E+09  0.678526       -0.547671     
  2.74500000000E+09  0.676341       -0.55549      
  2.74750000000E+09  0.673285       -0.564013     
  2.75000000000E+09  0.670031       -0.573753     
  2.75250000000E+09  0.666788       -0.58272      
  2.75500000000E+09  0.664087       -0.593103     
  2.75750000000E+09  0.660589       -0.603814     
  2.76000000000E+09  0.65571        -0.613864     
  2.76250000000E+09  0.649411       -0.625263     
  2.76500000000E+09  0.64236        -0.635878     
  2.76750000000E+09  0.635316       -0.646715     
  2.77000000000E+09  0.626834       -0.65742      
  2.77250000000E+09  0.61748        -0.666587     
  2.77500000000E+09  0.60655        -0.675772     
  2.77750000000E+09  0.596378       -0.684794     
  2.78000000000E+09  0.584958       -0.6915       
  2.78250000000E+09  0.571035       -0.697689     
  2.78500000000E+09  0.559472       -0.701114     
  2.78750000000E+09  0.546659       -0.704831     
  2.79000000000E+09  0.535033       -0.70581      
  2.79250000000E+09  0.525669       -0.707471     
  2.79500000000E+09  0.516071       -0.708993     
  2.79750000000E+09  0.5094         -0.708728     
  2.80000000000E+09  0.50275        -0.709492     
  2.80250000000E+09  0.497325       -0.710219     
  2.80500000000E+09  0.493667       -0.711411     
  2.80750000000E+09  0.490596       -0.714416     
  2.81000000000E+09  0.488342       -0.718108     
  2.81250000000E+09  0.486622       -0.722146     
  2.81500000000E+09  0.483343       -0.72745      
  2.81750000000E+09  0.48173        -0.734598     
  2.82000000000E+09  0.479491       -0.741797     
  2.82250000000E+09  0.476779       -0.749633     
  2.82500000000E+09  0.474028       -0.758242     
  2.82750000000E+09  0.469043       -0.766767     
  2.83000000000E+09  0.464002       -0.775924     
  2.83250000000E+09  0.456994       -0.784597     
  2.83500000000E+09  0.449925       -0.793209     
  2.83750000000E+09  0.441691       -0.802144     
  2.84000000000E+09  0.431668       -0.809369     
  2.84250000000E+09  0.42339        -0.815637     
  2.84500000000E+09  0.414479       -0.820622     
  2.84750000000E+09  0.404929       -0.82511      
  2.85000000000E+09  0.397204       -0.828249     
  2.85250000000E+09  0.387806       -0.830655     
  2.85500000000E+09  0.380624       -0.832872     
  2.85750000000E+09  0.373364       -0.832406     
  2.86000000000E+09  0.367043       -0.833321     
  2.86250000000E+09  0.360633       -0.833496     
  2.86500000000E+09  0.354641       -0.834289     
  2.86750000000E+09  0.350488       -0.836294     
  2.87000000000E+09  0.346575       -0.836427     
  2.87250000000E+09  0.343241       -0.839915     
  2.87500000000E+09  0.342105       -0.842305     
  2.87750000000E+09  0.337524       -0.84472      
  2.88000000000E+09  0.334817       -0.849025     
  2.88250000000E+09  0.331899       -0.853522     
  2.88500000000E+09  0.327615       -0.856539     
  2.88750000000E+09  0.322277       -0.860031     
  2.89000000000E+09  0.317494       -0.863567     
  2.89250000000E+09  0.310607       -0.866613     
  2.89500000000E+09  0.303206       -0.869087     
  2.89750000000E+09  0.294944       -0.868695     
  2.90000000000E+09  0.286132       -0.869735     
  2.90250000000E+09  0.27932        -0.868024     
  2.90500000000E+09  0.271498       -0.866408     
  2.90750000000E+09  0.265483       -0.863137     
  2.91000000000E+09  0.260405       -0.860151     
  2.91250000000E+09  0.256233       -0.855716     
  2.91500000000E+09  0.253829       -0.852704     
  2.91750000000E+09  0.251647       -0.850372     
  2.92000000000E+09  0.250937       -0.847107     
  2.92250000000E+09  0.250897       -0.846362     
  2.92500000000E+09  0.251754       -0.845441     
  2.92750000000E+09  0.250938       -0.845518     
  2.93000000000E+09  0.251603       -0.848667     
  2.93250000000E+09  0.250951       -0.852316     
  2.93500000000E+09  0.251483       -0.857027     
  2.93750000000E+09  0.250661       -0.861998     
