!---------------------------------------------------------------------
! ZVRE, 3.52
!---------------------------------------------------------------------
! symbol freq-unit parameter-type data-format keyword impedance-ohm
#        HZ        S              RI          R       50
!---------------------------------------------------------------------
! freq                reS11          imS11           
  2.00000000000E+09 -0.995401       -0.0986234    
  2.00250000000E+09 -0.99572        -0.0879495    
  2.00500000000E+09 -0.992522       -0.080074     
  2.00750000000E+09 -0.987635       -0.073802     
  2.01000000000E+09 -0.979926       -0.0679089    
  2.01250000000E+09 -0.970473       -0.0664274    
  2.01500000000E+09 -0.959745       -0.0662694    
  2.01750000000E+09 -0.948372       -0.0677196    
  2.02000000000E+09 -0.937944       -0.0719498    
  2.02250000000E+09 -0.927847       -0.0782099    
  2.02500000000E+09 -0.919859       -0.0856337    
  2.02750000000E+09 -0.912927       -0.0944191    
  2.03000000000E+09 -0.908025       -0.104354     
  2.03250000000E+09 -0.905345       -0.113963     
  2.03500000000E+09 -0.905381       -0.123398     
  2.03750000000E+09 -0.907039       -0.131716     
  2.04000000000E+09 -0.911616       -0.138503     
  2.04250000000E+09 -0.917579       -0.143337     
  2.04500000000E+09 -0.925474       -0.144708     
  2.04750000000E+09 -0.933805       -0.143391     
  2.05000000000E+09 -0.942796       -0.139944     
  2.05250000000E+09 -0.949909       -0.133084     
  2.05500000000E+09 -0.957463       -0.122883     
  2.05750000000E+09 -0.962385       -0.111131     
  2.06000000000E+09 -0.964899       -0.0967394    
  2.06250000000E+09 -0.966567       -0.0826238    
  2.06500000000E+09 -0.965031       -0.0666749    
  2.06750000000E+09 -0.961096       -0.0501868    
  2.07000000000E+09 -0.955984       -0.035041     
  2.07250000000E+09 -0.947253       -0.0208953    
  2.07500000000E+09 -0.937997       -0.00805428   
  2.07750000000E+09 -0.928035        0.000852354  
  2.08000000000E+09 -0.919988        0.00989357   
  2.08250000000E+09 -0.911899        0.0164884    
  2.08500000000E+09 -0.904998        0.0225963    
  2.08750000000E+09 -0.899064        0.0259651    
  2.09000000000E+09 -0.89666         0.0299287    
  2.09250000000E+09 -0.895057        0.0333719    
  2.09500000000E+09 -0.898258        0.0377611    
  2.09750000000E+09 -0.903504        0.0425218    
  2.10000000000E+09 -0.909395        0.0493738    
  2.10250000000E+09 -0.917615        0.0569743    
  2.10500000000E+09 -0.928208        0.0697399    
  2.10750000000E+09 -0.938214        0.0829479    
  2.11000000000E+09 -0.947633        0.100927     
  2.11250000000E+09 -0.956316        0.12144      
  2.11500000000E+09 -0.962132        0.144271     
  2.11750000000E+09 -0.966455        0.16958      
  2.12000000000E+09 -0.966575        0.1963       
  2.12250000000E+09 -0.963077        0.223646     
  2.12500000000E+09 -0.95586         0.250676     
  2.12750000000E+09 -0.945117        0.276045     
  2.13000000000E+09 -0.931118        0.298433     
  2.13250000000E+09 -0.91504         0.317436     
  2.13500000000E+09 -0.897535        0.332748     
  2.13750000000E+09 -0.879743        0.343119     
  2.14000000000E+09 -0.862614        0.350794     
  2.14250000000E+09 -0.84676         0.354183     
  2.14500000000E+09 -0.832332        0.353648     
  2.14750000000E+09 -0.821236        0.350664     
  2.15000000000E+09 -0.811791        0.345891     
  2.15250000000E+09 -0.805845        0.338681     
  2.15500000000E+09 -0.802279        0.331858     
  2.15750000000E+09 -0.801933        0.325037     
  2.16000000000E+09 -0.804735        0.317133     
  2.16250000000E+09 -0.80884         0.310991     
  2.16500000000E+09 -0.816716        0.30542      
  2.16750000000E+09 -0.82533         0.300519     
  2.17000000000E+09 -0.836243        0.29747      
  2.17250000000E+09 -0.846686        0.295756     
  2.17500000000E+09 -0.857541        0.296375     
  2.17750000000E+09 -0.869111        0.297928     
  2.18000000000E+09 -0.880148        0.30246      
  2.18250000000E+09 -0.888667        0.308872     
  2.18500000000E+09 -0.895268        0.314431     
  2.18750000000E+09 -0.900695        0.322819     
  2.19000000000E+09 -0.903666        0.33041      
  2.19250000000E+09 -0.90507         0.33704      
  2.19500000000E+09 -0.904754        0.343179     
  2.19750000000E+09 -0.901963        0.347808     
  2.20000000000E+09 -0.899634        0.350728     
  2.20250000000E+09 -0.895974        0.352725     
  2.20500000000E+09 -0.892451        0.352602     
  2.20750000000E+09 -0.890146        0.34954      
  2.21000000000E+09 -0.887457        0.345336     
  2.21250000000E+09 -0.886943        0.340702     
  2.21500000000E+09 -0.88726         0.335003     
  2.21750000000E+09 -0.888986        0.330191     
  2.22000000000E+09 -0.891077        0.32669      
  2.22250000000E+09 -0.895157        0.323954     
  2.22500000000E+09 -0.899796        0.322538     
  2.22750000000E+09 -0.904244        0.323533     
  2.23000000000E+09 -0.90864         0.327502     
  2.23250000000E+09 -0.911825        0.333317     
  2.23500000000E+09 -0.913926        0.342431     
  2.23750000000E+09 -0.913401        0.351772     
  2.24000000000E+09 -0.911382        0.362596     
  2.24250000000E+09 -0.905729        0.374617     
  2.24500000000E+09 -0.896938        0.387169     
  2.24750000000E+09 -0.88545         0.398913     
  2.25000000000E+09 -0.871538        0.410932     
  2.25250000000E+09 -0.853927        0.419089     
  2.25500000000E+09 -0.836235        0.426722     
  2.25750000000E+09 -0.816346        0.430721     
  2.26000000000E+09 -0.798814        0.431831     
  2.26250000000E+09 -0.779537        0.4308       
  2.26500000000E+09 -0.762218        0.42982      
  2.26750000000E+09 -0.746897        0.424958     
  2.27000000000E+09 -0.733873        0.419856     
  2.27250000000E+09 -0.722294        0.412187     
  2.27500000000E+09 -0.712033        0.405301     
  2.27750000000E+09 -0.706026        0.399126     
  2.28000000000E+09 -0.702315        0.392326     
  2.28250000000E+09 -0.701001        0.385646     
  2.28500000000E+09 -0.702253        0.381999     
  2.28750000000E+09 -0.704405        0.380015     
  2.29000000000E+09 -0.708738        0.381612     
  2.29250000000E+09 -0.713161        0.385321     
  2.29500000000E+09 -0.718647        0.39351      
  2.29750000000E+09 -0.723895        0.405363     
  2.30000000000E+09 -0.727513        0.419597     
  2.30250000000E+09 -0.729096        0.437333     
  2.30500000000E+09 -0.727927        0.458677     
  2.30750000000E+09 -0.722607        0.481926     
  2.31000000000E+09 -0.714559        0.5065       
  2.31250000000E+09 -0.703545        0.530795     
  2.31500000000E+09 -0.688981        0.554308     
  2.31750000000E+09 -0.671383        0.575984     
  2.32000000000E+09 -0.650385        0.595729     
  2.32250000000E+09 -0.628338        0.611892     
  2.32500000000E+09 -0.605936        0.624996     
  2.32750000000E+09 -0.583091        0.635715     
  2.33000000000E+09 -0.561538        0.643432     
  2.33250000000E+09 -0.541017        0.647675     
  2.33500000000E+09 -0.521347        0.650975     
  2.33750000000E+09 -0.504158        0.651801     
  2.34000000000E+09 -0.489318        0.651327     
  2.34250000000E+09 -0.475078        0.65003      
  2.34500000000E+09 -0.462428        0.649036     
  2.34750000000E+09 -0.451371        0.647342     
  2.35000000000E+09 -0.440325        0.645736     
  2.35250000000E+09 -0.431539        0.644289     
  2.35500000000E+09 -0.421413        0.64415      
  2.35750000000E+09 -0.412008        0.644068     
  2.36000000000E+09 -0.401211        0.643843     
  2.36250000000E+09 -0.389184        0.644213     
  2.36500000000E+09 -0.375792        0.641242     
  2.36750000000E+09 -0.362344        0.637576     
  2.37000000000E+09 -0.349171        0.632494     
  2.37250000000E+09 -0.33609         0.624671     
  2.37500000000E+09 -0.323582        0.615734     
  2.37750000000E+09 -0.31127         0.605559     
  2.38000000000E+09 -0.299265        0.592605     
  2.38250000000E+09 -0.287483        0.577631     
  2.38500000000E+09 -0.276559        0.560529     
  2.38750000000E+09 -0.266876        0.541621     
  2.39000000000E+09 -0.258628        0.520011     
  2.39250000000E+09 -0.252801        0.497421     
  2.39500000000E+09 -0.249556        0.473734     
  2.39750000000E+09 -0.24724         0.44984      
  2.40000000000E+09 -0.248438        0.42398      
  2.40250000000E+09 -0.251474        0.39781      
  2.40500000000E+09 -0.257073        0.372836     
  2.40750000000E+09 -0.264522        0.347646     
  2.41000000000E+09 -0.274046        0.32263      
  2.41250000000E+09 -0.28532         0.298392     
  2.41500000000E+09 -0.29842         0.275117     
  2.41750000000E+09 -0.313188        0.252935     
  2.42000000000E+09 -0.329913        0.231651     
  2.42250000000E+09 -0.347972        0.211713     
  2.42500000000E+09 -0.36741         0.193335     
  2.42750000000E+09 -0.387865        0.176755     
  2.43000000000E+09 -0.41004         0.16209      
  2.43250000000E+09 -0.433435        0.150253     
  2.43500000000E+09 -0.45723         0.142042     
  2.43750000000E+09 -0.479896        0.136923     
  2.44000000000E+09 -0.501976        0.134446     
  2.44250000000E+09 -0.523017        0.135045     
  2.44500000000E+09 -0.541742        0.137976     
  2.44750000000E+09 -0.559291        0.142531     
  2.45000000000E+09 -0.57407         0.14887      
  2.45250000000E+09 -0.586703        0.156261     
  2.45500000000E+09 -0.596641        0.161645     
  2.45750000000E+09 -0.60522         0.167662     
  2.46000000000E+09 -0.612963        0.172475     
  2.46250000000E+09 -0.619755        0.176789     
  2.46500000000E+09 -0.625424        0.181373     
  2.46750000000E+09 -0.630309        0.185069     
  2.47000000000E+09 -0.635384        0.18769      
  2.47250000000E+09 -0.642775        0.191023     
  2.47500000000E+09 -0.649893        0.194532     
  2.47750000000E+09 -0.656943        0.199056     
  2.48000000000E+09 -0.665829        0.203059     
  2.48250000000E+09 -0.674831        0.208808     
  2.48500000000E+09 -0.685225        0.216459     
  2.48750000000E+09 -0.695146        0.22419      
  2.49000000000E+09 -0.705435        0.236222     
  2.49250000000E+09 -0.715604        0.249564     
  2.49500000000E+09 -0.72375         0.265225     
  2.49750000000E+09 -0.731683        0.28378      
  2.50000000000E+09 -0.737032        0.303816     
  2.50250000000E+09 -0.739472        0.325427     
  2.50500000000E+09 -0.739712        0.346898     
  2.50750000000E+09 -0.737608        0.366645     
  2.51000000000E+09 -0.733467        0.388808     
  2.51250000000E+09 -0.726447        0.409166     
  2.51500000000E+09 -0.718444        0.428266     
  2.51750000000E+09 -0.709222        0.44568      
  2.52000000000E+09 -0.6986          0.461095     
  2.52250000000E+09 -0.689453        0.474527     
  2.52500000000E+09 -0.679701        0.485063     
  2.52750000000E+09 -0.670936        0.494868     
  2.53000000000E+09 -0.663214        0.503482     
  2.53250000000E+09 -0.657961        0.511619     
  2.53500000000E+09 -0.653295        0.519038     
  2.53750000000E+09 -0.650921        0.52667      
  2.54000000000E+09 -0.649483        0.535488     
  2.54250000000E+09 -0.647782        0.545448     
  2.54500000000E+09 -0.647769        0.556038     
  2.54750000000E+09 -0.646581        0.56843      
  2.55000000000E+09 -0.646903        0.582533     
  2.55250000000E+09 -0.644426        0.596684     
  2.55500000000E+09 -0.641533        0.61058      
  2.55750000000E+09 -0.63671         0.625078     
  2.56000000000E+09 -0.630194        0.640743     
  2.56250000000E+09 -0.622366        0.654652     
  2.56500000000E+09 -0.614521        0.669194     
  2.56750000000E+09 -0.604478        0.680552     
  2.57000000000E+09 -0.593798        0.689523     
  2.57250000000E+09 -0.583514        0.69596      
  2.57500000000E+09 -0.574229        0.70126      
  2.57750000000E+09 -0.564153        0.703104     
  2.58000000000E+09 -0.555226        0.70297      
  2.58250000000E+09 -0.549224        0.701261     
  2.58500000000E+09 -0.545487        0.698061     
  2.58750000000E+09 -0.543141        0.694361     
  2.59000000000E+09 -0.543726        0.691711     
  2.59250000000E+09 -0.545178        0.688244     
  2.59500000000E+09 -0.549649        0.685203     
  2.59750000000E+09 -0.555117        0.683197     
  2.60000000000E+09 -0.562242        0.682654     
  2.60250000000E+09 -0.570867        0.684266     
  2.60500000000E+09 -0.579274        0.687661     
  2.60750000000E+09 -0.588259        0.693585     
  2.61000000000E+09 -0.596399        0.700861     
  2.61250000000E+09 -0.602398        0.710384     
  2.61500000000E+09 -0.606424        0.721695     
  2.61750000000E+09 -0.609067        0.73577      
  2.62000000000E+09 -0.607299        0.749255     
  2.62250000000E+09 -0.6031          0.763277     
  2.62500000000E+09 -0.59652         0.776995     
  2.62750000000E+09 -0.586606        0.78747      
  2.63000000000E+09 -0.574671        0.797994     
  2.63250000000E+09 -0.561012        0.803289     
  2.63500000000E+09 -0.54605         0.807907     
  2.63750000000E+09 -0.532014        0.809281     
  2.64000000000E+09 -0.518144        0.807325     
  2.64250000000E+09 -0.504849        0.802998     
  2.64500000000E+09 -0.493582        0.794799     
  2.64750000000E+09 -0.483468        0.787765     
  2.65000000000E+09 -0.476116        0.778098     
  2.65250000000E+09 -0.469935        0.767377     
  2.65500000000E+09 -0.464239        0.757508     
  2.65750000000E+09 -0.461047        0.747728     
  2.66000000000E+09 -0.461993        0.737334     
  2.66250000000E+09 -0.463863        0.729397     
  2.66500000000E+09 -0.466856        0.722656     
  2.66750000000E+09 -0.469063        0.718464     
  2.67000000000E+09 -0.473102        0.717035     
  2.67250000000E+09 -0.478184        0.714121     
  2.67500000000E+09 -0.482767        0.715841     
  2.67750000000E+09 -0.486874        0.720833     
  2.68000000000E+09 -0.489972        0.726272     
  2.68250000000E+09 -0.492256        0.735298     
  2.68500000000E+09 -0.492809        0.744998     
  2.68750000000E+09 -0.489382        0.756083     
  2.69000000000E+09 -0.487057        0.769735     
  2.69250000000E+09 -0.480703        0.778811     
  2.69500000000E+09 -0.472409        0.789632     
  2.69750000000E+09 -0.462489        0.799939     
  2.70000000000E+09 -0.452118        0.80927      
  2.70250000000E+09 -0.44046         0.816241     
  2.70500000000E+09 -0.428995        0.822263     
  2.70750000000E+09 -0.418293        0.827291     
  2.71000000000E+09 -0.408905        0.829954     
  2.71250000000E+09 -0.397837        0.83307      
  2.71500000000E+09 -0.388823        0.836968     
  2.71750000000E+09 -0.380075        0.841053     
  2.72000000000E+09 -0.372208        0.843707     
  2.72250000000E+09 -0.364299        0.849843     
  2.72500000000E+09 -0.35729         0.854677     
  2.72750000000E+09 -0.35123         0.860591     
  2.73000000000E+09 -0.34304         0.868828     
  2.73250000000E+09 -0.336025        0.876915     
  2.73500000000E+09 -0.328417        0.886797     
  2.73750000000E+09 -0.318195        0.895141     
  2.74000000000E+09 -0.307204        0.905425     
  2.74250000000E+09 -0.294249        0.914323     
  2.74500000000E+09 -0.279507        0.922386     
  2.74750000000E+09 -0.262483        0.930714     
  2.75000000000E+09 -0.245422        0.934354     
  2.75250000000E+09 -0.227534        0.937907     
  2.75500000000E+09 -0.211542        0.93786      
  2.75750000000E+09 -0.196285        0.937135     
  2.76000000000E+09 -0.180998        0.93299      
  2.76250000000E+09 -0.167745        0.927897     
  2.76500000000E+09 -0.157004        0.921672     
  2.76750000000E+09 -0.146689        0.914041     
  2.77000000000E+09 -0.140047        0.904768     
  2.77250000000E+09 -0.136232        0.895862     
  2.77500000000E+09 -0.134195        0.887815     
  2.77750000000E+09 -0.134306        0.880687     
  2.78000000000E+09 -0.136189        0.873223     
  2.78250000000E+09 -0.138162        0.866822     
  2.78500000000E+09 -0.141955        0.862668     
  2.78750000000E+09 -0.146137        0.860796     
  2.79000000000E+09 -0.152036        0.860204     
  2.79250000000E+09 -0.157239        0.862645     
  2.79500000000E+09 -0.161881        0.86743      
  2.79750000000E+09 -0.166899        0.873626     
  2.80000000000E+09 -0.169782        0.881441     
  2.80250000000E+09 -0.171054        0.891369     
  2.80500000000E+09 -0.170303        0.901809     
  2.80750000000E+09 -0.167703        0.913316     
  2.81000000000E+09 -0.1625          0.925135     
  2.81250000000E+09 -0.155406        0.935177     
  2.81500000000E+09 -0.146117        0.943913     
  2.81750000000E+09 -0.13609         0.952136     
  2.82000000000E+09 -0.124756        0.957329     
  2.82250000000E+09 -0.113464        0.961352     
  2.82500000000E+09 -0.101795        0.963117     
  2.82750000000E+09 -0.089811        0.961046     
  2.83000000000E+09 -0.0803348       0.958071     
  2.83250000000E+09 -0.0701023       0.955025     
  2.83500000000E+09 -0.0627476       0.948792     
  2.83750000000E+09 -0.0551873       0.943667     
  2.84000000000E+09 -0.0502934       0.938053     
  2.84250000000E+09 -0.0474304       0.931862     
  2.84500000000E+09 -0.0444607       0.926085     
  2.84750000000E+09 -0.0430079       0.922085     
  2.85000000000E+09 -0.0423848       0.917947     
  2.85250000000E+09 -0.0426898       0.914841     
  2.85500000000E+09 -0.0428535       0.914046     
  2.85750000000E+09 -0.0430082       0.912176     
  2.86000000000E+09 -0.0416003       0.913115     
  2.86250000000E+09 -0.0405372       0.913544     
  2.86500000000E+09 -0.0370662       0.915068     
  2.86750000000E+09 -0.0325304       0.917501     
  2.87000000000E+09 -0.0283979       0.919638     
  2.87250000000E+09 -0.0225748       0.922201     
  2.87500000000E+09 -0.0179128       0.924363     
  2.87750000000E+09 -0.0104772       0.924735     
  2.88000000000E+09 -0.00439873      0.926154     
  2.88250000000E+09  0.00260374      0.926153     
  2.88500000000E+09  0.00865932      0.923922     
  2.88750000000E+09  0.0154147       0.921317     
  2.89000000000E+09  0.0206834       0.918801     
  2.89250000000E+09  0.0258906       0.914804     
  2.89500000000E+09  0.0308576       0.911374     
  2.89750000000E+09  0.0347966       0.906719     
  2.90000000000E+09  0.0385388       0.904274     
  2.90250000000E+09  0.0401605       0.901366     
  2.90500000000E+09  0.043235        0.90031      
  2.90750000000E+09  0.0436942       0.900162     
  2.91000000000E+09  0.044978        0.901678     
  2.91250000000E+09  0.0464553       0.903147     
  2.91500000000E+09  0.0486688       0.907069     
  2.91750000000E+09  0.0518823       0.913118     
  2.92000000000E+09  0.0555655       0.918764     
  2.92250000000E+09  0.0616337       0.925149     
  2.92500000000E+09  0.0701119       0.93301      
  2.92750000000E+09  0.0810358       0.938566     
  2.93000000000E+09  0.0929578       0.943993     
  2.93250000000E+09  0.10655         0.950885     
  2.93500000000E+09  0.119551        0.95365      
  2.93750000000E+09  0.135818        0.955756     
