#   Hz   S  RI   R   50
! 
1.400000e+09  3.564363e-02 -9.322349e-01   
             
1.404000e+09  2.634651e-02 -9.332028e-01   
             
1.408000e+09  1.682303e-02 -9.340177e-01   
             
1.412000e+09  7.120950e-03 -9.345935e-01   
             
1.416000e+09 -2.682370e-03 -9.348714e-01   
             
1.420000e+09 -1.249363e-02 -9.348289e-01   
             
1.424000e+09 -2.221954e-02 -9.344821e-01   
             
1.428000e+09 -3.178227e-02 -9.338825e-01   
             
1.432000e+09 -4.113180e-02 -9.331069e-01   
             
1.436000e+09 -5.025328e-02 -9.322440e-01   
             
1.440000e+09 -5.916821e-02 -9.313798e-01   
             
1.444000e+09 -6.792972e-02 -9.305826e-01   
             
1.448000e+09 -7.661272e-02 -9.298933e-01   
             
1.452000e+09 -8.530078e-02 -9.293185e-01   
             
1.456000e+09 -9.407193e-02 -9.288312e-01   
             
1.460000e+09 -1.029858e-01 -9.283757e-01   
             
1.464000e+09 -1.120740e-01 -9.278776e-01   
             
1.468000e+09 -1.213354e-01 -9.272570e-01   
             
1.472000e+09 -1.307372e-01 -9.264419e-01   
             
1.476000e+09 -1.402208e-01 -9.253798e-01   
             
1.480000e+09 -1.497124e-01 -9.240464e-01   
             
1.484000e+09 -1.591355e-01 -9.224488e-01   
             
1.488000e+09 -1.684234e-01 -9.206234e-01   
             
1.492000e+09 -1.775304e-01 -9.186293e-01   
             
1.496000e+09 -1.864382e-01 -9.165379e-01   
             
1.500000e+09 -1.951583e-01 -9.144204e-01   
             
1.504000e+09 -2.037292e-01 -9.123366e-01   
             
1.508000e+09 -2.122093e-01 -9.103251e-01   
             
1.512000e+09 -2.206662e-01 -9.083972e-01   
             
1.516000e+09 -2.291656e-01 -9.065365e-01   
             
1.520000e+09 -2.377602e-01 -9.047017e-01   
             
1.524000e+09 -2.464811e-01 -9.028341e-01   
             
1.528000e+09 -2.553329e-01 -9.008682e-01   
             
1.532000e+09 -2.642937e-01 -8.987427e-01   
             
1.536000e+09 -2.733191e-01 -8.964103e-01   
             
1.540000e+09 -2.823498e-01 -8.938459e-01   
             
1.544000e+09 -2.913220e-01 -8.910498e-01   
             
1.548000e+09 -3.001781e-01 -8.880477e-01   
             
1.552000e+09 -3.088756e-01 -8.848853e-01   
             
1.556000e+09 -3.173942e-01 -8.816205e-01   
             
1.560000e+09 -3.257382e-01 -8.783137e-01   
             
1.564000e+09 -3.339353e-01 -8.750176e-01   
             
1.568000e+09 -3.420310e-01 -8.717688e-01   
             
1.572000e+09 -3.500812e-01 -8.685822e-01   
             
1.576000e+09 -3.581419e-01 -8.654489e-01   
             
1.580000e+09 -3.662603e-01 -8.623384e-01   
             
1.584000e+09 -3.744669e-01 -8.592042e-01   
             
1.588000e+09 -3.827706e-01 -8.559915e-01   
             
1.592000e+09 -3.911575e-01 -8.526474e-01   
             
1.596000e+09 -3.995938e-01 -8.491288e-01   
             
1.600000e+09 -4.080313e-01 -8.454100e-01   
             
1.604000e+09 -4.164163e-01 -8.414867e-01   
             
1.608000e+09 -4.246978e-01 -8.373762e-01   
             
1.612000e+09 -4.328362e-01 -8.331141e-01   
             
1.616000e+09 -4.408099e-01 -8.287482e-01   
             
1.620000e+09 -4.486177e-01 -8.243304e-01   
             
1.624000e+09 -4.562790e-01 -8.199080e-01   
             
1.628000e+09 -4.638299e-01 -8.155159e-01   
             
1.632000e+09 -4.713169e-01 -8.111714e-01   
             
1.636000e+09 -4.787888e-01 -8.068714e-01   
             
1.640000e+09 -4.862885e-01 -8.025938e-01   
             
1.644000e+09 -4.938459e-01 -7.983011e-01   
             
1.648000e+09 -5.014730e-01 -7.939472e-01   
             
1.652000e+09 -5.091622e-01 -7.894852e-01   
             
1.656000e+09 -5.168877e-01 -7.848755e-01   
             
1.660000e+09 -5.246102e-01 -7.800922e-01   
             
1.664000e+09 -5.322831e-01 -7.751271e-01   
             
1.668000e+09 -5.398611e-01 -7.699913e-01   
             
1.672000e+09 -5.473068e-01 -7.647125e-01   
             
1.676000e+09 -5.545973e-01 -7.593309e-01   
             
1.680000e+09 -5.617274e-01 -7.538916e-01   
             
1.684000e+09 -5.687101e-01 -7.484378e-01   
             
1.688000e+09 -5.755742e-01 -7.430032e-01   
             
1.692000e+09 -5.823590e-01 -7.376069e-01   
             
1.696000e+09 -5.891077e-01 -7.322505e-01   
             
1.700000e+09 -5.958600e-01 -7.269182e-01   
             
1.704000e+09 -6.026453e-01 -7.215796e-01   
             
1.708000e+09 -6.094783e-01 -7.161950e-01   
             
1.712000e+09 -6.163561e-01 -7.107226e-01   
             
1.716000e+09 -6.232594e-01 -7.051250e-01   
             
1.720000e+09 -6.301553e-01 -6.993761e-01   
             
1.724000e+09 -6.370034e-01 -6.934647e-01   
             
1.728000e+09 -6.437622e-01 -6.873969e-01   
             
1.732000e+09 -6.503960e-01 -6.811945e-01   
             
1.736000e+09 -6.568809e-01 -6.748912e-01   
             
1.740000e+09 -6.632084e-01 -6.685275e-01   
             
1.744000e+09 -6.693864e-01 -6.621431e-01   
             
1.748000e+09 -6.754380e-01 -6.557710e-01   
             
1.752000e+09 -6.813969e-01 -6.494321e-01   
             
1.756000e+09 -6.873020e-01 -6.431316e-01   
             
1.760000e+09 -6.931907e-01 -6.368587e-01   
             
1.764000e+09 -6.990924e-01 -6.305886e-01   
             
1.768000e+09 -7.050239e-01 -6.242867e-01   
             
1.772000e+09 -7.109863e-01 -6.179147e-01   
             
1.776000e+09 -7.169654e-01 -6.114369e-01   
             
1.780000e+09 -7.229336e-01 -6.048267e-01   
             
1.784000e+09 -7.288547e-01 -5.980702e-01   
             
1.788000e+09 -7.346903e-01 -5.911695e-01   
             
1.792000e+09 -7.404058e-01 -5.841413e-01   
             
1.796000e+09 -7.459761e-01 -5.770148e-01   
             
1.800000e+09 -7.513897e-01 -5.698265e-01   
             
1.804000e+09 -7.566504e-01 -5.626140e-01   
             
1.808000e+09 -7.617767e-01 -5.554099e-01   
             
1.812000e+09 -7.667981e-01 -5.482368e-01   
             
1.816000e+09 -7.717502e-01 -5.411031e-01   
             
1.820000e+09 -7.766690e-01 -5.340021e-01   
             
1.824000e+09 -7.815841e-01 -5.269134e-01   
             
1.828000e+09 -7.865145e-01 -5.198062e-01   
             
1.832000e+09 -7.914648e-01 -5.126448e-01   
             
1.836000e+09 -7.964248e-01 -5.053944e-01   
             
1.840000e+09 -8.013711e-01 -4.980272e-01   
             
1.844000e+09 -8.062708e-01 -4.905272e-01   
             
1.848000e+09 -8.110875e-01 -4.828926e-01   
             
1.852000e+09 -8.157868e-01 -4.751362e-01   
             
1.856000e+09 -8.203421e-01 -4.672834e-01   
             
1.860000e+09 -8.247393e-01 -4.593678e-01   
             
1.864000e+09 -8.289785e-01 -4.514258e-01   
             
1.868000e+09 -8.330743e-01 -4.434903e-01   
             
1.872000e+09 -8.370528e-01 -4.355856e-01   
             
1.876000e+09 -8.409478e-01 -4.277231e-01   
             
1.880000e+09 -8.447941e-01 -4.198999e-01   
             
1.884000e+09 -8.486226e-01 -4.120988e-01   
             
1.888000e+09 -8.524542e-01 -4.042920e-01   
             
1.892000e+09 -8.562969e-01 -3.964451e-01   
             
1.896000e+09 -8.601440e-01 -3.885235e-01   
             
1.900000e+09 -8.639752e-01 -3.804979e-01   
             
1.904000e+09 -8.677601e-01 -3.723496e-01   
             
1.908000e+09 -8.714629e-01 -3.640732e-01   
             
1.912000e+09 -8.750488e-01 -3.556781e-01   
             
1.916000e+09 -8.784894e-01 -3.471868e-01   
             
1.920000e+09 -8.817672e-01 -3.386311e-01   
             
1.924000e+09 -8.848792e-01 -3.300467e-01   
             
1.928000e+09 -8.878364e-01 -3.214677e-01   
             
1.932000e+09 -8.906626e-01 -3.129206e-01   
             
1.936000e+09 -8.933901e-01 -3.044198e-01   
             
1.940000e+09 -8.960540e-01 -2.959656e-01   
             
1.944000e+09 -8.986866e-01 -2.875439e-01   
             
1.948000e+09 -9.013114e-01 -2.791284e-01   
             
1.952000e+09 -9.039397e-01 -2.706854e-01   
             
1.956000e+09 -9.065678e-01 -2.621792e-01   
             
1.960000e+09 -9.091779e-01 -2.535782e-01   
             
1.964000e+09 -9.117408e-01 -2.448603e-01   
             
1.968000e+09 -9.142205e-01 -2.360167e-01   
             
1.972000e+09 -9.165803e-01 -2.270535e-01   
             
1.976000e+09 -9.187889e-01 -2.179909e-01   
             
1.980000e+09 -9.208253e-01 -2.088596e-01   
             
1.984000e+09 -9.226826e-01 -1.996961e-01   
             
1.988000e+09 -9.243688e-01 -1.905362e-01   
             
1.992000e+09 -9.259057e-01 -1.814095e-01   
             
1.996000e+09 -9.273250e-01 -1.723340e-01   
             
2.000000e+09 -9.286630e-01 -1.633130e-01   
             
2.004000e+09 -9.299544e-01 -1.543347e-01   
             
2.008000e+09 -9.312261e-01 -1.453737e-01   
             
2.012000e+09 -9.324925e-01 -1.363956e-01   
             
2.016000e+09 -9.337527e-01 -1.273620e-01   
             
2.020000e+09 -9.349906e-01 -1.182379e-01   
             
2.024000e+09 -9.361767e-01 -1.089968e-01   
             
2.028000e+09 -9.372733e-01 -9.962585e-02   
             
2.032000e+09 -9.382400e-01 -9.012780e-02   
             
2.036000e+09 -9.390408e-01 -8.052098e-02   
             
2.040000e+09 -9.396497e-01 -7.083624e-02   
             
2.044000e+09 -9.400550e-01 -6.111191e-02   
             
2.048000e+09 -9.402614e-01 -5.138739e-02   
             
2.052000e+09 -9.402890e-01 -4.169642e-02   
             
2.056000e+09 -9.401697e-01 -3.206131e-02   
             
2.060000e+09 -9.399421e-01 -2.248887e-02   
             
2.064000e+09 -9.396442e-01 -1.296902e-02   
             
2.068000e+09 -9.393069e-01 -3.476116e-03   
             
2.072000e+09 -9.389484e-01  6.027017e-03   
             
2.076000e+09 -9.385699e-01  1.558303e-02   
             
2.080000e+09 -9.381553e-01  2.523297e-02   
             
2.084000e+09 -9.376728e-01  3.500933e-02   
             
2.088000e+09 -9.370795e-01  4.493040e-02   
             
2.092000e+09 -9.363282e-01  5.499695e-02   
             
2.096000e+09 -9.353743e-01  6.519179e-02   
             
2.100000e+09 -9.341838e-01  7.548242e-02   
             
2.104000e+09 -9.327377e-01  8.582629e-02   
             
2.108000e+09 -9.310355e-01  9.617798e-02   
             
2.112000e+09 -9.290951e-01  1.064969e-01   
             
2.116000e+09 -9.269488e-01  1.167546e-01   
             
2.120000e+09 -9.246381e-01  1.269398e-01   
             
2.124000e+09 -9.222054e-01  1.370611e-01   
             
2.128000e+09 -9.196860e-01  1.471460e-01   
             
2.132000e+09 -9.171007e-01  1.572367e-01   
             
2.136000e+09 -9.144510e-01  1.673839e-01   
             
2.140000e+09 -9.117166e-01  1.776378e-01   
             
2.144000e+09 -9.088573e-01  1.880396e-01   
             
2.148000e+09 -9.058175e-01  1.986145e-01   
             
2.152000e+09 -9.025343e-01  2.093666e-01   
             
2.156000e+09 -8.989458e-01  2.202773e-01   
             
2.160000e+09 -8.950006e-01  2.313082e-01   
             
2.164000e+09 -8.906648e-01  2.424062e-01   
             
2.168000e+09 -8.859265e-01  2.535127e-01   
             
2.172000e+09 -8.807964e-01  2.645730e-01   
             
2.176000e+09 -8.753043e-01  2.755456e-01   
             
2.180000e+09 -8.694919e-01  2.864098e-01   
             
2.184000e+09 -8.634034e-01  2.971693e-01   
             
2.188000e+09 -8.570740e-01  3.078525e-01   
             
2.192000e+09 -8.505204e-01  3.185072e-01   
             
2.196000e+09 -8.437329e-01  3.291927e-01   
             
2.200000e+09 -8.366714e-01  3.399682e-01   
             
2.204000e+09 -8.292664e-01  3.508808e-01   
             
2.208000e+09 -8.214247e-01  3.619549e-01   
             
2.212000e+09 -8.130391e-01  3.731838e-01   
             
2.216000e+09 -8.040003e-01  3.845261e-01   
             
2.220000e+09 -7.942101e-01  3.959077e-01   
             
2.224000e+09 -7.835921e-01  4.072286e-01   
             
2.228000e+09 -7.720994e-01  4.183733e-01   
             
2.232000e+09 -7.597161e-01  4.292246e-01   
             
2.236000e+09 -7.464539e-01  4.396763e-01   
             
2.240000e+09 -7.323422e-01  4.496437e-01   
             
2.244000e+09 -7.174139e-01  4.590690e-01   
             
2.248000e+09 -7.016896e-01  4.679202e-01   
             
2.252000e+09 -6.851623e-01  4.761824e-01   
             
2.256000e+09 -6.677858e-01  4.838415e-01   
             
2.260000e+09 -6.494699e-01  4.908634e-01   
             
2.264000e+09 -6.300853e-01  4.971698e-01   
             
2.268000e+09 -6.094774e-01  5.026155e-01   
             
2.272000e+09 -5.874912e-01  5.069699e-01   
             
2.276000e+09 -5.640025e-01  5.099075e-01   
             
2.280000e+09 -5.389556e-01  5.110101e-01   
             
2.284000e+09 -5.123998e-01  5.097817e-01   
             
2.288000e+09 -4.845230e-01  5.056772e-01   
             
2.292000e+09 -4.556762e-01  4.981425e-01   
             
2.296000e+09 -4.263848e-01  4.866638e-01   
             
2.300000e+09 -3.973457e-01  4.708213e-01   
             
2.304000e+09 -3.694067e-01  4.503433e-01   
             
2.308000e+09 -3.435298e-01  4.251540e-01   
             
2.312000e+09 -3.207392e-01  3.954121e-01   
             
2.316000e+09 -3.020571e-01  3.615330e-01   
             
2.320000e+09 -2.884329e-01  3.241941e-01   
             
2.324000e+09 -2.806695e-01  2.843170e-01   
             
2.328000e+09 -2.793549e-01  2.430294e-01   
             
2.332000e+09 -2.848050e-01  2.016053e-01   
             
2.336000e+09 -2.970248e-01  1.613889e-01   
             
2.340000e+09 -3.156936e-01  1.237070e-01   
             
2.344000e+09 -3.401769e-01  8.977872e-02   
             
2.348000e+09 -3.695663e-01  6.063150e-02   
             
2.352000e+09 -4.027440e-01  3.703239e-02   
             
2.356000e+09 -4.384657e-01  1.944284e-02   
             
2.360000e+09 -4.754525e-01  8.001755e-03   
             
2.364000e+09 -5.124823e-01  2.538181e-03   
             
2.368000e+09 -5.484706e-01  2.611214e-03   
             
2.372000e+09 -5.825308e-01  7.570987e-03   
             
2.376000e+09 -6.140121e-01  1.663246e-02   
             
2.380000e+09 -6.425101e-01  2.895273e-02   
             
2.384000e+09 -6.678537e-01  4.370304e-02   
             
2.388000e+09 -6.900719e-01  6.012846e-02   
             
2.392000e+09 -7.093480e-01  7.759041e-02   
             
2.396000e+09 -7.259662e-01  9.559000e-02   
             
2.400000e+09 -7.402597e-01  1.137728e-01   
             
2.404000e+09 -7.525639e-01  1.319171e-01   
             
2.408000e+09 -7.631813e-01  1.499107e-01   
             
2.412000e+09 -7.723576e-01  1.677201e-01   
             
2.416000e+09 -7.802725e-01  1.853575e-01   
             
2.420000e+09 -7.870417e-01  2.028506e-01   
             
2.424000e+09 -7.927286e-01  2.202186e-01   
             
2.428000e+09 -7.973625e-01  2.374564e-01   
             
2.432000e+09 -8.009583e-01  2.545281e-01   
             
2.436000e+09 -8.035356e-01  2.713694e-01   
             
2.440000e+09 -8.051326e-01  2.878968e-01   
             
2.444000e+09 -8.058143e-01  3.040210e-01   
             
2.448000e+09 -8.056741e-01  3.196610e-01   
             
2.452000e+09 -8.048281e-01  3.347578e-01   
             
2.456000e+09 -8.034053e-01  3.492831e-01   
             
2.460000e+09 -8.015351e-01  3.632431e-01   
             
2.464000e+09 -7.993339e-01  3.766772e-01   
             
2.468000e+09 -7.968944e-01  3.896507e-01   
             
2.472000e+09 -7.942780e-01  4.022442e-01   
             
2.476000e+09 -7.915125e-01  4.145417e-01   
             
2.480000e+09 -7.885950e-01  4.266175e-01   
             
2.484000e+09 -7.854984e-01  4.385273e-01   
             
2.488000e+09 -7.821816e-01  4.503012e-01   
             
2.492000e+09 -7.786012e-01  4.619421e-01   
             
2.496000e+09 -7.747217e-01  4.734286e-01   
             
2.500000e+09 -7.705247e-01  4.847215e-01   
             
2.504000e+09 -7.660135e-01  4.957730e-01   
             
2.508000e+09 -7.612139e-01  5.065368e-01   
             
2.512000e+09 -7.561715e-01  5.169774e-01   
             
2.516000e+09 -7.509446e-01  5.270771e-01   
             
2.520000e+09 -7.455961e-01  5.368397e-01   
             
2.524000e+09 -7.401842e-01  5.462902e-01   
             
2.528000e+09 -7.347543e-01  5.554713e-01   
             
2.532000e+09 -7.293330e-01  5.644368e-01   
             
2.536000e+09 -7.239258e-01  5.732431e-01   
             
2.540000e+09 -7.185178e-01  5.819412e-01   
             
2.544000e+09 -7.130779e-01  5.905689e-01   
             
2.548000e+09 -7.075654e-01  5.991461e-01   
             
2.552000e+09 -7.019378e-01  6.076732e-01   
             
2.556000e+09 -6.961590e-01  6.161321e-01   
             
2.560000e+09 -6.902055e-01  6.244907e-01   
             
2.564000e+09 -6.840705e-01  6.327096e-01   
             
2.568000e+09 -6.777654e-01  6.407496e-01   
             
2.572000e+09 -6.713177e-01  6.485788e-01   
             
2.576000e+09 -6.647664e-01  6.561782e-01   
             
2.580000e+09 -6.581555e-01  6.635454e-01   
             
2.584000e+09 -6.515273e-01  6.706951e-01   
             
2.588000e+09 -6.449153e-01  6.776563e-01   
             
2.592000e+09 -6.383395e-01  6.844681e-01   
             
2.596000e+09 -6.318035e-01  6.911730e-01   
             
2.600000e+09 -6.252947e-01  6.978104e-01   
             
2.604000e+09 -6.187871e-01  7.044103e-01   
             
2.608000e+09 -6.122463e-01  7.109890e-01   
             
2.612000e+09 -6.056353e-01  7.175469e-01   
             
2.616000e+09 -5.989214e-01  7.240694e-01   
             
2.620000e+09 -5.920817e-01  7.305296e-01   
             
2.624000e+09 -5.851067e-01  7.368937e-01   
             
2.628000e+09 -5.780023e-01  7.431269e-01   
             
2.632000e+09 -5.707881e-01  7.491995e-01   
             
2.636000e+09 -5.634946e-01  7.550921e-01   
             
2.640000e+09 -5.561576e-01  7.607988e-01   
             
2.644000e+09 -5.488126e-01  7.663285e-01   
             
2.648000e+09 -5.414888e-01  7.717027e-01   
             
2.652000e+09 -5.342047e-01  7.769526e-01   
             
2.656000e+09 -5.269651e-01  7.821134e-01   
             
2.660000e+09 -5.197608e-01  7.872187e-01   
             
2.664000e+09 -5.125704e-01  7.922954e-01   
             
2.668000e+09 -5.053643e-01  7.973586e-01   
             
2.672000e+09 -4.981098e-01  8.024104e-01   
             
2.676000e+09 -4.907768e-01  8.074392e-01   
             
2.680000e+09 -4.833429e-01  8.124221e-01   
             
2.684000e+09 -4.757972e-01  8.173293e-01   
             
2.688000e+09 -4.681421e-01  8.221289e-01   
             
2.692000e+09 -4.603926e-01  8.267927e-01   
             
2.696000e+09 -4.525742e-01  8.313009e-01   
             
2.700000e+09 -4.447181e-01  8.356452e-01   
             
2.704000e+09 -4.368565e-01  8.398305e-01   
             
2.708000e+09 -4.290167e-01  8.438738e-01   
             
2.712000e+09 -4.212173e-01  8.478014e-01   
             
2.716000e+09 -4.134648e-01  8.516443e-01   
             
2.720000e+09 -4.057530e-01  8.554333e-01   
             
2.724000e+09 -3.980639e-01  8.591937e-01   
             
2.728000e+09 -3.903717e-01  8.629413e-01   
             
2.732000e+09 -3.826461e-01  8.666796e-01   
             
2.736000e+09 -3.748587e-01  8.704000e-01   
             
2.740000e+09 -3.669871e-01  8.740826e-01   
             
2.744000e+09 -3.590188e-01  8.777004e-01   
             
2.748000e+09 -3.509537e-01  8.812233e-01   
             
2.752000e+09 -3.428036e-01  8.846239e-01   
             
2.756000e+09 -3.345905e-01  8.878814e-01   
             
2.760000e+09 -3.263430e-01  8.909857e-01   
             
2.764000e+09 -3.180913e-01  8.939387e-01   
             
2.768000e+09 -3.098623e-01  8.967541e-01   
             
2.772000e+09 -3.016753e-01  8.994549e-01   
             
