!---------------------------------------------------------------------
! ZVRE, 3.52
!---------------------------------------------------------------------
! symbol freq-unit parameter-type data-format keyword impedance-ohm
#        HZ        S              RI          R       50
!---------------------------------------------------------------------
! freq                reS11          imS11           
  2.00000000000E+09 -0.89124         0.284558     
  2.00250000000E+09 -0.888104        0.29089      
  2.00500000000E+09 -0.886718        0.298367     
  2.00750000000E+09 -0.884254        0.306702     
  2.01000000000E+09 -0.8814          0.313845     
  2.01250000000E+09 -0.87907         0.318602     
  2.01500000000E+09 -0.876575        0.325706     
  2.01750000000E+09 -0.875615        0.331016     
  2.02000000000E+09 -0.873328        0.335505     
  2.02250000000E+09 -0.871185        0.341176     
  2.02500000000E+09 -0.868487        0.346965     
  2.02750000000E+09 -0.864623        0.352436     
  2.03000000000E+09 -0.863363        0.357589     
  2.03250000000E+09 -0.861256        0.364022     
  2.03500000000E+09 -0.859655        0.369571     
  2.03750000000E+09 -0.856982        0.373457     
  2.04000000000E+09 -0.855072        0.379255     
  2.04250000000E+09 -0.851792        0.385054     
  2.04500000000E+09 -0.850432        0.39079      
  2.04750000000E+09 -0.847408        0.396518     
  2.05000000000E+09 -0.843756        0.40298      
  2.05250000000E+09 -0.840988        0.409586     
  2.05500000000E+09 -0.837687        0.416083     
  2.05750000000E+09 -0.833784        0.420957     
  2.06000000000E+09 -0.830896        0.42644      
  2.06250000000E+09 -0.828618        0.431388     
  2.06500000000E+09 -0.824264        0.436599     
  2.06750000000E+09 -0.82163         0.442309     
  2.07000000000E+09 -0.818743        0.446862     
  2.07250000000E+09 -0.81573         0.452732     
  2.07500000000E+09 -0.812889        0.457914     
  2.07750000000E+09 -0.810165        0.464522     
  2.08000000000E+09 -0.806173        0.470222     
  2.08250000000E+09 -0.802677        0.473629     
  2.08500000000E+09 -0.798813        0.480299     
  2.08750000000E+09 -0.79411         0.486262     
  2.09000000000E+09 -0.790749        0.493253     
  2.09250000000E+09 -0.786965        0.498822     
  2.09500000000E+09 -0.784066        0.504746     
  2.09750000000E+09 -0.780111        0.510263     
  2.10000000000E+09 -0.776251        0.516729     
  2.10250000000E+09 -0.772012        0.521304     
  2.10500000000E+09 -0.767161        0.528593     
  2.10750000000E+09 -0.764067        0.534635     
  2.11000000000E+09 -0.75914         0.539923     
  2.11250000000E+09 -0.755729        0.545677     
  2.11500000000E+09 -0.751646        0.550179     
  2.11750000000E+09 -0.747402        0.554575     
  2.12000000000E+09 -0.743107        0.559658     
  2.12250000000E+09 -0.739061        0.564269     
  2.12500000000E+09 -0.73484         0.569205     
  2.12750000000E+09 -0.729628        0.575019     
  2.13000000000E+09 -0.725462        0.580455     
  2.13250000000E+09 -0.720847        0.584968     
  2.13500000000E+09 -0.716796        0.590866     
  2.13750000000E+09 -0.711303        0.595432     
  2.14000000000E+09 -0.707005        0.601385     
  2.14250000000E+09 -0.701716        0.607108     
  2.14500000000E+09 -0.697098        0.611664     
  2.14750000000E+09 -0.693112        0.616614     
  2.15000000000E+09 -0.687           0.621848     
  2.15250000000E+09 -0.682877        0.625861     
  2.15500000000E+09 -0.67673         0.63141      
  2.15750000000E+09 -0.672673        0.636838     
  2.16000000000E+09 -0.666201        0.643685     
  2.16250000000E+09 -0.661278        0.648155     
  2.16500000000E+09 -0.655444        0.654947     
  2.16750000000E+09 -0.648116        0.6593       
  2.17000000000E+09 -0.64283         0.663529     
  2.17250000000E+09 -0.637003        0.669229     
  2.17500000000E+09 -0.631652        0.674814     
  2.17750000000E+09 -0.625993        0.677862     
  2.18000000000E+09 -0.618621        0.682234     
  2.18250000000E+09 -0.613282        0.688603     
  2.18500000000E+09 -0.607904        0.692393     
  2.18750000000E+09 -0.602409        0.696321     
  2.19000000000E+09 -0.5949          0.701739     
  2.19250000000E+09 -0.589051        0.706506     
  2.19500000000E+09 -0.580291        0.710147     
  2.19750000000E+09 -0.575307        0.713907     
  2.20000000000E+09 -0.566627        0.719583     
  2.20250000000E+09 -0.559846        0.724663     
  2.20500000000E+09 -0.553516        0.726392     
  2.20750000000E+09 -0.546222        0.732174     
  2.21000000000E+09 -0.539978        0.735775     
  2.21250000000E+09 -0.531903        0.739283     
  2.21500000000E+09 -0.52574         0.743775     
  2.21750000000E+09 -0.518507        0.74674      
  2.22000000000E+09 -0.509778        0.749655     
  2.22250000000E+09 -0.503333        0.752383     
  2.22500000000E+09 -0.495761        0.755431     
  2.22750000000E+09 -0.488573        0.758192     
  2.23000000000E+09 -0.480772        0.762124     
  2.23250000000E+09 -0.473001        0.765133     
  2.23500000000E+09 -0.46514         0.768812     
  2.23750000000E+09 -0.457018        0.77297      
  2.24000000000E+09 -0.447764        0.775947     
  2.24250000000E+09 -0.439411        0.779589     
  2.24500000000E+09 -0.428485        0.781463     
  2.24750000000E+09 -0.420484        0.784127     
  2.25000000000E+09 -0.411756        0.785743     
  2.25250000000E+09 -0.401984        0.78772      
  2.25500000000E+09 -0.393484        0.790829     
  2.25750000000E+09 -0.384324        0.792938     
  2.26000000000E+09 -0.373548        0.794316     
  2.26250000000E+09 -0.363529        0.797414     
  2.26500000000E+09 -0.353852        0.797938     
  2.26750000000E+09 -0.342748        0.799222     
  2.27000000000E+09 -0.332451        0.800569     
  2.27250000000E+09 -0.323928        0.801043     
  2.27500000000E+09 -0.313012        0.802084     
  2.27750000000E+09 -0.302151        0.801442     
  2.28000000000E+09 -0.290451        0.801861     
  2.28250000000E+09 -0.281139        0.802928     
  2.28500000000E+09 -0.270743        0.800475     
  2.28750000000E+09 -0.258447        0.799755     
  2.29000000000E+09 -0.246909        0.797144     
  2.29250000000E+09 -0.236968        0.794177     
  2.29500000000E+09 -0.224253        0.791197     
  2.29750000000E+09 -0.212231        0.78806      
  2.30000000000E+09 -0.201073        0.783977     
  2.30250000000E+09 -0.189149        0.779029     
  2.30500000000E+09 -0.176609        0.774767     
  2.30750000000E+09 -0.164235        0.769286     
  2.31000000000E+09 -0.151819        0.764721     
  2.31250000000E+09 -0.13746         0.759413     
  2.31500000000E+09 -0.122799        0.753065     
  2.31750000000E+09 -0.108731        0.746409     
  2.32000000000E+09 -0.0941268       0.73736      
  2.32250000000E+09 -0.0804837       0.728128     
  2.32500000000E+09 -0.0664515       0.717642     
  2.32750000000E+09 -0.0530175       0.705563     
  2.33000000000E+09 -0.0394914       0.693535     
  2.33250000000E+09 -0.0273169       0.680003     
  2.33500000000E+09 -0.0166244       0.664698     
  2.33750000000E+09 -0.00621319      0.648613     
  2.34000000000E+09  0.00263469      0.632478     
  2.34250000000E+09  0.0112042       0.615939     
  2.34500000000E+09  0.0190381       0.597564     
  2.34750000000E+09  0.0246243       0.576685     
  2.35000000000E+09  0.028626        0.554242     
  2.35250000000E+09  0.0306811       0.532577     
  2.35500000000E+09  0.0310255       0.509796     
  2.35750000000E+09  0.0304788       0.487467     
  2.36000000000E+09  0.0279278       0.463905     
  2.36250000000E+09  0.023973        0.440481     
  2.36500000000E+09  0.0173521       0.416784     
  2.36750000000E+09  0.00811695      0.39381      
  2.37000000000E+09 -0.00222666      0.370999     
  2.37250000000E+09 -0.0158312       0.3476       
  2.37500000000E+09 -0.0317221       0.324963     
  2.37750000000E+09 -0.0506077       0.303934     
  2.38000000000E+09 -0.0724031       0.28521      
  2.38250000000E+09 -0.0954982       0.269311     
  2.38500000000E+09 -0.119447        0.256464     
  2.38750000000E+09 -0.144409        0.245661     
  2.39000000000E+09 -0.169107        0.236775     
  2.39250000000E+09 -0.195135        0.230387     
  2.39500000000E+09 -0.222309        0.225551     
  2.39750000000E+09 -0.250553        0.224543     
  2.40000000000E+09 -0.277659        0.227899     
  2.40250000000E+09 -0.303822        0.234148     
  2.40500000000E+09 -0.327758        0.243568     
  2.40750000000E+09 -0.350233        0.253712     
  2.41000000000E+09 -0.370746        0.265247     
  2.41250000000E+09 -0.389557        0.278584     
  2.41500000000E+09 -0.406831        0.29268      
  2.41750000000E+09 -0.423402        0.307365     
  2.42000000000E+09 -0.437943        0.323365     
  2.42250000000E+09 -0.451754        0.339783     
  2.42500000000E+09 -0.463724        0.356846     
  2.42750000000E+09 -0.474024        0.373869     
  2.43000000000E+09 -0.483345        0.392028     
  2.43250000000E+09 -0.490364        0.409631     
  2.43500000000E+09 -0.496599        0.427562     
  2.43750000000E+09 -0.501261        0.444355     
  2.44000000000E+09 -0.504731        0.46331      
  2.44250000000E+09 -0.506518        0.480891     
  2.44500000000E+09 -0.508133        0.498623     
  2.44750000000E+09 -0.508925        0.515037     
  2.45000000000E+09 -0.508895        0.53263      
  2.45250000000E+09 -0.508115        0.54892      
  2.45500000000E+09 -0.507577        0.563384     
  2.45750000000E+09 -0.503785        0.578701     
  2.46000000000E+09 -0.501375        0.592187     
  2.46250000000E+09 -0.499612        0.603608     
  2.46500000000E+09 -0.495688        0.618234     
  2.46750000000E+09 -0.4911          0.62956      
  2.47000000000E+09 -0.485729        0.643455     
  2.47250000000E+09 -0.481717        0.654125     
  2.47500000000E+09 -0.476805        0.665336     
  2.47750000000E+09 -0.471219        0.678676     
  2.48000000000E+09 -0.466005        0.688839     
  2.48250000000E+09 -0.459794        0.70056      
  2.48500000000E+09 -0.453659        0.711183     
  2.48750000000E+09 -0.447346        0.720419     
  2.49000000000E+09 -0.44107         0.730365     
  2.49250000000E+09 -0.434742        0.738636     
  2.49500000000E+09 -0.427781        0.747831     
  2.49750000000E+09 -0.420331        0.756808     
  2.50000000000E+09 -0.411849        0.76338      
  2.50250000000E+09 -0.405313        0.771537     
  2.50500000000E+09 -0.397741        0.779339     
  2.50750000000E+09 -0.391006        0.785916     
  2.51000000000E+09 -0.384953        0.790683     
  2.51250000000E+09 -0.376423        0.797328     
  2.51500000000E+09 -0.369641        0.803547     
  2.51750000000E+09 -0.362141        0.811003     
  2.52000000000E+09 -0.355034        0.817898     
  2.52250000000E+09 -0.347419        0.823297     
  2.52500000000E+09 -0.340806        0.82883      
  2.52750000000E+09 -0.333498        0.833708     
  2.53000000000E+09 -0.326054        0.839128     
  2.53250000000E+09 -0.318557        0.845158     
  2.53500000000E+09 -0.311828        0.848963     
  2.53750000000E+09 -0.304406        0.855274     
  2.54000000000E+09 -0.296019        0.859597     
  2.54250000000E+09 -0.288719        0.862769     
  2.54500000000E+09 -0.281419        0.867191     
  2.54750000000E+09 -0.273676        0.871923     
  2.55000000000E+09 -0.266091        0.876691     
  2.55250000000E+09 -0.258625        0.880326     
  2.55500000000E+09 -0.250593        0.884005     
  2.55750000000E+09 -0.244667        0.888897     
  2.56000000000E+09 -0.234866        0.891426     
  2.56250000000E+09 -0.227857        0.893369     
  2.56500000000E+09 -0.21902         0.898973     
  2.56750000000E+09 -0.209252        0.901685     
  2.57000000000E+09 -0.201471        0.907647     
  2.57250000000E+09 -0.192794        0.909289     
  2.57500000000E+09 -0.185118        0.911821     
  2.57750000000E+09 -0.17758         0.915061     
  2.58000000000E+09 -0.171359        0.916373     
  2.58250000000E+09 -0.165172        0.916898     
  2.58500000000E+09 -0.157676        0.918003     
  2.58750000000E+09 -0.151549        0.92151      
  2.59000000000E+09 -0.144982        0.922643     
  2.59250000000E+09 -0.137258        0.923024     
  2.59500000000E+09 -0.130619        0.925663     
  2.59750000000E+09 -0.123357        0.927631     
  2.60000000000E+09 -0.117053        0.930339     
  2.60250000000E+09 -0.109219        0.931144     
  2.60500000000E+09 -0.102103        0.931409     
  2.60750000000E+09 -0.0970255       0.93515      
  2.61000000000E+09 -0.0887869       0.934623     
  2.61250000000E+09 -0.0810755       0.934486     
  2.61500000000E+09 -0.0726211       0.936339     
  2.61750000000E+09 -0.0658449       0.938109     
  2.62000000000E+09 -0.0580191       0.938954     
  2.62250000000E+09 -0.0505598       0.939612     
  2.62500000000E+09 -0.0431194       0.939628     
  2.62750000000E+09 -0.0345077       0.941064     
  2.63000000000E+09 -0.0281192       0.94277      
  2.63250000000E+09 -0.0192478       0.942589     
  2.63500000000E+09 -0.0136843       0.942366     
  2.63750000000E+09 -0.00406345      0.943569     
  2.64000000000E+09  0.00234129      0.943241     
  2.64250000000E+09  0.00862498      0.945937     
  2.64500000000E+09  0.0150523       0.944374     
  2.64750000000E+09  0.020785        0.944251     
  2.65000000000E+09  0.0268508       0.945332     
  2.65250000000E+09  0.0339265       0.94626      
  2.65500000000E+09  0.0410027       0.946699     
  2.65750000000E+09  0.0485765       0.946444     
  2.66000000000E+09  0.0533008       0.947055     
  2.66250000000E+09  0.0622475       0.947615     
  2.66500000000E+09  0.0697336       0.945424     
  2.66750000000E+09  0.0766814       0.945296     
  2.67000000000E+09  0.0835966       0.944562     
  2.67250000000E+09  0.092422        0.945908     
  2.67500000000E+09  0.098805        0.944906     
  2.67750000000E+09  0.10538         0.94509      
  2.68000000000E+09  0.113998        0.944974     
  2.68250000000E+09  0.122398        0.946404     
  2.68500000000E+09  0.130231        0.944266     
  2.68750000000E+09  0.135758        0.944471     
  2.69000000000E+09  0.142373        0.94474      
  2.69250000000E+09  0.149446        0.944181     
  2.69500000000E+09  0.157569        0.943024     
  2.69750000000E+09  0.163673        0.942508     
  2.70000000000E+09  0.169625        0.941406     
  2.70250000000E+09  0.176215        0.940468     
  2.70500000000E+09  0.181452        0.939065     
  2.70750000000E+09  0.187909        0.937191     
  2.71000000000E+09  0.194531        0.936699     
  2.71250000000E+09  0.200346        0.935428     
  2.71500000000E+09  0.206824        0.934255     
  2.71750000000E+09  0.213778        0.933646     
  2.72000000000E+09  0.219089        0.93285      
  2.72250000000E+09  0.226283        0.931981     
  2.72500000000E+09  0.232896        0.929968     
  2.72750000000E+09  0.239036        0.929568     
  2.73000000000E+09  0.24524         0.926596     
  2.73250000000E+09  0.252434        0.92658      
  2.73500000000E+09  0.257541        0.924912     
  2.73750000000E+09  0.264794        0.923432     
  2.74000000000E+09  0.270346        0.922341     
  2.74250000000E+09  0.276009        0.920383     
  2.74500000000E+09  0.281558        0.919925     
  2.74750000000E+09  0.289755        0.918447     
  2.75000000000E+09  0.296465        0.914913     
  2.75250000000E+09  0.301913        0.914337     
  2.75500000000E+09  0.308238        0.91307      
  2.75750000000E+09  0.31388         0.908862     
  2.76000000000E+09  0.320006        0.90778      
  2.76250000000E+09  0.325196        0.906131     
  2.76500000000E+09  0.330628        0.905191     
  2.76750000000E+09  0.336452        0.901958     
  2.77000000000E+09  0.342459        0.898389     
  2.77250000000E+09  0.347204        0.898282     
  2.77500000000E+09  0.352853        0.896634     
  2.77750000000E+09  0.356743        0.893575     
  2.78000000000E+09  0.360399        0.891884     
  2.78250000000E+09  0.366639        0.890354     
  2.78500000000E+09  0.373568        0.887145     
  2.78750000000E+09  0.379111        0.88413      
  2.79000000000E+09  0.38568         0.881476     
  2.79250000000E+09  0.391349        0.878226     
  2.79500000000E+09  0.397958        0.876324     
  2.79750000000E+09  0.404523        0.873303     
  2.80000000000E+09  0.411677        0.870435     
  2.80250000000E+09  0.416614        0.866811     
  2.80500000000E+09  0.42474         0.862462     
  2.80750000000E+09  0.431366        0.860405     
  2.81000000000E+09  0.438206        0.856884     
  2.81250000000E+09  0.445278        0.853768     
  2.81500000000E+09  0.451983        0.85038      
  2.81750000000E+09  0.459592        0.845615     
  2.82000000000E+09  0.464178        0.843129     
  2.82250000000E+09  0.470225        0.839812     
  2.82500000000E+09  0.476039        0.839039     
  2.82750000000E+09  0.481317        0.836229     
  2.83000000000E+09  0.487078        0.832009     
  2.83250000000E+09  0.493073        0.829276     
  2.83500000000E+09  0.499197        0.824153     
  2.83750000000E+09  0.504962        0.822406     
  2.84000000000E+09  0.510191        0.817714     
  2.84250000000E+09  0.515527        0.81283      
  2.84500000000E+09  0.522714        0.810117     
  2.84750000000E+09  0.527657        0.806577     
  2.85000000000E+09  0.53252         0.804538     
  2.85250000000E+09  0.53882         0.799273     
  2.85500000000E+09  0.543696        0.797615     
  2.85750000000E+09  0.547881        0.792356     
  2.86000000000E+09  0.555342        0.789777     
  2.86250000000E+09  0.560646        0.786292     
  2.86500000000E+09  0.566644        0.781189     
  2.86750000000E+09  0.572801        0.778345     
  2.87000000000E+09  0.57717         0.773329     
  2.87250000000E+09  0.584036        0.768651     
  2.87500000000E+09  0.590462        0.765505     
  2.87750000000E+09  0.596388        0.761506     
  2.88000000000E+09  0.601698        0.758733     
  2.88250000000E+09  0.607744        0.752122     
  2.88500000000E+09  0.610719        0.749477     
  2.88750000000E+09  0.615296        0.745546     
  2.89000000000E+09  0.61951         0.742608     
  2.89250000000E+09  0.624063        0.737843     
  2.89500000000E+09  0.628172        0.733362     
  2.89750000000E+09  0.632383        0.731977     
  2.90000000000E+09  0.635861        0.727007     
  2.90250000000E+09  0.641956        0.722179     
  2.90500000000E+09  0.646109        0.717538     
  2.90750000000E+09  0.649348        0.713508     
  2.91000000000E+09  0.654096        0.707502     
  2.91250000000E+09  0.659178        0.703332     
  2.91500000000E+09  0.662688        0.700505     
  2.91750000000E+09  0.665776        0.697208     
  2.92000000000E+09  0.669529        0.693482     
  2.92250000000E+09  0.673539        0.690741     
  2.92500000000E+09  0.676938        0.685858     
  2.92750000000E+09  0.681607        0.681642     
  2.93000000000E+09  0.687215        0.678106     
  2.93250000000E+09  0.690554        0.673479     
  2.93500000000E+09  0.694712        0.668073     
  2.93750000000E+09  0.70119         0.663349     
