#   Hz   S  RI   R   50
! 
1.400000e+09 -2.332447e-01 -8.912582e-01   
             
1.404000e+09 -2.429185e-01 -8.882652e-01   
             
1.408000e+09 -2.523243e-01 -8.851649e-01   
             
1.412000e+09 -2.614761e-01 -8.820432e-01   
             
1.416000e+09 -2.704181e-01 -8.789736e-01   
             
1.420000e+09 -2.792171e-01 -8.760074e-01   
             
1.424000e+09 -2.879532e-01 -8.731671e-01   
             
1.428000e+09 -2.967076e-01 -8.704440e-01   
             
1.432000e+09 -3.055516e-01 -8.678002e-01   
             
1.436000e+09 -3.145367e-01 -8.651749e-01   
             
1.440000e+09 -3.236876e-01 -8.624931e-01   
             
1.444000e+09 -3.329998e-01 -8.596768e-01   
             
1.448000e+09 -3.424403e-01 -8.566556e-01   
             
1.452000e+09 -3.519530e-01 -8.533766e-01   
             
1.456000e+09 -3.614668e-01 -8.498113e-01   
             
1.460000e+09 -3.709055e-01 -8.459591e-01   
             
1.464000e+09 -3.801987e-01 -8.418471e-01   
             
1.468000e+09 -3.892911e-01 -8.375255e-01   
             
1.472000e+09 -3.981497e-01 -8.330605e-01   
             
1.476000e+09 -4.067684e-01 -8.285249e-01   
             
1.480000e+09 -4.151676e-01 -8.239876e-01   
             
1.484000e+09 -4.233909e-01 -8.195043e-01   
             
1.488000e+09 -4.314987e-01 -8.151103e-01   
             
1.492000e+09 -4.395589e-01 -8.108157e-01   
             
1.496000e+09 -4.476373e-01 -8.066048e-01   
             
1.500000e+09 -4.557886e-01 -8.024389e-01   
             
1.504000e+09 -4.640487e-01 -7.982625e-01   
             
1.508000e+09 -4.724301e-01 -7.940111e-01   
             
1.512000e+09 -4.809205e-01 -7.896208e-01   
             
1.516000e+09 -4.894849e-01 -7.850368e-01   
             
1.520000e+09 -4.980712e-01 -7.802216e-01   
             
1.524000e+09 -5.066170e-01 -7.751592e-01   
             
1.528000e+09 -5.150591e-01 -7.698575e-01   
             
1.532000e+09 -5.233418e-01 -7.643467e-01   
             
1.536000e+09 -5.314244e-01 -7.586749e-01   
             
1.540000e+09 -5.392870e-01 -7.529008e-01   
             
1.544000e+09 -5.469323e-01 -7.470860e-01   
             
1.548000e+09 -5.543848e-01 -7.412855e-01   
             
1.552000e+09 -5.616872e-01 -7.355414e-01   
             
1.556000e+09 -5.688939e-01 -7.298762e-01   
             
1.560000e+09 -5.760626e-01 -7.242909e-01   
             
1.564000e+09 -5.832470e-01 -7.187651e-01   
             
1.568000e+09 -5.904883e-01 -7.132603e-01   
             
1.572000e+09 -5.978105e-01 -7.077256e-01   
             
1.576000e+09 -6.052166e-01 -7.021056e-01   
             
1.580000e+09 -6.126891e-01 -6.963478e-01   
             
1.584000e+09 -6.201922e-01 -6.904100e-01   
             
1.588000e+09 -6.276773e-01 -6.842665e-01   
             
1.592000e+09 -6.350899e-01 -6.779109e-01   
             
1.596000e+09 -6.423774e-01 -6.713573e-01   
             
1.600000e+09 -6.494958e-01 -6.646378e-01   
             
1.604000e+09 -6.564162e-01 -6.577979e-01   
             
1.608000e+09 -6.631284e-01 -6.508899e-01   
             
1.612000e+09 -6.696416e-01 -6.439658e-01   
             
1.616000e+09 -6.759834e-01 -6.370698e-01   
             
1.620000e+09 -6.821948e-01 -6.302326e-01   
             
1.624000e+09 -6.883248e-01 -6.234672e-01   
             
1.628000e+09 -6.944229e-01 -6.167679e-01   
             
1.632000e+09 -7.005324e-01 -6.101107e-01   
             
1.636000e+09 -7.066841e-01 -6.034579e-01   
             
1.640000e+09 -7.128926e-01 -5.967632e-01   
             
1.644000e+09 -7.191539e-01 -5.899784e-01   
             
1.648000e+09 -7.254465e-01 -5.830606e-01   
             
1.652000e+09 -7.317345e-01 -5.759776e-01   
             
1.656000e+09 -7.379730e-01 -5.687131e-01   
             
1.660000e+09 -7.441139e-01 -5.612682e-01   
             
1.664000e+09 -7.501133e-01 -5.536614e-01   
             
1.668000e+09 -7.559370e-01 -5.459257e-01   
             
1.672000e+09 -7.615653e-01 -5.381041e-01   
             
1.676000e+09 -7.669955e-01 -5.302433e-01   
             
1.680000e+09 -7.722420e-01 -5.223874e-01   
             
1.684000e+09 -7.773339e-01 -5.145717e-01   
             
1.688000e+09 -7.823107e-01 -5.068179e-01   
             
1.692000e+09 -7.872167e-01 -4.991315e-01   
             
1.696000e+09 -7.920944e-01 -4.915014e-01   
             
1.700000e+09 -7.969786e-01 -4.839014e-01   
             
1.704000e+09 -8.018920e-01 -4.762948e-01   
             
1.708000e+09 -8.068413e-01 -4.686389e-01   
             
1.712000e+09 -8.118171e-01 -4.608921e-01   
             
1.716000e+09 -8.167952e-01 -4.530191e-01   
             
1.720000e+09 -8.217399e-01 -4.449959e-01   
             
1.724000e+09 -8.266093e-01 -4.368138e-01   
             
1.728000e+09 -8.313611e-01 -4.284795e-01   
             
1.732000e+09 -8.359585e-01 -4.200150e-01   
             
1.736000e+09 -8.403751e-01 -4.114538e-01   
             
1.740000e+09 -8.445987e-01 -4.028366e-01   
             
1.744000e+09 -8.486327e-01 -3.942053e-01   
             
1.748000e+09 -8.524953e-01 -3.855974e-01   
             
1.752000e+09 -8.562168e-01 -3.770407e-01   
             
1.756000e+09 -8.598352e-01 -3.685497e-01   
             
1.760000e+09 -8.633906e-01 -3.601239e-01   
             
1.764000e+09 -8.669198e-01 -3.517479e-01   
             
1.768000e+09 -8.704508e-01 -3.433938e-01   
             
1.772000e+09 -8.739990e-01 -3.350256e-01   
             
1.776000e+09 -8.775651e-01 -3.266042e-01   
             
1.780000e+09 -8.811354e-01 -3.180929e-01   
             
1.784000e+09 -8.846832e-01 -3.094630e-01   
             
1.788000e+09 -8.881732e-01 -3.006973e-01   
             
1.792000e+09 -8.915660e-01 -2.917931e-01   
             
1.796000e+09 -8.948240e-01 -2.827620e-01   
             
1.800000e+09 -8.979162e-01 -2.736286e-01   
             
1.804000e+09 -9.008230e-01 -2.644270e-01   
             
1.808000e+09 -9.035382e-01 -2.551956e-01   
             
1.812000e+09 -9.060701e-01 -2.459726e-01   
             
1.816000e+09 -9.084401e-01 -2.367898e-01   
             
1.820000e+09 -9.106796e-01 -2.276689e-01   
             
1.824000e+09 -9.128251e-01 -2.186184e-01   
             
1.828000e+09 -9.149136e-01 -2.096324e-01   
             
1.832000e+09 -9.169768e-01 -2.006920e-01   
             
1.836000e+09 -9.190369e-01 -1.917678e-01   
             
1.840000e+09 -9.211034e-01 -1.828243e-01   
             
1.844000e+09 -9.231716e-01 -1.738250e-01   
             
1.848000e+09 -9.252239e-01 -1.647377e-01   
             
1.852000e+09 -9.272315e-01 -1.555389e-01   
             
1.856000e+09 -9.291589e-01 -1.462171e-01   
             
1.860000e+09 -9.309688e-01 -1.367750e-01   
             
1.864000e+09 -9.326273e-01 -1.272282e-01   
             
1.868000e+09 -9.341083e-01 -1.176040e-01   
             
1.872000e+09 -9.353975e-01 -1.079369e-01   
             
1.876000e+09 -9.364942e-01 -9.826401e-02   
             
1.880000e+09 -9.374109e-01 -8.862014e-02   
             
1.884000e+09 -9.381719e-01 -7.903264e-02   
             
1.888000e+09 -9.388097e-01 -6.951782e-02   
             
1.892000e+09 -9.393600e-01 -6.007878e-02   
             
1.896000e+09 -9.398569e-01 -5.070501e-02   
             
1.900000e+09 -9.403279e-01 -4.137405e-02   
             
1.904000e+09 -9.407901e-01 -3.205474e-02   
             
1.908000e+09 -9.412477e-01 -2.271168e-02   
             
1.912000e+09 -9.416909e-01 -1.331030e-02   
             
1.916000e+09 -9.420981e-01 -3.821798e-03   
             
1.920000e+09 -9.424380e-01  5.772708e-03   
             
1.924000e+09 -9.426745e-01  1.547948e-02   
             
1.928000e+09 -9.427712e-01  2.529120e-02   
             
1.932000e+09 -9.426970e-01  3.518789e-02   
             
1.936000e+09 -9.424299e-01  4.513969e-02   
             
1.940000e+09 -9.419602e-01  5.511096e-02   
             
1.944000e+09 -9.412919e-01  6.506522e-02   
             
1.948000e+09 -9.404417e-01  7.497025e-02   
             
1.952000e+09 -9.394369e-01  8.480253e-02   
             
1.956000e+09 -9.383112e-01  9.455053e-02   
             
1.960000e+09 -9.371002e-01  1.042163e-01   
             
1.964000e+09 -9.358355e-01  1.138150e-01   
             
1.968000e+09 -9.345411e-01  1.233730e-01   
             
1.972000e+09 -9.332291e-01  1.329239e-01   
             
1.976000e+09 -9.318979e-01  1.425037e-01   
             
1.980000e+09 -9.305327e-01  1.521459e-01   
             
1.984000e+09 -9.291068e-01  1.618766e-01   
             
1.988000e+09 -9.275854e-01  1.717104e-01   
             
1.992000e+09 -9.259303e-01  1.816487e-01   
             
1.996000e+09 -9.241052e-01  1.916790e-01   
             
2.000000e+09 -9.220803e-01  2.017767e-01   
             
2.004000e+09 -9.198368e-01  2.119082e-01   
             
2.008000e+09 -9.173690e-01  2.220357e-01   
             
2.012000e+09 -9.146853e-01  2.321226e-01   
             
2.016000e+09 -9.118069e-01  2.421381e-01   
             
2.020000e+09 -9.087643e-01  2.520619e-01   
             
2.024000e+09 -9.055933e-01  2.618873e-01   
             
2.028000e+09 -9.023291e-01  2.716214e-01   
             
2.032000e+09 -8.990018e-01  2.812850e-01   
             
2.036000e+09 -8.956311e-01  2.909093e-01   
             
2.040000e+09 -8.922236e-01  3.005312e-01   
             
2.044000e+09 -8.887709e-01  3.101888e-01   
             
2.048000e+09 -8.852507e-01  3.199150e-01   
             
2.052000e+09 -8.816295e-01  3.297336e-01   
             
2.056000e+09 -8.778661e-01  3.396549e-01   
             
2.060000e+09 -8.739180e-01  3.496745e-01   
             
2.064000e+09 -8.697462e-01  3.597732e-01   
             
2.068000e+09 -8.653204e-01  3.699197e-01   
             
2.072000e+09 -8.606236e-01  3.800747e-01   
             
2.076000e+09 -8.556532e-01  3.901959e-01   
             
2.080000e+09 -8.504221e-01  4.002442e-01   
             
2.084000e+09 -8.449557e-01  4.101892e-01   
             
2.088000e+09 -8.392884e-01  4.200129e-01   
             
2.092000e+09 -8.334579e-01  4.297129e-01   
             
2.096000e+09 -8.274995e-01  4.393026e-01   
             
2.100000e+09 -8.214400e-01  4.488092e-01   
             
2.104000e+09 -8.152932e-01  4.582700e-01   
             
2.108000e+09 -8.090566e-01  4.677269e-01   
             
2.112000e+09 -8.027106e-01  4.772203e-01   
             
2.116000e+09 -7.962203e-01  4.867830e-01   
             
2.120000e+09 -7.895386e-01  4.964345e-01   
             
2.124000e+09 -7.826121e-01  5.061781e-01   
             
2.128000e+09 -7.753871e-01  5.159991e-01   
             
2.132000e+09 -7.678163e-01  5.258662e-01   
             
2.136000e+09 -7.598645e-01  5.357347e-01   
             
2.140000e+09 -7.515122e-01  5.455520e-01   
             
2.144000e+09 -7.427581e-01  5.552645e-01   
             
2.148000e+09 -7.336173e-01  5.648240e-01   
             
2.152000e+09 -7.241189e-01  5.741941e-01   
             
2.156000e+09 -7.142996e-01  5.833546e-01   
             
2.160000e+09 -7.041972e-01  5.923040e-01   
             
2.164000e+09 -6.938430e-01  6.010586e-01   
             
2.168000e+09 -6.832549e-01  6.096498e-01   
             
2.172000e+09 -6.724318e-01  6.181175e-01   
             
2.176000e+09 -6.613508e-01  6.265036e-01   
             
2.180000e+09 -6.499670e-01  6.348430e-01   
             
2.184000e+09 -6.382162e-01  6.431561e-01   
             
2.188000e+09 -6.260207e-01  6.514422e-01   
             
2.192000e+09 -6.132966e-01  6.596754e-01   
             
2.196000e+09 -5.999629e-01  6.678036e-01   
             
2.200000e+09 -5.859500e-01  6.757505e-01   
             
2.204000e+09 -5.712064e-01  6.834211e-01   
             
2.208000e+09 -5.557040e-01  6.907089e-01   
             
2.212000e+09 -5.394393e-01  6.975048e-01   
             
2.216000e+09 -5.224314e-01  7.037059e-01   
             
2.220000e+09 -5.047162e-01  7.092229e-01   
             
2.224000e+09 -4.863386e-01  7.139844e-01   
             
2.228000e+09 -4.673425e-01  7.179382e-01   
             
2.232000e+09 -4.477608e-01  7.210474e-01   
             
2.236000e+09 -4.276071e-01  7.232831e-01   
             
2.240000e+09 -4.068703e-01  7.246130e-01   
             
2.244000e+09 -3.855144e-01  7.249879e-01   
             
2.248000e+09 -3.634828e-01  7.243269e-01   
             
2.252000e+09 -3.407092e-01  7.225047e-01   
             
2.256000e+09 -3.171333e-01  7.193411e-01   
             
2.260000e+09 -2.927208e-01  7.145969e-01   
             
2.264000e+09 -2.674869e-01  7.079756e-01   
             
2.268000e+09 -2.415185e-01  6.991331e-01   
             
2.272000e+09 -2.149955e-01  6.876953e-01   
             
2.276000e+09 -1.882068e-01  6.732823e-01   
             
2.280000e+09 -1.615601e-01  6.555395e-01   
             
2.284000e+09 -1.355824e-01  6.341706e-01   
             
2.288000e+09 -1.109112e-01  6.089739e-01   
             
2.292000e+09 -8.827538e-02  5.798753e-01   
             
2.296000e+09 -6.846629e-02  5.469586e-01   
             
2.300000e+09 -5.230018e-02  5.104870e-01   
             
2.304000e+09 -4.057331e-02  4.709168e-01   
             
2.308000e+09 -3.401280e-02  4.288973e-01   
             
2.312000e+09 -3.322597e-02  3.852594e-01   
             
2.316000e+09 -3.865215e-02  3.409886e-01   
             
2.320000e+09 -5.052088e-02  2.971849e-01   
             
2.324000e+09 -6.882085e-02  2.550111e-01   
             
2.328000e+09 -9.328333e-02  2.156305e-01   
             
2.332000e+09 -1.233831e-01  1.801422e-01   
             
2.336000e+09 -1.583581e-01  1.495148e-01   
             
2.340000e+09 -1.972479e-01  1.245291e-01   
             
2.344000e+09 -2.389476e-01  1.057316e-01   
             
2.348000e+09 -2.822735e-01  9.340681e-02   
             
2.352000e+09 -3.260335e-01  8.756882e-02   
             
2.356000e+09 -3.690966e-01  8.797403e-02   
             
2.360000e+09 -4.104538e-01  9.415282e-02   
             
2.364000e+09 -4.492656e-01  1.054562e-01   
             
2.368000e+09 -4.848933e-01  1.211118e-01   
             
2.372000e+09 -5.169111e-01  1.402839e-01   
             
2.376000e+09 -5.451015e-01  1.621308e-01   
             
2.380000e+09 -5.694355e-01  1.858549e-01   
             
2.384000e+09 -5.900411e-01  2.107427e-01   
             
2.388000e+09 -6.071656e-01  2.361917e-01   
             
2.392000e+09 -6.211347e-01  2.617242e-01   
             
2.396000e+09 -6.323133e-01  2.869888e-01   
             
2.400000e+09 -6.410706e-01  3.117517e-01   
             
2.404000e+09 -6.477521e-01  3.358799e-01   
             
2.408000e+09 -6.526603e-01  3.593190e-01   
             
2.412000e+09 -6.560433e-01  3.820693e-01   
             
2.416000e+09 -6.580925e-01  4.041622e-01   
             
2.420000e+09 -6.589468e-01  4.256400e-01   
             
2.424000e+09 -6.587014e-01  4.465391e-01   
             
2.428000e+09 -6.574215e-01  4.668802e-01   
             
2.432000e+09 -6.551553e-01  4.866631e-01   
             
2.436000e+09 -6.519468e-01  5.058677e-01   
             
2.440000e+09 -6.478465e-01  5.244579e-01   
             
2.444000e+09 -6.429178e-01  5.423903e-01   
             
2.448000e+09 -6.372401e-01  5.596223e-01   
             
2.452000e+09 -6.309072e-01  5.761210e-01   
             
2.456000e+09 -6.240233e-01  5.918701e-01   
             
2.460000e+09 -6.166963e-01  6.068744e-01   
             
2.464000e+09 -6.090298e-01  6.211608e-01   
             
2.468000e+09 -6.011158e-01  6.347768e-01   
             
2.472000e+09 -5.930285e-01  6.477859e-01   
             
2.476000e+09 -5.848198e-01  6.602608e-01   
             
2.480000e+09 -5.765181e-01  6.722764e-01   
             
2.484000e+09 -5.681296e-01  6.839018e-01   
             
2.488000e+09 -5.596421e-01  6.951941e-01   
             
2.492000e+09 -5.510307e-01  7.061938e-01   
             
2.496000e+09 -5.422648e-01  7.169229e-01   
             
2.500000e+09 -5.333148e-01  7.273848e-01   
             
2.504000e+09 -5.241584e-01  7.375672e-01   
             
2.508000e+09 -5.147852e-01  7.474468e-01   
             
2.512000e+09 -5.051996e-01  7.569953e-01   
             
2.516000e+09 -4.954204e-01  7.661849e-01   
             
2.520000e+09 -4.854793e-01  7.749945e-01   
             
2.524000e+09 -4.754172e-01  7.834137e-01   
             
2.528000e+09 -4.652791e-01  7.914456e-01   
             
2.532000e+09 -4.551086e-01  7.991071e-01   
             
2.536000e+09 -4.449429e-01  8.064277e-01   
             
2.540000e+09 -4.348085e-01  8.134462e-01   
             
2.544000e+09 -4.247189e-01  8.202061e-01   
             
2.548000e+09 -4.146735e-01  8.267506e-01   
             
2.552000e+09 -4.046588e-01  8.331180e-01   
             
2.556000e+09 -3.946511e-01  8.393372e-01   
             
2.560000e+09 -3.846208e-01  8.454252e-01   
             
2.564000e+09 -3.745368e-01  8.513860e-01   
             
2.568000e+09 -3.643713e-01  8.572111e-01   
             
2.572000e+09 -3.541041e-01  8.628820e-01   
             
2.576000e+09 -3.437250e-01  8.683737e-01   
             
2.580000e+09 -3.332356e-01  8.736589e-01   
             
2.584000e+09 -3.226488e-01  8.787129e-01   
             
2.588000e+09 -3.119871e-01  8.835169e-01   
             
2.592000e+09 -3.012794e-01  8.880615e-01   
             
2.596000e+09 -2.905568e-01  8.923478e-01   
             
2.600000e+09 -2.798491e-01  8.963879e-01   
             
2.604000e+09 -2.691803e-01  9.002034e-01   
             
2.608000e+09 -2.585657e-01  9.038224e-01   
             
2.612000e+09 -2.480105e-01  9.072757e-01   
             
2.616000e+09 -2.375092e-01  9.105937e-01   
             
2.620000e+09 -2.270466e-01  9.138015e-01   
             
2.624000e+09 -2.166006e-01  9.169167e-01   
             
2.628000e+09 -2.061452e-01  9.199472e-01   
             
2.632000e+09 -1.956546e-01  9.228903e-01   
             
2.636000e+09 -1.851065e-01  9.257340e-01   
             
2.640000e+09 -1.744855e-01  9.284589e-01   
             
2.644000e+09 -1.637854e-01  9.310411e-01   
             
2.648000e+09 -1.530093e-01  9.334562e-01   
             
2.652000e+09 -1.421701e-01  9.356824e-01   
             
2.656000e+09 -1.312877e-01  9.377041e-01   
             
2.660000e+09 -1.203871e-01  9.395138e-01   
             
2.664000e+09 -1.094942e-01  9.411134e-01   
             
2.668000e+09 -9.863295e-02  9.425139e-01   
             
2.672000e+09 -8.782197e-02  9.437337e-01   
             
2.676000e+09 -7.707205e-02  9.447966e-01   
             
2.680000e+09 -6.638501e-02  9.457281e-01   
             
2.684000e+09 -5.575364e-02  9.465520e-01   
             
2.688000e+09 -4.516289e-02  9.472877e-01   
             
2.692000e+09 -3.459221e-02  9.479471e-01   
             
2.696000e+09 -2.401853e-02  9.485337e-01   
             
2.700000e+09 -1.341956e-02  9.490419e-01   
             
2.704000e+09 -2.777051e-03  9.494581e-01   
             
2.708000e+09  7.920711e-03  9.497628e-01   
             
2.712000e+09  1.867718e-02  9.499334e-01   
             
2.716000e+09  2.948706e-02  9.499475e-01   
             
2.720000e+09  4.033703e-02  9.497857e-01   
             
2.724000e+09  5.120748e-02  9.494350e-01   
             
2.728000e+09  6.207524e-02  9.488898e-01   
             
2.732000e+09  7.291660e-02  9.481532e-01   
             
2.736000e+09  8.371052e-02  9.472365e-01   
             
2.740000e+09  9.444141e-02  9.461573e-01   
             
2.744000e+09  1.051011e-01  9.449376e-01   
             
2.748000e+09  1.156897e-01  9.436001e-01   
             
2.752000e+09  1.262158e-01  9.421658e-01   
             
2.756000e+09  1.366944e-01  9.406506e-01   
             
2.760000e+09  1.471455e-01  9.390633e-01   
             
2.764000e+09  1.575905e-01  9.374046e-01   
             
2.768000e+09  1.680494e-01  9.356670e-01   
             
2.772000e+09  1.785381e-01  9.338355e-01   
             
