#   Hz   S  RI   R   50
! 
1.400000e+09  4.162457e-01  8.829866e-01   
             
1.404000e+09  4.221397e-01  8.796701e-01   
             
1.408000e+09  4.278116e-01  8.763340e-01   
             
1.412000e+09  4.332893e-01  8.730591e-01   
             
1.416000e+09  4.386309e-01  8.699066e-01   
             
1.420000e+09  4.439137e-01  8.669075e-01   
             
1.424000e+09  4.492200e-01  8.640579e-01   
             
1.428000e+09  4.546217e-01  8.613202e-01   
             
1.432000e+09  4.601681e-01  8.586313e-01   
             
1.436000e+09  4.658774e-01  8.559138e-01   
             
1.440000e+09  4.717343e-01  8.530910e-01   
             
1.444000e+09  4.776932e-01  8.501000e-01   
             
1.448000e+09  4.836875e-01  8.469030e-01   
             
1.452000e+09  4.896416e-01  8.434931e-01   
             
1.456000e+09  4.954846e-01  8.398950e-01   
             
1.460000e+09  5.011627e-01  8.361603e-01   
             
1.464000e+09  5.066485e-01  8.323570e-01   
             
1.468000e+09  5.119454e-01  8.285579e-01   
             
1.472000e+09  5.170863e-01  8.248269e-01   
             
1.476000e+09  5.221270e-01  8.212079e-01   
             
1.480000e+09  5.271357e-01  8.177174e-01   
             
1.484000e+09  5.321803e-01  8.143419e-01   
             
1.488000e+09  5.373165e-01  8.110415e-01   
             
1.492000e+09  5.425777e-01  8.077571e-01   
             
1.496000e+09  5.479695e-01  8.044221e-01   
             
1.500000e+09  5.534696e-01  8.009738e-01   
             
1.504000e+09  5.590321e-01  7.973651e-01   
             
1.508000e+09  5.645962e-01  7.935724e-01   
             
1.512000e+09  5.700973e-01  7.895995e-01   
             
1.516000e+09  5.754788e-01  7.854760e-01   
             
1.520000e+09  5.807017e-01  7.812521e-01   
             
1.524000e+09  5.857515e-01  7.769888e-01   
             
1.528000e+09  5.906403e-01  7.727472e-01   
             
1.532000e+09  5.954039e-01  7.685771e-01   
             
1.536000e+09  6.000952e-01  7.645086e-01   
             
1.540000e+09  6.047740e-01  7.605470e-01   
             
1.544000e+09  6.094962e-01  7.566721e-01   
             
1.548000e+09  6.143040e-01  7.528428e-01   
             
1.552000e+09  6.192180e-01  7.490047e-01   
             
1.556000e+09  6.242346e-01  7.451001e-01   
             
1.560000e+09  6.293264e-01  7.410787e-01   
             
1.564000e+09  6.344482e-01  7.369062e-01   
             
1.568000e+09  6.395447e-01  7.325702e-01   
             
1.572000e+09  6.445613e-01  7.280825e-01   
             
1.576000e+09  6.494531e-01  7.234759e-01   
             
1.580000e+09  6.541934e-01  7.187987e-01   
             
1.584000e+09  6.587779e-01  7.141053e-01   
             
1.588000e+09  6.632248e-01  7.094463e-01   
             
1.592000e+09  6.675718e-01  7.048601e-01   
             
1.596000e+09  6.718683e-01  7.003654e-01   
             
1.600000e+09  6.761665e-01  6.959588e-01   
             
1.604000e+09  6.805121e-01  6.916154e-01   
             
1.608000e+09  6.849359e-01  6.872939e-01   
             
1.612000e+09  6.894485e-01  6.829446e-01   
             
1.616000e+09  6.940388e-01  6.785178e-01   
             
1.620000e+09  6.986763e-01  6.739735e-01   
             
1.624000e+09  7.033168e-01  6.692881e-01   
             
1.628000e+09  7.079106e-01  6.644585e-01   
             
1.632000e+09  7.124116e-01  6.595022e-01   
             
1.636000e+09  7.167852e-01  6.544542e-01   
             
1.640000e+09  7.210146e-01  6.493602e-01   
             
1.644000e+09  7.251034e-01  6.442685e-01   
             
1.648000e+09  7.290748e-01  6.392209e-01   
             
1.652000e+09  7.329669e-01  6.342458e-01   
             
1.656000e+09  7.368258e-01  6.293527e-01   
             
1.660000e+09  7.406968e-01  6.245313e-01   
             
1.664000e+09  7.446166e-01  6.197534e-01   
             
1.668000e+09  7.486066e-01  6.149783e-01   
             
1.672000e+09  7.526689e-01  6.101605e-01   
             
1.676000e+09  7.567869e-01  6.052578e-01   
             
1.680000e+09  7.609278e-01  6.002391e-01   
             
1.684000e+09  7.650491e-01  5.950897e-01   
             
1.688000e+09  7.691063e-01  5.898137e-01   
             
1.692000e+09  7.730608e-01  5.844336e-01   
             
1.696000e+09  7.768868e-01  5.789853e-01   
             
1.700000e+09  7.805759e-01  5.735118e-01   
             
1.704000e+09  7.841382e-01  5.680558e-01   
             
1.708000e+09  7.876004e-01  5.626512e-01   
             
1.712000e+09  7.910005e-01  5.573179e-01   
             
1.716000e+09  7.943813e-01  5.520578e-01   
             
1.720000e+09  7.977818e-01  5.468549e-01   
             
1.724000e+09  8.012308e-01  5.416788e-01   
             
1.728000e+09  8.047414e-01  5.364896e-01   
             
1.732000e+09  8.083092e-01  5.312461e-01   
             
1.736000e+09  8.119128e-01  5.259127e-01   
             
1.740000e+09  8.155179e-01  5.204660e-01   
             
1.744000e+09  8.190841e-01  5.148990e-01   
             
1.748000e+09  8.225715e-01  5.092221e-01   
             
1.752000e+09  8.259484e-01  5.034613e-01   
             
1.756000e+09  8.291967e-01  4.976529e-01   
             
1.760000e+09  8.323151e-01  4.918374e-01   
             
1.764000e+09  8.353191e-01  4.860521e-01   
             
1.768000e+09  8.382381e-01  4.803239e-01   
             
1.772000e+09  8.411098e-01  4.746653e-01   
             
1.776000e+09  8.439734e-01  4.690715e-01   
             
1.780000e+09  8.468623e-01  4.635222e-01   
             
1.784000e+09  8.497983e-01  4.579849e-01   
             
1.788000e+09  8.527874e-01  4.524212e-01   
             
1.792000e+09  8.558191e-01  4.467936e-01   
             
1.796000e+09  8.588684e-01  4.410727e-01   
             
1.800000e+09  8.619000e-01  4.352421e-01   
             
1.804000e+09  8.648754e-01  4.293014e-01   
             
1.808000e+09  8.677592e-01  4.232665e-01   
             
1.812000e+09  8.705261e-01  4.171660e-01   
             
1.816000e+09  8.731648e-01  4.110366e-01   
             
1.820000e+09  8.756801e-01  4.049161e-01   
             
1.824000e+09  8.780924e-01  3.988368e-01   
             
1.828000e+09  8.804331e-01  3.928193e-01   
             
1.832000e+09  8.827394e-01  3.868692e-01   
             
1.836000e+09  8.850471e-01  3.809761e-01   
             
1.840000e+09  8.873843e-01  3.751156e-01   
             
1.844000e+09  8.897662e-01  3.692539e-01   
             
1.848000e+09  8.921927e-01  3.633537e-01   
             
1.852000e+09  8.946477e-01  3.573815e-01   
             
1.856000e+09  8.971030e-01  3.513134e-01   
             
1.860000e+09  8.995227e-01  3.451394e-01   
             
1.864000e+09  9.018701e-01  3.388654e-01   
             
1.868000e+09  9.041143e-01  3.325116e-01   
             
1.872000e+09  9.062355e-01  3.261097e-01   
             
1.876000e+09  9.082289e-01  3.196961e-01   
             
1.880000e+09  9.101051e-01  3.133060e-01   
             
1.884000e+09  9.118886e-01  3.069670e-01   
             
1.888000e+09  9.136128e-01  3.006937e-01   
             
1.892000e+09  9.153140e-01  2.944854e-01   
             
1.896000e+09  9.170249e-01  2.883263e-01   
             
1.900000e+09  9.187686e-01  2.821883e-01   
             
1.904000e+09  9.205541e-01  2.760364e-01   
             
1.908000e+09  9.223751e-01  2.698346e-01   
             
1.912000e+09  9.242107e-01  2.635530e-01   
             
1.916000e+09  9.260294e-01  2.571731e-01   
             
1.920000e+09  9.277947e-01  2.506910e-01   
             
1.924000e+09  9.294718e-01  2.441183e-01   
             
1.928000e+09  9.310339e-01  2.374801e-01   
             
1.932000e+09  9.324669e-01  2.308100e-01   
             
1.936000e+09  9.337719e-01  2.241448e-01   
             
1.940000e+09  9.349653e-01  2.175170e-01   
             
1.944000e+09  9.360755e-01  2.109494e-01   
             
1.948000e+09  9.371376e-01  2.044508e-01   
             
1.952000e+09  9.381875e-01  1.980145e-01   
             
1.956000e+09  9.392545e-01  1.916191e-01   
             
1.960000e+09  9.403566e-01  1.852329e-01   
             
1.964000e+09  9.414968e-01  1.788195e-01   
             
1.968000e+09  9.426626e-01  1.723443e-01   
             
1.972000e+09  9.438278e-01  1.657810e-01   
             
1.976000e+09  9.449579e-01  1.591162e-01   
             
1.980000e+09  9.460156e-01  1.523525e-01   
             
1.984000e+09  9.469679e-01  1.455071e-01   
             
1.988000e+09  9.477920e-01  1.386099e-01   
             
1.992000e+09  9.484794e-01  1.316971e-01   
             
1.996000e+09  9.490376e-01  1.248054e-01   
             
2.000000e+09  9.494886e-01  1.179648e-01   
             
2.004000e+09  9.498650e-01  1.111934e-01   
             
2.008000e+09  9.502039e-01  1.044937e-01   
             
2.012000e+09  9.505404e-01  9.785247e-02   
             
2.016000e+09  9.509006e-01  9.124265e-02   
             
2.020000e+09  9.512971e-01  8.462851e-02   
             
2.024000e+09  9.517262e-01  7.797195e-02   
             
2.028000e+09  9.521687e-01  7.123957e-02   
             
2.032000e+09  9.525929e-01  6.440873e-02   
             
2.036000e+09  9.529602e-01  5.747183e-02   
             
2.040000e+09  9.532325e-01  5.043785e-02   
             
2.044000e+09  9.533782e-01  4.333081e-02   
             
2.048000e+09  9.533789e-01  3.618556e-02   
             
2.052000e+09  9.532320e-01  2.904148e-02   
             
2.056000e+09  9.529517e-01  2.193532e-02   
             
2.060000e+09  9.525666e-01  1.489439e-02   
             
2.064000e+09  9.521139e-01  7.931463e-03   
             
2.068000e+09  9.516329e-01  1.042189e-03   
             
2.072000e+09  9.511580e-01 -5.794287e-03   
             
2.076000e+09  9.507115e-01 -1.261174e-02   
             
2.080000e+09  9.502997e-01 -1.945083e-02   
             
2.084000e+09  9.499110e-01 -2.635177e-02   
             
2.088000e+09  9.495181e-01 -3.334693e-02   
             
2.092000e+09  9.490821e-01 -4.045483e-02   
             
2.096000e+09  9.485596e-01 -4.767651e-02   
             
2.100000e+09  9.479104e-01 -5.499516e-02   
             
2.104000e+09  9.471045e-01 -6.237887e-02   
             
2.108000e+09  9.461280e-01 -6.978636e-02   
             
2.112000e+09  9.449851e-01 -7.717441e-02   
             
2.116000e+09  9.436982e-01 -8.450583e-02   
             
2.120000e+09  9.423032e-01 -9.175651e-02   
             
2.124000e+09  9.408431e-01 -9.892012e-02   
             
2.128000e+09  9.393598e-01 -1.060097e-01   
             
2.132000e+09  9.378865e-01 -1.130557e-01   
             
2.136000e+09  9.364401e-01 -1.201007e-01   
             
2.140000e+09  9.350186e-01 -1.271920e-01   
             
2.144000e+09  9.335996e-01 -1.343726e-01   
             
2.148000e+09  9.321442e-01 -1.416740e-01   
             
2.152000e+09  9.306034e-01 -1.491093e-01   
             
2.156000e+09  9.289261e-01 -1.566709e-01   
             
2.160000e+09  9.270684e-01 -1.643316e-01   
             
2.164000e+09  9.250012e-01 -1.720485e-01   
             
2.168000e+09  9.227156e-01 -1.797713e-01   
             
2.172000e+09  9.202242e-01 -1.874513e-01   
             
2.176000e+09  9.175592e-01 -1.950504e-01   
             
2.180000e+09  9.147658e-01 -2.025484e-01   
             
2.184000e+09  9.118938e-01 -2.099481e-01   
             
2.188000e+09  9.089876e-01 -2.172744e-01   
             
2.192000e+09  9.060765e-01 -2.245714e-01   
             
2.196000e+09  9.031685e-01 -2.318943e-01   
             
2.200000e+09  9.002466e-01 -2.392992e-01   
             
2.204000e+09  8.972702e-01 -2.468334e-01   
             
2.208000e+09  8.941806e-01 -2.545256e-01   
             
2.212000e+09  8.909105e-01 -2.623799e-01   
             
2.216000e+09  8.873941e-01 -2.703744e-01   
             
2.220000e+09  8.835788e-01 -2.784635e-01   
             
2.224000e+09  8.794335e-01 -2.865861e-01   
             
2.228000e+09  8.749536e-01 -2.946756e-01   
             
2.232000e+09  8.701613e-01 -3.026721e-01   
             
2.236000e+09  8.651004e-01 -3.105338e-01   
             
2.240000e+09  8.598263e-01 -3.182451e-01   
             
2.244000e+09  8.543942e-01 -3.258200e-01   
             
2.248000e+09  8.488451e-01 -3.333004e-01   
             
2.252000e+09  8.431948e-01 -3.407484e-01   
             
2.256000e+09  8.374261e-01 -3.482345e-01   
             
2.260000e+09  8.314866e-01 -3.558227e-01   
             
2.264000e+09  8.252925e-01 -3.635568e-01   
             
2.268000e+09  8.187393e-01 -3.714483e-01   
             
2.272000e+09  8.117148e-01 -3.794696e-01   
             
2.276000e+09  8.041160e-01 -3.875536e-01   
             
2.280000e+09  7.958633e-01 -3.956006e-01   
             
2.284000e+09  7.869115e-01 -4.034904e-01   
             
2.288000e+09  7.772549e-01 -4.110985e-01   
             
2.292000e+09  7.669235e-01 -4.183136e-01   
             
2.296000e+09  7.559726e-01 -4.250518e-01   
             
2.300000e+09  7.444658e-01 -4.312656e-01   
             
2.304000e+09  7.324544e-01 -4.369434e-01   
             
2.308000e+09  7.199580e-01 -4.421008e-01   
             
2.312000e+09  7.069487e-01 -4.467613e-01   
             
2.316000e+09  6.933455e-01 -4.509306e-01   
             
2.320000e+09  6.790188e-01 -4.545676e-01   
             
2.324000e+09  6.638086e-01 -4.575569e-01   
             
2.328000e+09  6.475544e-01 -4.596883e-01   
             
2.332000e+09  6.301352e-01 -4.606477e-01   
             
2.336000e+09  6.115133e-01 -4.600243e-01   
             
2.340000e+09  5.917768e-01 -4.573347e-01   
             
2.344000e+09  5.711749e-01 -4.520637e-01   
             
2.348000e+09  5.501371e-01 -4.437194e-01   
             
2.352000e+09  5.292736e-01 -4.318960e-01   
             
2.356000e+09  5.093527e-01 -4.163370e-01   
             
2.360000e+09  4.912563e-01 -3.969906e-01   
             
2.364000e+09  4.759156e-01 -3.740494e-01   
             
2.368000e+09  4.642348e-01 -3.479677e-01   
             
2.372000e+09  4.570103e-01 -3.194521e-01   
             
2.376000e+09  4.548555e-01 -2.894270e-01   
             
2.380000e+09  4.581383e-01 -2.589752e-01   
             
2.384000e+09  4.669418e-01 -2.292625e-01   
             
2.388000e+09  4.810483e-01 -2.014524e-01   
             
2.392000e+09  4.999526e-01 -1.766204e-01   
             
2.396000e+09  5.228983e-01 -1.556768e-01   
             
2.400000e+09  5.489374e-01 -1.393055e-01   
             
2.404000e+09  5.770024e-01 -1.279228e-01   
             
2.408000e+09  6.059880e-01 -1.216617e-01   
             
2.412000e+09  6.348299e-01 -1.203801e-01   
             
2.416000e+09  6.625774e-01 -1.236919e-01   
             
2.420000e+09  6.884504e-01 -1.310173e-01   
             
2.424000e+09  7.118776e-01 -1.416456e-01   
             
2.428000e+09  7.325126e-01 -1.548042e-01   
             
2.432000e+09  7.502282e-01 -1.697268e-01   
             
2.436000e+09  7.650903e-01 -1.857123e-01   
             
2.440000e+09  7.773172e-01 -2.021707e-01   
             
2.444000e+09  7.872288e-01 -2.186508e-01   
             
2.448000e+09  7.951930e-01 -2.348492e-01   
             
2.452000e+09  8.015771e-01 -2.506013e-01   
             
2.456000e+09  8.067077e-01 -2.658581e-01   
             
2.460000e+09  8.108438e-01 -2.806534e-01   
             
2.464000e+09  8.141654e-01 -2.950671e-01   
             
2.468000e+09  8.167756e-01 -3.091907e-01   
             
2.472000e+09  8.187141e-01 -3.230991e-01   
             
2.476000e+09  8.199786e-01 -3.368321e-01   
             
2.480000e+09  8.205492e-01 -3.503868e-01   
             
2.484000e+09  8.204111e-01 -3.637208e-01   
             
2.488000e+09  8.195721e-01 -3.767631e-01   
             
2.492000e+09  8.180729e-01 -3.894309e-01   
             
2.496000e+09  8.159885e-01 -4.016476e-01   
             
2.500000e+09  8.134220e-01 -4.133583e-01   
             
2.504000e+09  8.104927e-01 -4.245416e-01   
             
2.508000e+09  8.073206e-01 -4.352134e-01   
             
2.512000e+09  8.040109e-01 -4.454248e-01   
             
2.516000e+09  8.006418e-01 -4.552533e-01   
             
2.520000e+09  7.972566e-01 -4.647899e-01   
             
2.524000e+09  7.938620e-01 -4.741245e-01   
             
2.528000e+09  7.904331e-01 -4.833324e-01   
             
2.532000e+09  7.869223e-01 -4.924636e-01   
             
2.536000e+09  7.832723e-01 -5.015377e-01   
             
2.540000e+09  7.794291e-01 -5.105439e-01   
             
2.544000e+09  7.753541e-01 -5.194466e-01   
             
2.548000e+09  7.710317e-01 -5.281948e-01   
             
2.552000e+09  7.664730e-01 -5.367340e-01   
             
2.556000e+09  7.617138e-01 -5.450175e-01   
             
2.560000e+09  7.568087e-01 -5.530164e-01   
             
2.564000e+09  7.518210e-01 -5.607251e-01   
             
2.568000e+09  7.468126e-01 -5.681630e-01   
             
2.572000e+09  7.418330e-01 -5.753710e-01   
             
2.576000e+09  7.369123e-01 -5.824045e-01   
             
2.580000e+09  7.320570e-01 -5.893241e-01   
             
2.584000e+09  7.272502e-01 -5.961851e-01   
             
2.588000e+09  7.224560e-01 -6.030289e-01   
             
2.592000e+09  7.176274e-01 -6.098771e-01   
             
2.596000e+09  7.127156e-01 -6.167286e-01   
             
2.600000e+09  7.076788e-01 -6.235617e-01   
             
2.604000e+09  7.024903e-01 -6.303392e-01   
             
2.608000e+09  6.971431e-01 -6.370163e-01   
             
2.612000e+09  6.916506e-01 -6.435496e-01   
             
2.616000e+09  6.860441e-01 -6.499053e-01   
             
2.620000e+09  6.803667e-01 -6.560654e-01   
             
2.624000e+09  6.746653e-01 -6.620316e-01   
             
2.628000e+09  6.689826e-01 -6.678241e-01   
             
2.632000e+09  6.633495e-01 -6.734784e-01   
             
2.636000e+09  6.577797e-01 -6.790389e-01   
             
2.640000e+09  6.522683e-01 -6.845507e-01   
             
2.644000e+09  6.467930e-01 -6.900521e-01   
             
2.648000e+09  6.413188e-01 -6.955681e-01   
             
2.652000e+09  6.358045e-01 -7.011064e-01   
             
2.656000e+09  6.302106e-01 -7.066568e-01   
             
2.660000e+09  6.245066e-01 -7.121938e-01   
             
2.664000e+09  6.186761e-01 -7.176815e-01   
             
2.668000e+09  6.127195e-01 -7.230809e-01   
             
2.672000e+09  6.066540e-01 -7.283569e-01   
             
2.676000e+09  6.005101e-01 -7.334850e-01   
             
2.680000e+09  5.943256e-01 -7.384553e-01   
             
2.684000e+09  5.881392e-01 -7.432748e-01   
             
2.688000e+09  5.819832e-01 -7.479655e-01   
             
2.692000e+09  5.758777e-01 -7.525605e-01   
             
2.696000e+09  5.698280e-01 -7.570978e-01   
             
2.700000e+09  5.638228e-01 -7.616139e-01   
             
2.704000e+09  5.578378e-01 -7.661367e-01   
             
2.708000e+09  5.518392e-01 -7.706813e-01   
             
2.712000e+09  5.457908e-01 -7.752475e-01   
             
2.716000e+09  5.396605e-01 -7.798196e-01   
             
2.720000e+09  5.334255e-01 -7.843704e-01   
             
2.724000e+09  5.270772e-01 -7.888657e-01   
             
2.728000e+09  5.206220e-01 -7.932710e-01   
             
2.732000e+09  5.140800e-01 -7.975578e-01   
             
2.736000e+09  5.074816e-01 -8.017084e-01   
             
2.740000e+09  5.008615e-01 -8.057195e-01   
             
2.744000e+09  4.942527e-01 -8.096023e-01   
             
2.748000e+09  4.876804e-01 -8.133808e-01   
             
2.752000e+09  4.811578e-01 -8.170867e-01   
             
2.756000e+09  4.746834e-01 -8.207541e-01   
             
2.760000e+09  4.682421e-01 -8.244134e-01   
             
2.764000e+09  4.618076e-01 -8.280856e-01   
             
2.768000e+09  4.553477e-01 -8.317785e-01   
             
2.772000e+09  4.488297e-01 -8.354860e-01   
             
