!---------------------------------------------------------------------
! ZVRE, 3.52
!---------------------------------------------------------------------
! symbol freq-unit parameter-type data-format keyword impedance-ohm
#        HZ        S              RI          R       50
!---------------------------------------------------------------------
! freq                reS11          imS11           
  2.00000000000E+09  0.838642       -0.476149     
  2.00250000000E+09  0.833664       -0.483157     
  2.00500000000E+09  0.829365       -0.487803     
  2.00750000000E+09  0.82622        -0.495153     
  2.01000000000E+09  0.823519       -0.500101     
  2.01250000000E+09  0.819982       -0.50454      
  2.01500000000E+09  0.81786        -0.507511     
  2.01750000000E+09  0.815557       -0.511254     
  2.02000000000E+09  0.81262        -0.51565      
  2.02250000000E+09  0.809862       -0.519525     
  2.02500000000E+09  0.805279       -0.523052     
  2.02750000000E+09  0.802719       -0.527182     
  2.03000000000E+09  0.799913       -0.530396     
  2.03250000000E+09  0.798006       -0.534251     
  2.03500000000E+09  0.794767       -0.538547     
  2.03750000000E+09  0.792188       -0.542008     
  2.04000000000E+09  0.789715       -0.54359      
  2.04250000000E+09  0.786879       -0.548577     
  2.04500000000E+09  0.784046       -0.552623     
  2.04750000000E+09  0.780958       -0.556935     
  2.05000000000E+09  0.77821        -0.561674     
  2.05250000000E+09  0.772847       -0.56659      
  2.05500000000E+09  0.770531       -0.569273     
  2.05750000000E+09  0.767199       -0.573917     
  2.06000000000E+09  0.765049       -0.576908     
  2.06250000000E+09  0.761381       -0.580823     
  2.06500000000E+09  0.759145       -0.583381     
  2.06750000000E+09  0.754722       -0.587511     
  2.07000000000E+09  0.751181       -0.59115      
  2.07250000000E+09  0.749387       -0.593978     
  2.07500000000E+09  0.744607       -0.598564     
  2.07750000000E+09  0.741196       -0.601054     
  2.08000000000E+09  0.737859       -0.605042     
  2.08250000000E+09  0.734211       -0.607249     
  2.08500000000E+09  0.730039       -0.611509     
  2.08750000000E+09  0.72521        -0.615174     
  2.09000000000E+09  0.72018        -0.619683     
  2.09250000000E+09  0.717746       -0.625436     
  2.09500000000E+09  0.712198       -0.628746     
  2.09750000000E+09  0.709506       -0.631539     
  2.10000000000E+09  0.705845       -0.636746     
  2.10250000000E+09  0.702035       -0.64023      
  2.10500000000E+09  0.697383       -0.643746     
  2.10750000000E+09  0.69395        -0.647674     
  2.11000000000E+09  0.68807        -0.652129     
  2.11250000000E+09  0.685722       -0.656434     
  2.11500000000E+09  0.681589       -0.659157     
  2.11750000000E+09  0.677342       -0.661465     
  2.12000000000E+09  0.673877       -0.664189     
  2.12250000000E+09  0.670628       -0.667011     
  2.12500000000E+09  0.666756       -0.670694     
  2.12750000000E+09  0.662813       -0.674799     
  2.13000000000E+09  0.658526       -0.677051     
  2.13250000000E+09  0.653483       -0.68176      
  2.13500000000E+09  0.649509       -0.684466     
  2.13750000000E+09  0.644249       -0.687584     
  2.14000000000E+09  0.638996       -0.693024     
  2.14250000000E+09  0.63442        -0.695689     
  2.14500000000E+09  0.629318       -0.699051     
  2.14750000000E+09  0.625938       -0.702144     
  2.15000000000E+09  0.621273       -0.70498      
  2.15250000000E+09  0.617019       -0.706841     
  2.15500000000E+09  0.61152        -0.710828     
  2.15750000000E+09  0.607254       -0.716321     
  2.16000000000E+09  0.601514       -0.718396     
  2.16250000000E+09  0.597334       -0.721776     
  2.16500000000E+09  0.590373       -0.726077     
  2.16750000000E+09  0.585688       -0.729454     
  2.17000000000E+09  0.581983       -0.733364     
  2.17250000000E+09  0.576419       -0.736633     
  2.17500000000E+09  0.573185       -0.738324     
  2.17750000000E+09  0.568472       -0.742063     
  2.18000000000E+09  0.562942       -0.745308     
  2.18250000000E+09  0.557681       -0.748019     
  2.18500000000E+09  0.552719       -0.750153     
  2.18750000000E+09  0.548091       -0.754058     
  2.19000000000E+09  0.543591       -0.756763     
  2.19250000000E+09  0.537838       -0.758897     
  2.19500000000E+09  0.532794       -0.761811     
  2.19750000000E+09  0.52823        -0.763822     
  2.20000000000E+09  0.522019       -0.768117     
  2.20250000000E+09  0.517061       -0.771206     
  2.20500000000E+09  0.510452       -0.773979     
  2.20750000000E+09  0.506196       -0.777426     
  2.21000000000E+09  0.499983       -0.780172     
  2.21250000000E+09  0.496236       -0.781927     
  2.21500000000E+09  0.490349       -0.784378     
  2.21750000000E+09  0.48645        -0.786451     
  2.22000000000E+09  0.481049       -0.788889     
  2.22250000000E+09  0.475991       -0.790441     
  2.22500000000E+09  0.469945       -0.792524     
  2.22750000000E+09  0.465052       -0.794027     
  2.23000000000E+09  0.458915       -0.796289     
  2.23250000000E+09  0.455141       -0.798679     
  2.23500000000E+09  0.448636       -0.802279     
  2.23750000000E+09  0.442508       -0.804706     
  2.24000000000E+09  0.437557       -0.806131     
  2.24250000000E+09  0.432415       -0.80926      
  2.24500000000E+09  0.427058       -0.810801     
  2.24750000000E+09  0.420516       -0.811908     
  2.25000000000E+09  0.415392       -0.813843     
  2.25250000000E+09  0.407682       -0.815614     
  2.25500000000E+09  0.401775       -0.816198     
  2.25750000000E+09  0.396235       -0.818972     
  2.26000000000E+09  0.390746       -0.821012     
  2.26250000000E+09  0.384259       -0.822746     
  2.26500000000E+09  0.37605        -0.823689     
  2.26750000000E+09  0.370458       -0.825564     
  2.27000000000E+09  0.36528        -0.82701      
  2.27250000000E+09  0.360139       -0.829091     
  2.27500000000E+09  0.354689       -0.828634     
  2.27750000000E+09  0.348735       -0.830908     
  2.28000000000E+09  0.34339        -0.832493     
  2.28250000000E+09  0.337902       -0.833445     
  2.28500000000E+09  0.333344       -0.833275     
  2.28750000000E+09  0.327995       -0.833089     
  2.29000000000E+09  0.321375       -0.83392      
  2.29250000000E+09  0.317612       -0.834855     
  2.29500000000E+09  0.310446       -0.833291     
  2.29750000000E+09  0.304695       -0.833197     
  2.30000000000E+09  0.297918       -0.833217     
  2.30250000000E+09  0.292323       -0.832212     
  2.30500000000E+09  0.285802       -0.831477     
  2.30750000000E+09  0.276258       -0.831409     
  2.31000000000E+09  0.268485       -0.832023     
  2.31250000000E+09  0.258428       -0.832665     
  2.31500000000E+09  0.24877        -0.832428     
  2.31750000000E+09  0.240531       -0.832249     
  2.32000000000E+09  0.231666       -0.830543     
  2.32250000000E+09  0.223188       -0.829955     
  2.32500000000E+09  0.214637       -0.830228     
  2.32750000000E+09  0.205812       -0.830519     
  2.33000000000E+09  0.196384       -0.830679     
  2.33250000000E+09  0.186336       -0.83037      
  2.33500000000E+09  0.177332       -0.829297     
  2.33750000000E+09  0.167806       -0.828692     
  2.34000000000E+09  0.15951        -0.828239     
  2.34250000000E+09  0.151812       -0.824809     
  2.34500000000E+09  0.144038       -0.821516     
  2.34750000000E+09  0.136846       -0.81813      
  2.35000000000E+09  0.129486       -0.81439      
  2.35250000000E+09  0.122305       -0.810704     
  2.35500000000E+09  0.11427        -0.807236     
  2.35750000000E+09  0.10576        -0.802003     
  2.36000000000E+09  0.0975559      -0.798611     
  2.36250000000E+09  0.0890421      -0.791439     
  2.36500000000E+09  0.0797206      -0.786175     
  2.36750000000E+09  0.0721711      -0.78077      
  2.37000000000E+09  0.064834       -0.772045     
  2.37250000000E+09  0.0580861      -0.764573     
  2.37500000000E+09  0.0512116      -0.755597     
  2.37750000000E+09  0.0441791      -0.749268     
  2.38000000000E+09  0.0383086      -0.738519     
  2.38250000000E+09  0.0308743      -0.727657     
  2.38500000000E+09  0.0243861      -0.716586     
  2.38750000000E+09  0.019831       -0.705133     
  2.39000000000E+09  0.0140322      -0.692306     
  2.39250000000E+09  0.00921963     -0.680771     
  2.39500000000E+09  0.00438985     -0.666988     
  2.39750000000E+09  0.000457263    -0.652814     
  2.40000000000E+09 -0.00253546     -0.637612     
  2.40250000000E+09 -0.00344958     -0.621418     
  2.40500000000E+09 -0.00268928     -0.606783     
  2.40750000000E+09 -0.000272463    -0.591908     
  2.41000000000E+09  0.00220082     -0.576117     
  2.41250000000E+09  0.00612005     -0.562083     
  2.41500000000E+09  0.0113033      -0.545288     
  2.41750000000E+09  0.0193232      -0.529446     
  2.42000000000E+09  0.0307701      -0.513725     
  2.42250000000E+09  0.0441272      -0.500717     
  2.42500000000E+09  0.0591179      -0.489242     
  2.42750000000E+09  0.0752276      -0.479489     
  2.43000000000E+09  0.0909767      -0.471335     
  2.43250000000E+09  0.109099       -0.464325     
  2.43500000000E+09  0.127708       -0.460296     
  2.43750000000E+09  0.147313       -0.457058     
  2.44000000000E+09  0.167271       -0.457461     
  2.44250000000E+09  0.185339       -0.460347     
  2.44500000000E+09  0.204314       -0.465236     
  2.44750000000E+09  0.222792       -0.473114     
  2.45000000000E+09  0.239722       -0.483896     
  2.45250000000E+09  0.254568       -0.496279     
  2.45500000000E+09  0.26704        -0.509103     
  2.45750000000E+09  0.279275       -0.521412     
  2.46000000000E+09  0.290984       -0.534255     
  2.46250000000E+09  0.301966       -0.547568     
  2.46500000000E+09  0.311166       -0.563768     
  2.46750000000E+09  0.317462       -0.57963      
  2.47000000000E+09  0.32163        -0.595815     
  2.47250000000E+09  0.324171       -0.611393     
  2.47500000000E+09  0.324582       -0.627        
  2.47750000000E+09  0.324298       -0.644497     
  2.48000000000E+09  0.322837       -0.659052     
  2.48250000000E+09  0.321752       -0.672899     
  2.48500000000E+09  0.318844       -0.685478     
  2.48750000000E+09  0.314983       -0.697244     
  2.49000000000E+09  0.311224       -0.710084     
  2.49250000000E+09  0.306776       -0.721433     
  2.49500000000E+09  0.302229       -0.733111     
  2.49750000000E+09  0.295715       -0.743254     
  2.50000000000E+09  0.289568       -0.754203     
  2.50250000000E+09  0.283007       -0.762308     
  2.50500000000E+09  0.27732        -0.771421     
  2.50750000000E+09  0.269784       -0.778817     
  2.51000000000E+09  0.264048       -0.785558     
  2.51250000000E+09  0.256907       -0.793064     
  2.51500000000E+09  0.2503         -0.79912      
  2.51750000000E+09  0.241405       -0.8065       
  2.52000000000E+09  0.235114       -0.813292     
  2.52250000000E+09  0.227031       -0.818904     
  2.52500000000E+09  0.219613       -0.824832     
  2.52750000000E+09  0.21192        -0.82966      
  2.53000000000E+09  0.203992       -0.834951     
  2.53250000000E+09  0.198142       -0.838436     
  2.53500000000E+09  0.190332       -0.842889     
  2.53750000000E+09  0.18464        -0.847305     
  2.54000000000E+09  0.177392       -0.851765     
  2.54250000000E+09  0.169437       -0.855453     
  2.54500000000E+09  0.162639       -0.86017      
  2.54750000000E+09  0.154002       -0.863313     
  2.55000000000E+09  0.146268       -0.867686     
  2.55250000000E+09  0.138985       -0.871435     
  2.55500000000E+09  0.130449       -0.87334      
  2.55750000000E+09  0.122012       -0.876496     
  2.56000000000E+09  0.114728       -0.876945     
  2.56250000000E+09  0.105722       -0.88001      
  2.56500000000E+09  0.097718       -0.8821       
  2.56750000000E+09  0.0880489      -0.884157     
  2.57000000000E+09  0.0798559      -0.886799     
  2.57250000000E+09  0.0725386      -0.889689     
  2.57500000000E+09  0.0658935      -0.890189     
  2.57750000000E+09  0.0589867      -0.891555     
  2.58000000000E+09  0.0531445      -0.891949     
  2.58250000000E+09  0.0466565      -0.893086     
  2.58500000000E+09  0.0417886      -0.892241     
  2.58750000000E+09  0.035528       -0.894323     
  2.59000000000E+09  0.0295569      -0.894612     
  2.59250000000E+09  0.0227834      -0.895759     
  2.59500000000E+09  0.0148395      -0.897502     
  2.59750000000E+09  0.00896393     -0.898312     
  2.60000000000E+09  0.00358235     -0.898452     
  2.60250000000E+09 -0.00366215     -0.899423     
  2.60500000000E+09 -0.00942383     -0.90072      
  2.60750000000E+09 -0.015534       -0.900408     
  2.61000000000E+09 -0.0222014      -0.900464     
  2.61250000000E+09 -0.0298468      -0.900353     
  2.61500000000E+09 -0.0364202      -0.900921     
  2.61750000000E+09 -0.0432692      -0.900683     
  2.62000000000E+09 -0.0500692      -0.900732     
  2.62250000000E+09 -0.0580318      -0.899525     
  2.62500000000E+09 -0.0637123      -0.899611     
  2.62750000000E+09 -0.0708945      -0.898251     
  2.63000000000E+09 -0.0783633      -0.897607     
  2.63250000000E+09 -0.0853531      -0.897544     
  2.63500000000E+09 -0.0937311      -0.89777      
  2.63750000000E+09 -0.0984565      -0.896558     
  2.64000000000E+09 -0.104458       -0.897486     
  2.64250000000E+09 -0.109794       -0.895741     
  2.64500000000E+09 -0.115793       -0.895545     
  2.64750000000E+09 -0.120639       -0.895043     
  2.65000000000E+09 -0.124945       -0.89377      
  2.65250000000E+09 -0.131538       -0.89448      
  2.65500000000E+09 -0.13746        -0.892091     
  2.65750000000E+09 -0.142425       -0.893556     
  2.66000000000E+09 -0.147551       -0.891389     
  2.66250000000E+09 -0.153897       -0.890096     
  2.66500000000E+09 -0.160849       -0.889453     
  2.66750000000E+09 -0.16504        -0.887237     
  2.67000000000E+09 -0.172949       -0.887009     
  2.67250000000E+09 -0.177467       -0.884598     
  2.67500000000E+09 -0.185117       -0.883999     
  2.67750000000E+09 -0.191095       -0.883009     
  2.68000000000E+09 -0.197381       -0.881308     
  2.68250000000E+09 -0.20495        -0.881181     
  2.68500000000E+09 -0.212391       -0.879958     
  2.68750000000E+09 -0.217128       -0.8781       
  2.69000000000E+09 -0.222854       -0.875801     
  2.69250000000E+09 -0.227877       -0.874662     
  2.69500000000E+09 -0.233703       -0.8731       
  2.69750000000E+09 -0.237818       -0.870319     
  2.70000000000E+09 -0.243926       -0.868621     
  2.70250000000E+09 -0.249625       -0.866454     
  2.70500000000E+09 -0.254882       -0.865541     
  2.70750000000E+09 -0.259423       -0.862978     
  2.71000000000E+09 -0.264048       -0.862907     
  2.71250000000E+09 -0.268595       -0.860068     
  2.71500000000E+09 -0.27232        -0.857421     
  2.71750000000E+09 -0.278741       -0.857117     
  2.72000000000E+09 -0.283874       -0.854633     
  2.72250000000E+09 -0.290367       -0.852607     
  2.72500000000E+09 -0.295838       -0.851122     
  2.72750000000E+09 -0.300583       -0.848645     
  2.73000000000E+09 -0.306224       -0.84709      
  2.73250000000E+09 -0.310967       -0.845793     
  2.73500000000E+09 -0.316922       -0.84481      
  2.73750000000E+09 -0.322027       -0.842503     
  2.74000000000E+09 -0.32671        -0.840487     
  2.74250000000E+09 -0.332235       -0.839207     
  2.74500000000E+09 -0.337534       -0.836749     
  2.74750000000E+09 -0.341887       -0.832501     
  2.75000000000E+09 -0.349092       -0.831567     
  2.75250000000E+09 -0.354007       -0.827866     
  2.75500000000E+09 -0.359307       -0.826982     
  2.75750000000E+09 -0.363382       -0.82385      
  2.76000000000E+09 -0.368256       -0.821481     
  2.76250000000E+09 -0.373255       -0.818757     
  2.76500000000E+09 -0.378706       -0.817247     
  2.76750000000E+09 -0.382484       -0.814501     
  2.77000000000E+09 -0.38603        -0.811862     
  2.77250000000E+09 -0.390777       -0.809196     
  2.77500000000E+09 -0.394399       -0.807903     
  2.77750000000E+09 -0.399421       -0.805496     
  2.78000000000E+09 -0.401328       -0.803576     
  2.78250000000E+09 -0.406251       -0.801394     
  2.78500000000E+09 -0.410902       -0.798599     
  2.78750000000E+09 -0.418219       -0.796135     
  2.79000000000E+09 -0.422551       -0.792869     
  2.79250000000E+09 -0.428486       -0.789299     
  2.79500000000E+09 -0.434671       -0.786628     
  2.79750000000E+09 -0.441408       -0.783652     
  2.80000000000E+09 -0.445819       -0.780387     
  2.80250000000E+09 -0.452133       -0.777808     
  2.80500000000E+09 -0.459032       -0.773701     
  2.80750000000E+09 -0.463786       -0.769548     
  2.81000000000E+09 -0.471293       -0.766712     
  2.81250000000E+09 -0.477031       -0.762746     
  2.81500000000E+09 -0.482553       -0.758247     
  2.81750000000E+09 -0.487977       -0.755157     
  2.82000000000E+09 -0.493236       -0.752171     
  2.82250000000E+09 -0.496495       -0.749683     
  2.82500000000E+09 -0.501069       -0.74569      
  2.82750000000E+09 -0.506574       -0.743493     
  2.83000000000E+09 -0.509784       -0.740073     
  2.83250000000E+09 -0.515794       -0.736991     
  2.83500000000E+09 -0.519346       -0.73279      
  2.83750000000E+09 -0.524461       -0.730573     
  2.84000000000E+09 -0.527877       -0.72616      
  2.84250000000E+09 -0.533257       -0.724031     
  2.84500000000E+09 -0.537463       -0.719583     
  2.84750000000E+09 -0.542993       -0.71658      
  2.85000000000E+09 -0.545499       -0.714158     
  2.85250000000E+09 -0.550695       -0.710687     
  2.85500000000E+09 -0.553817       -0.708851     
  2.85750000000E+09 -0.558823       -0.705536     
  2.86000000000E+09 -0.564077       -0.702821     
  2.86250000000E+09 -0.567714       -0.698765     
  2.86500000000E+09 -0.572792       -0.694546     
  2.86750000000E+09 -0.576286       -0.690853     
  2.87000000000E+09 -0.581928       -0.687963     
  2.87250000000E+09 -0.586466       -0.682986     
  2.87500000000E+09 -0.591107       -0.678746     
  2.87750000000E+09 -0.596631       -0.675548     
  2.88000000000E+09 -0.601038       -0.671544     
  2.88250000000E+09 -0.60407        -0.666961     
  2.88500000000E+09 -0.606689       -0.665086     
  2.88750000000E+09 -0.609161       -0.662102     
  2.89000000000E+09 -0.611366       -0.658022     
  2.89250000000E+09 -0.616267       -0.655358     
  2.89500000000E+09 -0.617421       -0.652019     
  2.89750000000E+09 -0.620713       -0.647446     
  2.90000000000E+09 -0.624922       -0.645453     
  2.90250000000E+09 -0.627707       -0.639811     
  2.90500000000E+09 -0.630631       -0.635272     
  2.90750000000E+09 -0.633564       -0.632008     
  2.91000000000E+09 -0.637556       -0.627635     
  2.91250000000E+09 -0.640342       -0.623378     
  2.91500000000E+09 -0.642388       -0.620699     
  2.91750000000E+09 -0.6462         -0.617313     
  2.92000000000E+09 -0.64903        -0.61479      
  2.92250000000E+09 -0.652147       -0.612833     
  2.92500000000E+09 -0.65516        -0.607636     
  2.92750000000E+09 -0.657791       -0.60349      
  2.93000000000E+09 -0.662449       -0.60069      
  2.93250000000E+09 -0.667212       -0.59551      
  2.93500000000E+09 -0.670477       -0.590769     
  2.93750000000E+09 -0.675118       -0.585205     
