#   Hz   S  RI   R   50
! 
1.400000e+09 -1.012770e-01  9.166556e-01   
             
1.404000e+09 -8.481839e-02  9.181973e-01   
             
1.408000e+09 -6.835737e-02  9.194572e-01   
             
1.412000e+09 -5.188279e-02  9.204448e-01   
             
1.416000e+09 -3.538110e-02  9.211607e-01   
             
1.420000e+09 -1.884104e-02  9.215968e-01   
             
1.424000e+09 -2.257457e-03  9.217383e-01   
             
1.428000e+09  1.436657e-02  9.215682e-01   
             
1.432000e+09  3.101979e-02  9.210711e-01   
             
1.436000e+09  4.768484e-02  9.202370e-01   
             
1.440000e+09  6.434177e-02  9.190633e-01   
             
1.444000e+09  8.097199e-02  9.175551e-01   
             
1.448000e+09  9.756167e-02  9.157232e-01   
             
1.452000e+09  1.141038e-01  9.135808e-01   
             
1.456000e+09  1.305981e-01  9.111401e-01   
             
1.460000e+09  1.470496e-01  9.084087e-01   
             
1.464000e+09  1.634657e-01  9.053882e-01   
             
1.468000e+09  1.798524e-01  9.020738e-01   
             
1.472000e+09  1.962116e-01  8.984560e-01   
             
1.476000e+09  2.125395e-01  8.945232e-01   
             
1.480000e+09  2.288262e-01  8.902650e-01   
             
1.484000e+09  2.450571e-01  8.856751e-01   
             
1.488000e+09  2.612160e-01  8.807527e-01   
             
1.492000e+09  2.772877e-01  8.755032e-01   
             
1.496000e+09  2.932612e-01  8.699357e-01   
             
1.500000e+09  3.091310e-01  8.640615e-01   
             
1.504000e+09  3.248973e-01  8.578900e-01   
             
1.508000e+09  3.405640e-01  8.514266e-01   
             
1.512000e+09  3.561366e-01  8.446708e-01   
             
1.516000e+09  3.716185e-01  8.376169e-01   
             
1.520000e+09  3.870087e-01  8.302550e-01   
             
1.524000e+09  4.023000e-01  8.225741e-01   
             
1.528000e+09  4.174795e-01  8.145654e-01   
             
1.532000e+09  4.325300e-01  8.062252e-01   
             
1.536000e+09  4.474332e-01  7.975559e-01   
             
1.540000e+09  4.621733e-01  7.885665e-01   
             
1.544000e+09  4.767398e-01  7.792704e-01   
             
1.548000e+09  4.911289e-01  7.696817e-01   
             
1.552000e+09  5.053440e-01  7.598121e-01   
             
1.556000e+09  5.193930e-01  7.496672e-01   
             
1.560000e+09  5.332847e-01  7.392445e-01   
             
1.564000e+09  5.470249e-01  7.285340e-01   
             
1.568000e+09  5.606124e-01  7.175202e-01   
             
1.572000e+09  5.740368e-01  7.061857e-01   
             
1.576000e+09  5.872785e-01  6.945167e-01   
             
1.580000e+09  6.003113e-01  6.825066e-01   
             
1.584000e+09  6.131061e-01  6.701593e-01   
             
1.588000e+09  6.256370e-01  6.574889e-01   
             
1.592000e+09  6.378858e-01  6.445176e-01   
             
1.596000e+09  6.498457e-01  6.312705e-01   
             
1.600000e+09  6.615216e-01  6.177695e-01   
             
1.604000e+09  6.729274e-01  6.040270e-01   
             
1.608000e+09  6.840802e-01  5.900411e-01   
             
1.612000e+09  6.949925e-01  5.757948e-01   
             
1.616000e+09  7.056635e-01  5.612588e-01   
             
1.620000e+09  7.160729e-01  5.463977e-01   
             
1.624000e+09  7.261774e-01  5.311805e-01   
             
1.628000e+09  7.359123e-01  5.155915e-01   
             
1.632000e+09  7.451983e-01  4.996409e-01   
             
1.636000e+09  7.539523e-01  4.833716e-01   
             
1.640000e+09  7.621025e-01  4.668620e-01   
             
1.644000e+09  7.696025e-01  4.502209e-01   
             
1.648000e+09  7.764450e-01  4.335777e-01   
             
1.652000e+09  7.826694e-01  4.170663e-01   
             
1.656000e+09  7.883631e-01  4.008067e-01   
             
1.660000e+09  7.936557e-01  3.848864e-01   
             
1.664000e+09  7.987047e-01  3.693455e-01   
             
1.668000e+09  8.036775e-01  3.541674e-01   
             
1.672000e+09  8.087297e-01  3.392779e-01   
             
1.676000e+09  8.139847e-01  3.245522e-01   
             
1.680000e+09  8.195173e-01  3.098290e-01   
             
1.684000e+09  8.253441e-01  2.949305e-01   
             
1.688000e+09  8.314211e-01  2.796837e-01   
             
1.692000e+09  8.376505e-01  2.639412e-01   
             
1.696000e+09  8.438940e-01  2.475978e-01   
             
1.700000e+09  8.499909e-01  2.306008e-01   
             
1.704000e+09  8.557785e-01  2.129518e-01   
             
1.708000e+09  8.611109e-01  1.947024e-01   
             
1.712000e+09  8.658741e-01  1.759419e-01   
             
1.716000e+09  8.699949e-01  1.567818e-01   
             
1.720000e+09  8.734433e-01  1.373388e-01   
             
1.724000e+09  8.762271e-01  1.177192e-01   
             
1.728000e+09  8.783834e-01  9.800680e-02   
             
1.732000e+09  8.799648e-01  7.825702e-02   
             
1.736000e+09  8.810271e-01  5.849587e-02   
             
1.740000e+09  8.816174e-01  3.872446e-02   
             
1.744000e+09  8.817666e-01  1.892712e-02   
             
1.748000e+09  8.814859e-01 -9.187971e-04   
             
1.752000e+09  8.807683e-01 -2.083355e-02   
             
1.756000e+09  8.795929e-01 -4.082767e-02   
             
1.760000e+09  8.779321e-01 -6.089791e-02   
             
1.764000e+09  8.757592e-01 -8.102690e-02   
             
1.768000e+09  8.730542e-01 -1.011859e-01   
             
1.772000e+09  8.698082e-01 -1.213401e-01   
             
1.776000e+09  8.660243e-01 -1.414542e-01   
             
1.780000e+09  8.617159e-01 -1.614982e-01   
             
1.784000e+09  8.569025e-01 -1.814509e-01   
             
1.788000e+09  8.516051e-01 -2.013016e-01   
             
1.792000e+09  8.458412e-01 -2.210489e-01   
             
1.796000e+09  8.396213e-01 -2.406977e-01   
             
1.800000e+09  8.329467e-01 -2.602550e-01   
             
1.804000e+09  8.258104e-01 -2.797257e-01   
             
1.808000e+09  8.181989e-01 -2.991087e-01   
             
1.812000e+09  8.100960e-01 -3.183953e-01   
             
1.816000e+09  8.014865e-01 -3.375684e-01   
             
1.820000e+09  7.923598e-01 -3.566045e-01   
             
1.824000e+09  7.827118e-01 -3.754765e-01   
             
1.828000e+09  7.725462e-01 -3.941569e-01   
             
1.832000e+09  7.618729e-01 -4.126210e-01   
             
1.836000e+09  7.507061e-01 -4.308496e-01   
             
1.840000e+09  7.390612e-01 -4.488295e-01   
             
1.844000e+09  7.269521e-01 -4.665532e-01   
             
1.848000e+09  7.143885e-01 -4.840175e-01   
             
1.852000e+09  7.013751e-01 -5.012204e-01   
             
1.856000e+09  6.879114e-01 -5.181587e-01   
             
1.860000e+09  6.739931e-01 -5.348257e-01   
             
1.864000e+09  6.596144e-01 -5.512100e-01   
             
1.868000e+09  6.447700e-01 -5.672948e-01   
             
1.872000e+09  6.294581e-01 -5.830591e-01   
             
1.876000e+09  6.136809e-01 -5.984797e-01   
             
1.880000e+09  5.974463e-01 -6.135326e-01   
             
1.884000e+09  5.807665e-01 -6.281962e-01   
             
1.888000e+09  5.636570e-01 -6.424518e-01   
             
1.892000e+09  5.461348e-01 -6.562854e-01   
             
1.896000e+09  5.282161e-01 -6.696871e-01   
             
1.900000e+09  5.099151e-01 -6.826497e-01   
             
1.904000e+09  4.912426e-01 -6.951678e-01   
             
1.908000e+09  4.722061e-01 -7.072357e-01   
             
1.912000e+09  4.528104e-01 -7.188456e-01   
             
1.916000e+09  4.330594e-01 -7.299867e-01   
             
1.920000e+09  4.129569e-01 -7.406448e-01   
             
1.924000e+09  3.925092e-01 -7.508028e-01   
             
1.928000e+09  3.717255e-01 -7.604419e-01   
             
1.932000e+09  3.506189e-01 -7.695426e-01   
             
1.936000e+09  3.292061e-01 -7.780868e-01   
             
1.940000e+09  3.075065e-01 -7.860591e-01   
             
1.944000e+09  2.855414e-01 -7.934469e-01   
             
1.948000e+09  2.633318e-01 -8.002412e-01   
             
1.952000e+09  2.408979e-01 -8.064359e-01   
             
1.956000e+09  2.182576e-01 -8.120266e-01   
             
1.960000e+09  1.954265e-01 -8.170094e-01   
             
1.964000e+09  1.724181e-01 -8.213796e-01   
             
1.968000e+09  1.492448e-01 -8.251311e-01   
             
1.972000e+09  1.259187e-01 -8.282552e-01   
             
1.976000e+09  1.024532e-01 -8.307414e-01   
             
1.980000e+09  7.886402e-02 -8.325778e-01   
             
1.984000e+09  5.516953e-02 -8.337520e-01   
             
1.988000e+09  3.139120e-02 -8.342524e-01   
             
1.992000e+09  7.553018e-03 -8.340697e-01   
             
1.996000e+09 -1.631939e-02 -8.331971e-01   
             
2.000000e+09 -4.019991e-02 -8.316312e-01   
             
2.004000e+09 -6.406306e-02 -8.293715e-01   
             
2.008000e+09 -8.788500e-02 -8.264197e-01   
             
2.012000e+09 -1.116440e-01 -8.227790e-01   
             
2.016000e+09 -1.353205e-01 -8.184526e-01   
             
2.020000e+09 -1.588967e-01 -8.134430e-01   
             
2.024000e+09 -1.823554e-01 -8.077511e-01   
             
2.028000e+09 -2.056794e-01 -8.013763e-01   
             
2.032000e+09 -2.288499e-01 -7.943166e-01   
             
2.036000e+09 -2.518462e-01 -7.865694e-01   
             
2.040000e+09 -2.746452e-01 -7.781328e-01   
             
2.044000e+09 -2.972215e-01 -7.690063e-01   
             
2.048000e+09 -3.195481e-01 -7.591920e-01   
             
2.052000e+09 -3.415975e-01 -7.486952e-01   
             
2.056000e+09 -3.633427e-01 -7.375240e-01   
             
2.060000e+09 -3.847583e-01 -7.256892e-01   
             
2.064000e+09 -4.058212e-01 -7.132034e-01   
             
2.068000e+09 -4.265107e-01 -7.000797e-01   
             
2.072000e+09 -4.468084e-01 -6.863305e-01   
             
2.076000e+09 -4.666972e-01 -6.719672e-01   
             
2.080000e+09 -4.861605e-01 -6.569993e-01   
             
2.084000e+09 -5.051809e-01 -6.414349e-01   
             
2.088000e+09 -5.237393e-01 -6.252812e-01   
             
2.092000e+09 -5.418142e-01 -6.085455e-01   
             
2.096000e+09 -5.593824e-01 -5.912366e-01   
             
2.100000e+09 -5.764188e-01 -5.733654e-01   
             
2.104000e+09 -5.928977e-01 -5.549461e-01   
             
2.108000e+09 -6.087939e-01 -5.359958e-01   
             
2.112000e+09 -6.240842e-01 -5.165346e-01   
             
2.116000e+09 -6.387475e-01 -4.965842e-01   
             
2.120000e+09 -6.527657e-01 -4.761673e-01   
             
2.124000e+09 -6.661233e-01 -4.553058e-01   
             
2.128000e+09 -6.788065e-01 -4.340203e-01   
             
2.132000e+09 -6.908020e-01 -4.123294e-01   
             
2.136000e+09 -7.020960e-01 -3.902501e-01   
             
2.140000e+09 -7.126729e-01 -3.677981e-01   
             
2.144000e+09 -7.225147e-01 -3.449894e-01   
             
2.148000e+09 -7.316012e-01 -3.218411e-01   
             
2.152000e+09 -7.399103e-01 -2.983731e-01   
             
2.156000e+09 -7.474191e-01 -2.746084e-01   
             
2.160000e+09 -7.541053e-01 -2.505735e-01   
             
2.164000e+09 -7.599485e-01 -2.262981e-01   
             
2.168000e+09 -7.649307e-01 -2.018140e-01   
             
2.172000e+09 -7.690369e-01 -1.771537e-01   
             
2.176000e+09 -7.722546e-01 -1.523496e-01   
             
2.180000e+09 -7.745732e-01 -1.274326e-01   
             
2.184000e+09 -7.759820e-01 -1.024319e-01   
             
2.188000e+09 -7.764695e-01 -7.737559e-02   
             
2.192000e+09 -7.760218e-01 -5.229104e-02   
             
2.196000e+09 -7.746223e-01 -2.720682e-02   
             
2.200000e+09 -7.722516e-01 -2.154045e-03   
             
2.204000e+09 -7.688881e-01  2.283210e-02   
             
2.208000e+09 -7.645097e-01  4.771145e-02   
             
2.212000e+09 -7.590951e-01  7.243853e-02   
             
2.216000e+09 -7.526249e-01  9.696294e-02   
             
2.220000e+09 -7.450833e-01  1.212303e-01   
             
2.224000e+09 -7.364579e-01  1.451834e-01   
             
2.228000e+09 -7.267393e-01  1.687634e-01   
             
2.232000e+09 -7.159204e-01  1.919100e-01   
             
2.236000e+09 -7.039952e-01  2.145621e-01   
             
2.240000e+09 -6.909572e-01  2.366559e-01   
             
2.244000e+09 -6.767994e-01  2.581241e-01   
             
2.248000e+09 -6.615136e-01  2.788930e-01   
             
2.252000e+09 -6.450924e-01  2.988810e-01   
             
2.256000e+09 -6.275305e-01  3.179957e-01   
             
2.260000e+09 -6.088280e-01  3.361337e-01   
             
2.264000e+09 -5.889931e-01  3.531794e-01   
             
2.268000e+09 -5.680459e-01  3.690063e-01   
             
2.272000e+09 -5.460203e-01  3.834776e-01   
             
2.276000e+09 -5.229669e-01  3.964482e-01   
             
2.280000e+09 -4.989548e-01  4.077664e-01   
             
2.284000e+09 -4.740727e-01  4.172753e-01   
             
2.288000e+09 -4.484312e-01  4.248138e-01   
             
2.292000e+09 -4.221646e-01  4.302175e-01   
             
2.296000e+09 -3.954353e-01  4.333196e-01   
             
2.300000e+09 -3.684376e-01  4.339534e-01   
             
2.304000e+09 -3.414045e-01  4.319560e-01   
             
2.308000e+09 -3.146132e-01  4.271748e-01   
             
2.312000e+09 -2.883913e-01  4.194778e-01   
             
2.316000e+09 -2.631203e-01  4.087664e-01   
             
2.320000e+09 -2.392358e-01  3.949923e-01   
             
2.324000e+09 -2.172233e-01  3.781759e-01   
             
2.328000e+09 -1.976068e-01  3.584258e-01   
             
2.332000e+09 -1.809315e-01  3.359569e-01   
             
2.336000e+09 -1.677392e-01  3.111039e-01   
             
2.340000e+09 -1.585385e-01  2.843296e-01   
             
2.344000e+09 -1.537696e-01  2.562238e-01   
             
2.348000e+09 -1.537694e-01  2.274922e-01   
             
2.352000e+09 -1.587374e-01  1.989339e-01   
             
2.356000e+09 -1.687075e-01  1.714087e-01   
             
2.360000e+09 -1.835305e-01  1.457948e-01   
             
2.364000e+09 -2.028673e-01  1.229411e-01   
             
2.368000e+09 -2.261986e-01  1.036180e-01   
             
2.372000e+09 -2.528482e-01  8.847127e-02   
             
2.376000e+09 -2.820198e-01  7.798555e-02   
             
2.380000e+09 -3.128440e-01  7.245958e-02   
             
2.384000e+09 -3.444288e-01  7.199737e-02   
             
2.388000e+09 -3.759108e-01  7.651507e-02   
             
2.392000e+09 -4.064988e-01  8.576212e-02   
             
2.396000e+09 -4.355080e-01  9.935318e-02   
             
2.400000e+09 -4.623813e-01  1.168062e-01   
             
2.404000e+09 -4.866976e-01  1.375818e-01   
             
2.408000e+09 -5.081679e-01  1.611199e-01   
             
2.412000e+09 -5.266233e-01  1.868698e-01   
             
2.416000e+09 -5.419966e-01  2.143127e-01   
             
2.420000e+09 -5.543019e-01  2.429762e-01   
             
2.424000e+09 -5.636144e-01  2.724412e-01   
             
2.428000e+09 -5.700527e-01  3.023431e-01   
             
2.432000e+09 -5.737645e-01  3.323702e-01   
             
2.436000e+09 -5.749155e-01  3.622583e-01   
             
2.440000e+09 -5.736818e-01  3.917864e-01   
             
2.444000e+09 -5.702443e-01  4.207718e-01   
             
2.448000e+09 -5.647850e-01  4.490662e-01   
             
2.452000e+09 -5.574837e-01  4.765521e-01   
             
2.456000e+09 -5.485147e-01  5.031401e-01   
             
2.460000e+09 -5.380446e-01  5.287661e-01   
             
2.464000e+09 -5.262295e-01  5.533876e-01   
             
2.468000e+09 -5.132129e-01  5.769804e-01   
             
2.472000e+09 -4.991248e-01  5.995346e-01   
             
2.476000e+09 -4.840810e-01  6.210508e-01   
             
2.480000e+09 -4.681841e-01  6.415359e-01   
             
2.484000e+09 -4.515250e-01  6.610009e-01   
             
2.488000e+09 -4.341854e-01  6.794580e-01   
             
2.492000e+09 -4.162394e-01  6.969203e-01   
             
2.496000e+09 -3.977561e-01  7.134012e-01   
             
2.500000e+09 -3.788005e-01  7.289152e-01   
             
2.504000e+09 -3.594346e-01  7.434789e-01   
             
2.508000e+09 -3.397171e-01  7.571116e-01   
             
2.512000e+09 -3.197023e-01  7.698359e-01   
             
2.516000e+09 -2.994398e-01  7.816772e-01   
             
2.520000e+09 -2.789733e-01  7.926633e-01   
             
2.524000e+09 -2.583401e-01  8.028226e-01   
             
2.528000e+09 -2.375714e-01  8.121829e-01   
             
2.532000e+09 -2.166933e-01  8.207697e-01   
             
2.536000e+09 -1.957279e-01  8.286054e-01   
             
2.540000e+09 -1.746950e-01  8.357090e-01   
             
2.544000e+09 -1.536141e-01  8.420963e-01   
             
2.548000e+09 -1.325049e-01  8.477809e-01   
             
2.552000e+09 -1.113886e-01  8.527756e-01   
             
2.556000e+09 -9.028753e-02  8.570940e-01   
             
2.560000e+09 -6.922440e-02  8.607513e-01   
             
2.564000e+09 -4.822114e-02  8.637649e-01   
             
2.568000e+09 -2.729759e-02  8.661549e-01   
             
2.572000e+09 -6.470356e-03  8.679425e-01   
             
2.576000e+09  1.424779e-02  8.691494e-01   
             
2.580000e+09  3.484794e-02  8.697960e-01   
             
2.584000e+09  5.532433e-02  8.699004e-01   
             
2.588000e+09  7.567305e-02  8.694772e-01   
             
2.592000e+09  9.589056e-02  8.685375e-01   
             
2.596000e+09  1.159722e-01  8.670892e-01   
             
2.600000e+09  1.359110e-01  8.651385e-01   
             
2.604000e+09  1.556973e-01  8.626908e-01   
             
2.608000e+09  1.753190e-01  8.597528e-01   
             
2.612000e+09  1.947625e-01  8.563335e-01   
             
2.616000e+09  2.140141e-01  8.524447e-01   
             
2.620000e+09  2.330613e-01  8.481013e-01   
             
2.624000e+09  2.518949e-01  8.433199e-01   
             
2.628000e+09  2.705089e-01  8.381182e-01   
             
2.632000e+09  2.889015e-01  8.325126e-01   
             
2.636000e+09  3.070735e-01  8.265171e-01   
             
2.640000e+09  3.250277e-01  8.201419e-01   
             
2.644000e+09  3.427668e-01  8.133935e-01   
             
2.648000e+09  3.602917e-01  8.062748e-01   
             
2.652000e+09  3.776003e-01  7.987865e-01   
             
2.656000e+09  3.946868e-01  7.909288e-01   
             
2.660000e+09  4.115417e-01  7.827031e-01   
             
2.664000e+09  4.281533e-01  7.741139e-01   
             
2.668000e+09  4.445091e-01  7.651696e-01   
             
2.672000e+09  4.605975e-01  7.558823e-01   
             
2.676000e+09  4.764104e-01  7.462672e-01   
             
2.680000e+09  4.919437e-01  7.363410e-01   
             
2.684000e+09  5.071977e-01  7.261196e-01   
             
2.688000e+09  5.221770e-01  7.156161e-01   
             
2.692000e+09  5.368882e-01  7.048394e-01   
             
2.696000e+09  5.513383e-01  6.937934e-01   
             
2.700000e+09  5.655322e-01  6.824774e-01   
             
2.704000e+09  5.794706e-01  6.708873e-01   
             
2.708000e+09  5.931493e-01  6.590181e-01   
             
2.712000e+09  6.065588e-01  6.468662e-01   
             
2.716000e+09  6.196856e-01  6.344318e-01   
             
2.720000e+09  6.325145e-01  6.217204e-01   
             
2.724000e+09  6.450309e-01  6.087433e-01   
             
2.728000e+09  6.572242e-01  5.955167e-01   
             
2.732000e+09  6.690890e-01  5.820594e-01   
             
2.736000e+09  6.806268e-01  5.683903e-01   
             
2.740000e+09  6.918447e-01  5.545249e-01   
             
2.744000e+09  7.027542e-01  5.404730e-01   
             
2.748000e+09  7.133677e-01  5.262369e-01   
             
2.752000e+09  7.236949e-01  5.118116e-01   
             
2.756000e+09  7.337398e-01  4.971864e-01   
             
2.760000e+09  7.434983e-01  4.823479e-01   
             
2.764000e+09  7.529574e-01  4.672842e-01   
             
2.768000e+09  7.620967e-01  4.519886e-01   
             
2.772000e+09  7.708909e-01  4.364628e-01   
             
