!---------------------------------------------------------------------
! ZVRE, 3.52
!---------------------------------------------------------------------
! symbol freq-unit parameter-type data-format keyword impedance-ohm
#        HZ        S              RI          R       50
!---------------------------------------------------------------------
! freq                reS11          imS11           
  2.00000000000E+09 -0.42142        -0.739211     
  2.00250000000E+09 -0.434722       -0.729806     
  2.00500000000E+09 -0.447745       -0.721669     
  2.00750000000E+09 -0.461774       -0.713124     
  2.01000000000E+09 -0.47405        -0.704625     
  2.01250000000E+09 -0.484179       -0.696548     
  2.01500000000E+09 -0.495929       -0.689016     
  2.01750000000E+09 -0.506349       -0.680568     
  2.02000000000E+09 -0.516993       -0.671826     
  2.02250000000E+09 -0.527355       -0.662362     
  2.02500000000E+09 -0.538391       -0.653612     
  2.02750000000E+09 -0.548298       -0.644649     
  2.03000000000E+09 -0.558087       -0.634945     
  2.03250000000E+09 -0.569673       -0.626309     
  2.03500000000E+09 -0.579378       -0.616092     
  2.03750000000E+09 -0.587675       -0.60606      
  2.04000000000E+09 -0.59757        -0.59738      
  2.04250000000E+09 -0.607429       -0.586085     
  2.04500000000E+09 -0.616137       -0.576282     
  2.04750000000E+09 -0.625964       -0.565531     
  2.05000000000E+09 -0.636712       -0.554193     
  2.05250000000E+09 -0.646165       -0.54309      
  2.05500000000E+09 -0.655032       -0.531682     
  2.05750000000E+09 -0.66337        -0.519169     
  2.06000000000E+09 -0.671869       -0.50835      
  2.06250000000E+09 -0.680116       -0.496464     
  2.06500000000E+09 -0.687453       -0.484253     
  2.06750000000E+09 -0.695054       -0.47195      
  2.07000000000E+09 -0.701465       -0.459966     
  2.07250000000E+09 -0.709396       -0.447873     
  2.07500000000E+09 -0.716468       -0.434961     
  2.07750000000E+09 -0.723111       -0.423477     
  2.08000000000E+09 -0.729958       -0.409326     
  2.08250000000E+09 -0.735241       -0.396221     
  2.08500000000E+09 -0.741633       -0.383659     
  2.08750000000E+09 -0.748404       -0.369341     
  2.09000000000E+09 -0.754205       -0.355077     
  2.09250000000E+09 -0.761571       -0.341665     
  2.09500000000E+09 -0.767          -0.328348     
  2.09750000000E+09 -0.773682       -0.314144     
  2.10000000000E+09 -0.779455       -0.300511     
  2.10250000000E+09 -0.784014       -0.286373     
  2.10500000000E+09 -0.789334       -0.271589     
  2.10750000000E+09 -0.793952       -0.257789     
  2.11000000000E+09 -0.798016       -0.242445     
  2.11250000000E+09 -0.802021       -0.227503     
  2.11500000000E+09 -0.805706       -0.215777     
  2.11750000000E+09 -0.808642       -0.201561     
  2.12000000000E+09 -0.811402       -0.188058     
  2.12250000000E+09 -0.81424        -0.174261     
  2.12500000000E+09 -0.816532       -0.160544     
  2.12750000000E+09 -0.8196         -0.146096     
  2.13000000000E+09 -0.822154       -0.13246      
  2.13250000000E+09 -0.823574       -0.117204     
  2.13500000000E+09 -0.825541       -0.10265      
  2.13750000000E+09 -0.826137       -0.0879891    
  2.14000000000E+09 -0.828534       -0.0736759    
  2.14250000000E+09 -0.828984       -0.0587938    
  2.14500000000E+09 -0.830201       -0.0445223    
  2.14750000000E+09 -0.830111       -0.0310399    
  2.15000000000E+09 -0.829918       -0.016888     
  2.15250000000E+09 -0.829715       -0.00277844   
  2.15500000000E+09 -0.829706        0.0121028    
  2.15750000000E+09 -0.830541        0.027752     
  2.16000000000E+09 -0.829567        0.0432957    
  2.16250000000E+09 -0.828072        0.0583642    
  2.16500000000E+09 -0.826921        0.0732184    
  2.16750000000E+09 -0.824849        0.0876116    
  2.17000000000E+09 -0.823565        0.101493     
  2.17250000000E+09 -0.821333        0.116915     
  2.17500000000E+09 -0.820045        0.129987     
  2.17750000000E+09 -0.817091        0.144267     
  2.18000000000E+09 -0.812781        0.159598     
  2.18250000000E+09 -0.80963         0.173194     
  2.18500000000E+09 -0.806334        0.186496     
  2.18750000000E+09 -0.80198         0.200049     
  2.19000000000E+09 -0.797541        0.214557     
  2.19250000000E+09 -0.794513        0.22834      
  2.19500000000E+09 -0.788438        0.241273     
  2.19750000000E+09 -0.784021        0.256449     
  2.20000000000E+09 -0.778115        0.269796     
  2.20250000000E+09 -0.772912        0.28365      
  2.20500000000E+09 -0.767323        0.297944     
  2.20750000000E+09 -0.761619        0.31157      
  2.21000000000E+09 -0.755711        0.323953     
  2.21250000000E+09 -0.748687        0.3367       
  2.21500000000E+09 -0.742381        0.350156     
  2.21750000000E+09 -0.73568         0.362874     
  2.22000000000E+09 -0.726373        0.376491     
  2.22250000000E+09 -0.719193        0.388434     
  2.22500000000E+09 -0.710808        0.400827     
  2.22750000000E+09 -0.701649        0.41348      
  2.23000000000E+09 -0.69331         0.426395     
  2.23250000000E+09 -0.684094        0.439192     
  2.23500000000E+09 -0.674954        0.451384     
  2.23750000000E+09 -0.664918        0.463799     
  2.24000000000E+09 -0.654752        0.474925     
  2.24250000000E+09 -0.644382        0.486877     
  2.24500000000E+09 -0.632172        0.498478     
  2.24750000000E+09 -0.620923        0.508825     
  2.25000000000E+09 -0.610106        0.518546     
  2.25250000000E+09 -0.598334        0.528806     
  2.25500000000E+09 -0.586545        0.540009     
  2.25750000000E+09 -0.574581        0.550292     
  2.26000000000E+09 -0.562901        0.560312     
  2.26250000000E+09 -0.550873        0.571211     
  2.26500000000E+09 -0.538293        0.58165      
  2.26750000000E+09 -0.525678        0.590986     
  2.27000000000E+09 -0.51008         0.601225     
  2.27250000000E+09 -0.497001        0.610592     
  2.27500000000E+09 -0.482703        0.61894      
  2.27750000000E+09 -0.467865        0.6262       
  2.28000000000E+09 -0.453359        0.633575     
  2.28250000000E+09 -0.438696        0.639604     
  2.28500000000E+09 -0.425311        0.644985     
  2.28750000000E+09 -0.411013        0.649567     
  2.29000000000E+09 -0.395573        0.655244     
  2.29250000000E+09 -0.381563        0.659033     
  2.29500000000E+09 -0.363541        0.664003     
  2.29750000000E+09 -0.348488        0.667047     
  2.30000000000E+09 -0.333324        0.669948     
  2.30250000000E+09 -0.316976        0.673437     
  2.30500000000E+09 -0.300485        0.676505     
  2.30750000000E+09 -0.282639        0.679151     
  2.31000000000E+09 -0.263554        0.682883     
  2.31250000000E+09 -0.242737        0.685243     
  2.31500000000E+09 -0.221963        0.685875     
  2.31750000000E+09 -0.203472        0.684675     
  2.32000000000E+09 -0.184476        0.68278      
  2.32250000000E+09 -0.165286        0.68079      
  2.32500000000E+09 -0.145907        0.677112     
  2.32750000000E+09 -0.127352        0.673072     
  2.33000000000E+09 -0.109744        0.669695     
  2.33250000000E+09 -0.0917898       0.6662       
  2.33500000000E+09 -0.0728088       0.661343     
  2.33750000000E+09 -0.0545331       0.654233     
  2.34000000000E+09 -0.0368852       0.646613     
  2.34250000000E+09 -0.019278        0.637618     
  2.34500000000E+09 -0.0030833       0.626689     
  2.34750000000E+09  0.0129582       0.615248     
  2.35000000000E+09  0.0285473       0.601746     
  2.35250000000E+09  0.0433755       0.587825     
  2.35500000000E+09  0.0567752       0.571601     
  2.35750000000E+09  0.0705101       0.553835     
  2.36000000000E+09  0.081359        0.535559     
  2.36250000000E+09  0.0913087       0.518376     
  2.36500000000E+09  0.100521        0.499528     
  2.36750000000E+09  0.107801        0.479594     
  2.37000000000E+09  0.113773        0.458404     
  2.37250000000E+09  0.116909        0.43802      
  2.37500000000E+09  0.119931        0.417319     
  2.37750000000E+09  0.122222        0.396476     
  2.38000000000E+09  0.12209         0.374224     
  2.38250000000E+09  0.121531        0.352461     
  2.38500000000E+09  0.120417        0.329646     
  2.38750000000E+09  0.116579        0.305271     
  2.39000000000E+09  0.109512        0.279652     
  2.39250000000E+09  0.0993631       0.256028     
  2.39500000000E+09  0.0864276       0.233563     
  2.39750000000E+09  0.0706361       0.213301     
  2.40000000000E+09  0.0535983       0.195135     
  2.40250000000E+09  0.0349074       0.178519     
  2.40500000000E+09  0.0154438       0.164479     
  2.40750000000E+09 -0.00552547      0.151358     
  2.41000000000E+09 -0.0285632       0.139995     
  2.41250000000E+09 -0.0535646       0.131834     
  2.41500000000E+09 -0.0787517       0.12722      
  2.41750000000E+09 -0.10437         0.125437     
  2.42000000000E+09 -0.129676        0.126719     
  2.42250000000E+09 -0.154266        0.130999     
  2.42500000000E+09 -0.176926        0.137478     
  2.42750000000E+09 -0.198058        0.144965     
  2.43000000000E+09 -0.219073        0.152588     
  2.43250000000E+09 -0.241016        0.162523     
  2.43500000000E+09 -0.2624          0.175831     
  2.43750000000E+09 -0.281379        0.191772     
  2.44000000000E+09 -0.297167        0.209762     
  2.44250000000E+09 -0.312111        0.227513     
  2.44500000000E+09 -0.326089        0.246843     
  2.44750000000E+09 -0.338887        0.268054     
  2.45000000000E+09 -0.348778        0.290529     
  2.45250000000E+09 -0.357076        0.313192     
  2.45500000000E+09 -0.363941        0.33467      
  2.45750000000E+09 -0.369251        0.357402     
  2.46000000000E+09 -0.373072        0.379618     
  2.46250000000E+09 -0.374478        0.402905     
  2.46500000000E+09 -0.373069        0.425789     
  2.46750000000E+09 -0.370528        0.446885     
  2.47000000000E+09 -0.36575         0.467186     
  2.47250000000E+09 -0.361648        0.48779      
  2.47500000000E+09 -0.3566          0.5096       
  2.47750000000E+09 -0.349033        0.531012     
  2.48000000000E+09 -0.340522        0.549423     
  2.48250000000E+09 -0.331775        0.568159     
  2.48500000000E+09 -0.323068        0.586767     
  2.48750000000E+09 -0.313755        0.604386     
  2.49000000000E+09 -0.303119        0.621648     
  2.49250000000E+09 -0.291081        0.63866      
  2.49500000000E+09 -0.27799         0.653607     
  2.49750000000E+09 -0.26401         0.668703     
  2.50000000000E+09 -0.249399        0.681482     
  2.50250000000E+09 -0.236484        0.69528      
  2.50500000000E+09 -0.220986        0.707111     
  2.50750000000E+09 -0.206609        0.717901     
  2.51000000000E+09 -0.192766        0.728293     
  2.51250000000E+09 -0.177108        0.738891     
  2.51500000000E+09 -0.160867        0.748829     
  2.51750000000E+09 -0.144777        0.758142     
  2.52000000000E+09 -0.128923        0.767027     
  2.52250000000E+09 -0.113091        0.774231     
  2.52500000000E+09 -0.097003        0.78209      
  2.52750000000E+09 -0.0812081       0.78875      
  2.53000000000E+09 -0.0653844       0.794574     
  2.53250000000E+09 -0.0482425       0.800587     
  2.53500000000E+09 -0.0336091       0.80545      
  2.53750000000E+09 -0.0171406       0.810026     
  2.54000000000E+09 -0.00167569      0.813628     
  2.54250000000E+09  0.0145409       0.817888     
  2.54500000000E+09  0.0309371       0.82141      
  2.54750000000E+09  0.0476761       0.82365      
  2.55000000000E+09  0.0644507       0.827788     
  2.55250000000E+09  0.0816413       0.828821     
  2.55500000000E+09  0.0972446       0.829869     
  2.55750000000E+09  0.11303         0.831142     
  2.56000000000E+09  0.129067        0.830445     
  2.56250000000E+09  0.145862        0.830433     
  2.56500000000E+09  0.162883        0.830485     
  2.56750000000E+09  0.179634        0.82929      
  2.57000000000E+09  0.196265        0.831176     
  2.57250000000E+09  0.213634        0.828458     
  2.57500000000E+09  0.227313        0.826028     
  2.57750000000E+09  0.242744        0.82359      
  2.58000000000E+09  0.255975        0.819503     
  2.58250000000E+09  0.268262        0.816698     
  2.58500000000E+09  0.282073        0.81195      
  2.58750000000E+09  0.295386        0.80936      
  2.59000000000E+09  0.308637        0.805319     
  2.59250000000E+09  0.323306        0.800812     
  2.59500000000E+09  0.336816        0.796865     
  2.59750000000E+09  0.350571        0.792235     
  2.60000000000E+09  0.362817        0.787732     
  2.60250000000E+09  0.376519        0.782593     
  2.60500000000E+09  0.389069        0.777558     
  2.60750000000E+09  0.401834        0.773543     
  2.61000000000E+09  0.415229        0.765713     
  2.61250000000E+09  0.426959        0.758853     
  2.61500000000E+09  0.440803        0.751619     
  2.61750000000E+09  0.452397        0.745219     
  2.62000000000E+09  0.466543        0.738432     
  2.62250000000E+09  0.480475        0.730946     
  2.62500000000E+09  0.49168         0.722434     
  2.62750000000E+09  0.503654        0.715035     
  2.63000000000E+09  0.51607         0.707452     
  2.63250000000E+09  0.528562        0.698013     
  2.63500000000E+09  0.540245        0.691061     
  2.63750000000E+09  0.552334        0.680737     
  2.64000000000E+09  0.561652        0.673585     
  2.64250000000E+09  0.573331        0.666374     
  2.64500000000E+09  0.58242         0.656705     
  2.64750000000E+09  0.592871        0.648188     
  2.65000000000E+09  0.60224         0.639877     
  2.65250000000E+09  0.613962        0.63145      
  2.65500000000E+09  0.625014        0.620565     
  2.65750000000E+09  0.633924        0.611819     
  2.66000000000E+09  0.644303        0.602787     
  2.66250000000E+09  0.654518        0.591875     
  2.66500000000E+09  0.663431        0.579767     
  2.66750000000E+09  0.672687        0.56892      
  2.67000000000E+09  0.681804        0.559071     
  2.67250000000E+09  0.691126        0.547344     
  2.67500000000E+09  0.700247        0.535853     
  2.67750000000E+09  0.709493        0.52485      
  2.68000000000E+09  0.719583        0.513749     
  2.68250000000E+09  0.728907        0.502298     
  2.68500000000E+09  0.738071        0.490903     
  2.68750000000E+09  0.745418        0.479674     
  2.69000000000E+09  0.75336         0.468994     
  2.69250000000E+09  0.760368        0.456438     
  2.69500000000E+09  0.76781         0.444969     
  2.69750000000E+09  0.774844        0.433711     
  2.70000000000E+09  0.781493        0.420639     
  2.70250000000E+09  0.786138        0.409203     
  2.70500000000E+09  0.792135        0.398889     
  2.70750000000E+09  0.798385        0.386006     
  2.71000000000E+09  0.802768        0.374639     
  2.71250000000E+09  0.808936        0.362243     
  2.71500000000E+09  0.813984        0.351111     
  2.71750000000E+09  0.819162        0.33841      
  2.72000000000E+09  0.824276        0.327541     
  2.72250000000E+09  0.831198        0.314658     
  2.72500000000E+09  0.835343        0.300097     
  2.72750000000E+09  0.838578        0.288625     
  2.73000000000E+09  0.842682        0.27604      
  2.73250000000E+09  0.847114        0.264725     
  2.73500000000E+09  0.850767        0.253018     
  2.73750000000E+09  0.853978        0.239948     
  2.74000000000E+09  0.858249        0.228096     
  2.74250000000E+09  0.861292        0.216098     
  2.74500000000E+09  0.863671        0.202505     
  2.74750000000E+09  0.867223        0.189625     
  2.75000000000E+09  0.86864         0.177181     
  2.75250000000E+09  0.872039        0.164077     
  2.75500000000E+09  0.874228        0.151506     
  2.75750000000E+09  0.874607        0.141305     
  2.76000000000E+09  0.875887        0.130032     
  2.76250000000E+09  0.877168        0.117891     
  2.76500000000E+09  0.87988         0.10445      
  2.76750000000E+09  0.879835        0.0927872    
  2.77000000000E+09  0.879499        0.0817758    
  2.77250000000E+09  0.880878        0.06946      
  2.77500000000E+09  0.880927        0.05862      
  2.77750000000E+09  0.880569        0.0481786    
  2.78000000000E+09  0.880697        0.0366813    
  2.78250000000E+09  0.881927        0.024899     
  2.78500000000E+09  0.879678        0.0125552    
  2.78750000000E+09  0.880674       -0.000785402  
  2.79000000000E+09  0.879027       -0.0150507    
  2.79250000000E+09  0.877367       -0.0277371    
  2.79500000000E+09  0.878354       -0.0405067    
  2.79750000000E+09  0.877201       -0.0548259    
  2.80000000000E+09  0.874218       -0.0675414    
  2.80250000000E+09  0.873429       -0.0811097    
  2.80500000000E+09  0.870719       -0.0958005    
  2.80750000000E+09  0.869573       -0.109034     
  2.81000000000E+09  0.867225       -0.124236     
  2.81250000000E+09  0.86549        -0.136861     
  2.81500000000E+09  0.861657       -0.152192     
  2.81750000000E+09  0.858801       -0.165325     
  2.82000000000E+09  0.856122       -0.176352     
  2.82250000000E+09  0.85198        -0.188479     
  2.82500000000E+09  0.850019       -0.202082     
  2.82750000000E+09  0.847427       -0.213517     
  2.83000000000E+09  0.84278        -0.225599     
  2.83250000000E+09  0.838568       -0.23789      
  2.83500000000E+09  0.834042       -0.250126     
  2.83750000000E+09  0.830701       -0.262747     
  2.84000000000E+09  0.825696       -0.274113     
  2.84250000000E+09  0.820879       -0.286541     
  2.84500000000E+09  0.815279       -0.298944     
  2.84750000000E+09  0.812092       -0.310306     
  2.85000000000E+09  0.806479       -0.321737     
  2.85250000000E+09  0.801823       -0.333421     
  2.85500000000E+09  0.796809       -0.344467     
  2.85750000000E+09  0.791433       -0.356025     
  2.86000000000E+09  0.786321       -0.366718     
  2.86250000000E+09  0.780452       -0.378955     
  2.86500000000E+09  0.772967       -0.391218     
  2.86750000000E+09  0.767186       -0.401979     
  2.87000000000E+09  0.760256       -0.413627     
  2.87250000000E+09  0.753359       -0.425847     
  2.87500000000E+09  0.746196       -0.437423     
  2.87750000000E+09  0.740793       -0.448279     
  2.88000000000E+09  0.733686       -0.459829     
  2.88250000000E+09  0.726246       -0.468885     
  2.88500000000E+09  0.719091       -0.478454     
  2.88750000000E+09  0.713298       -0.486345     
  2.89000000000E+09  0.70532        -0.49585      
  2.89250000000E+09  0.699003       -0.504632     
  2.89500000000E+09  0.690641       -0.512806     
  2.89750000000E+09  0.68441        -0.521813     
  2.90000000000E+09  0.67595        -0.530164     
  2.90250000000E+09  0.666023       -0.538408     
  2.90500000000E+09  0.658184       -0.547586     
  2.90750000000E+09  0.651618       -0.554564     
  2.91000000000E+09  0.64153        -0.563158     
  2.91250000000E+09  0.632972       -0.571677     
  2.91500000000E+09  0.626997       -0.579366     
  2.91750000000E+09  0.619615       -0.58623      
  2.92000000000E+09  0.612333       -0.59308      
  2.92250000000E+09  0.604153       -0.600508     
  2.92500000000E+09  0.596338       -0.608782     
  2.92750000000E+09  0.587925       -0.616555     
  2.93000000000E+09  0.577838       -0.62466      
  2.93250000000E+09  0.569066       -0.632331     
  2.93500000000E+09  0.558671       -0.640285     
  2.93750000000E+09  0.547954       -0.648436     
