#   Hz   S  RI   R   50
! 
1.400000e+09  4.148734e-01  8.811877e-01   
             
1.404000e+09  4.202196e-01  8.787482e-01   
             
1.408000e+09  4.257713e-01  8.764270e-01   
             
1.412000e+09  4.315697e-01  8.741104e-01   
             
1.416000e+09  4.376025e-01  8.716800e-01   
             
1.420000e+09  4.438087e-01  8.690356e-01   
             
1.424000e+09  4.500912e-01  8.661141e-01   
             
1.428000e+09  4.563371e-01  8.629008e-01   
             
1.432000e+09  4.624395e-01  8.594306e-01   
             
1.436000e+09  4.683185e-01  8.557799e-01   
             
1.440000e+09  4.739355e-01  8.520502e-01   
             
1.444000e+09  4.792994e-01  8.483481e-01   
             
1.448000e+09  4.844631e-01  8.447645e-01   
             
1.452000e+09  4.895121e-01  8.413572e-01   
             
1.456000e+09  4.945470e-01  8.381414e-01   
             
1.460000e+09  4.996632e-01  8.350881e-01   
             
1.464000e+09  5.049335e-01  8.321304e-01   
             
1.468000e+09  5.103938e-01  8.291783e-01   
             
1.472000e+09  5.160380e-01  8.261362e-01   
             
1.476000e+09  5.218195e-01  8.229216e-01   
             
1.480000e+09  5.276621e-01  8.194810e-01   
             
1.484000e+09  5.334748e-01  8.157991e-01   
             
1.488000e+09  5.391704e-01  8.119009e-01   
             
1.492000e+09  5.446817e-01  8.078458e-01   
             
1.496000e+09  5.499743e-01  8.037153e-01   
             
1.500000e+09  5.550521e-01  7.995960e-01   
             
1.504000e+09  5.599553e-01  7.955636e-01   
             
1.508000e+09  5.647519e-01  7.916678e-01   
             
1.512000e+09  5.695233e-01  7.879243e-01   
             
1.516000e+09  5.743484e-01  7.843123e-01   
             
1.520000e+09  5.792886e-01  7.807795e-01   
             
1.524000e+09  5.843763e-01  7.772532e-01   
             
1.528000e+09  5.896094e-01  7.736550e-01   
             
1.532000e+09  5.949523e-01  7.699158e-01   
             
1.536000e+09  6.003439e-01  7.659891e-01   
             
1.540000e+09  6.057100e-01  7.618594e-01   
             
1.544000e+09  6.109778e-01  7.575448e-01   
             
1.548000e+09  6.160898e-01  7.530919e-01   
             
1.552000e+09  6.210151e-01  7.485670e-01   
             
1.556000e+09  6.257538e-01  7.440421e-01   
             
1.560000e+09  6.303370e-01  7.395811e-01   
             
1.564000e+09  6.348191e-01  7.352278e-01   
             
1.568000e+09  6.392673e-01  7.309979e-01   
             
1.572000e+09  6.437483e-01  7.268767e-01   
             
1.576000e+09  6.483147e-01  7.228228e-01   
             
1.580000e+09  6.529962e-01  7.187767e-01   
             
1.584000e+09  6.577936e-01  7.146727e-01   
             
1.588000e+09  6.626794e-01  7.104518e-01   
             
1.592000e+09  6.676040e-01  7.060730e-01   
             
1.596000e+09  6.725057e-01  7.015208e-01   
             
1.600000e+09  6.773225e-01  6.968078e-01   
             
1.604000e+09  6.820046e-01  6.919715e-01   
             
1.608000e+09  6.865234e-01  6.870665e-01   
             
1.612000e+09  6.908766e-01  6.821537e-01   
             
1.616000e+09  6.950880e-01  6.772882e-01   
             
1.620000e+09  6.992022e-01  6.725092e-01   
             
1.624000e+09  7.032757e-01  6.678324e-01   
             
1.628000e+09  7.073654e-01  6.632478e-01   
             
1.632000e+09  7.115179e-01  6.587221e-01   
             
1.636000e+09  7.157603e-01  6.542056e-01   
             
1.640000e+09  7.200958e-01  6.496426e-01   
             
1.644000e+09  7.245031e-01  6.449815e-01   
             
1.648000e+09  7.289412e-01  6.401855e-01   
             
1.652000e+09  7.333578e-01  6.352392e-01   
             
1.656000e+09  7.376994e-01  6.301510e-01   
             
1.660000e+09  7.419216e-01  6.249513e-01   
             
1.664000e+09  7.459978e-01  6.196860e-01   
             
1.668000e+09  7.499237e-01  6.144076e-01   
             
1.672000e+09  7.537177e-01  6.091647e-01   
             
1.676000e+09  7.574170e-01  6.039928e-01   
             
1.680000e+09  7.610699e-01  5.989076e-01   
             
1.684000e+09  7.647259e-01  5.939027e-01   
             
1.688000e+09  7.684269e-01  5.889511e-01   
             
1.692000e+09  7.721984e-01  5.840106e-01   
             
1.696000e+09  7.760452e-01  5.790327e-01   
             
1.700000e+09  7.799509e-01  5.739718e-01   
             
1.704000e+09  7.838810e-01  5.687941e-01   
             
1.708000e+09  7.877903e-01  5.634840e-01   
             
1.712000e+09  7.916316e-01  5.580469e-01   
             
1.716000e+09  7.953648e-01  5.525077e-01   
             
1.720000e+09  7.989646e-01  5.469057e-01   
             
1.724000e+09  8.024251e-01  5.412871e-01   
             
1.728000e+09  8.057607e-01  5.356953e-01   
             
1.732000e+09  8.090026e-01  5.301633e-01   
             
1.736000e+09  8.121929e-01  5.247071e-01   
             
1.740000e+09  8.153759e-01  5.193230e-01   
             
1.744000e+09  8.185898e-01  5.139886e-01   
             
1.748000e+09  8.218589e-01  5.086676e-01   
             
1.752000e+09  8.251897e-01  5.033171e-01   
             
1.756000e+09  8.285691e-01  4.978956e-01   
             
1.760000e+09  8.319679e-01  4.923716e-01   
             
1.764000e+09  8.353463e-01  4.867293e-01   
             
1.768000e+09  8.386616e-01  4.809716e-01   
             
1.772000e+09  8.418769e-01  4.751191e-01   
             
1.776000e+09  8.449678e-01  4.692063e-01   
             
1.780000e+09  8.479270e-01  4.632743e-01   
             
1.784000e+09  8.507655e-01  4.573631e-01   
             
1.788000e+09  8.535103e-01  4.515038e-01   
             
1.792000e+09  8.561987e-01  4.457126e-01   
             
1.796000e+09  8.588711e-01  4.399882e-01   
             
1.800000e+09  8.615630e-01  4.343119e-01   
             
1.804000e+09  8.642982e-01  4.286517e-01   
             
1.808000e+09  8.670844e-01  4.229687e-01   
             
1.812000e+09  8.699115e-01  4.172246e-01   
             
1.816000e+09  8.727540e-01  4.113892e-01   
             
1.820000e+09  8.755763e-01  4.054465e-01   
             
1.824000e+09  8.783390e-01  3.993971e-01   
             
1.828000e+09  8.810072e-01  3.932584e-01   
             
1.832000e+09  8.835569e-01  3.870611e-01   
             
1.836000e+09  8.859796e-01  3.808428e-01   
             
1.840000e+09  8.882836e-01  3.746410e-01   
             
1.844000e+09  8.904925e-01  3.684857e-01   
             
1.848000e+09  8.926401e-01  3.623937e-01   
             
1.852000e+09  8.947642e-01  3.563655e-01   
             
1.856000e+09  8.968985e-01  3.503852e-01   
             
1.860000e+09  8.990667e-01  3.444243e-01   
             
1.864000e+09  9.012776e-01  3.384465e-01   
             
1.868000e+09  9.035237e-01  3.324157e-01   
             
1.872000e+09  9.057823e-01  3.263024e-01   
             
1.876000e+09  9.080206e-01  3.200897e-01   
             
1.880000e+09  9.102015e-01  3.137766e-01   
             
1.884000e+09  9.122912e-01  3.073779e-01   
             
1.888000e+09  9.142657e-01  3.009213e-01   
             
1.892000e+09  9.161149e-01  2.944423e-01   
             
1.896000e+09  9.178453e-01  2.879768e-01   
             
1.900000e+09  9.194776e-01  2.815543e-01   
             
1.904000e+09  9.210434e-01  2.751924e-01   
             
1.908000e+09  9.225786e-01  2.688934e-01   
             
1.912000e+09  9.241162e-01  2.626437e-01   
             
1.916000e+09  9.256802e-01  2.564169e-01   
             
1.920000e+09  9.272808e-01  2.501788e-01   
             
1.924000e+09  9.289123e-01  2.438939e-01   
             
1.928000e+09  9.305542e-01  2.375330e-01   
             
1.932000e+09  9.321756e-01  2.310781e-01   
             
1.936000e+09  9.337405e-01  2.245264e-01   
             
1.940000e+09  9.352154e-01  2.178907e-01   
             
1.944000e+09  9.365755e-01  2.111968e-01   
             
1.948000e+09  9.378094e-01  2.044788e-01   
             
1.952000e+09  9.389213e-01  1.977719e-01   
             
1.956000e+09  9.399304e-01  1.911061e-01   
             
1.960000e+09  9.408665e-01  1.845001e-01   
             
1.964000e+09  9.417648e-01  1.779579e-01   
             
1.968000e+09  9.426586e-01  1.714677e-01   
             
1.972000e+09  9.435725e-01  1.650044e-01   
             
1.976000e+09  9.445184e-01  1.585347e-01   
             
1.980000e+09  9.454920e-01  1.520231e-01   
             
1.984000e+09  9.464746e-01  1.454394e-01   
             
1.988000e+09  9.474359e-01  1.387642e-01   
             
1.992000e+09  9.483401e-01  1.319929e-01   
             
1.996000e+09  9.491528e-01  1.251367e-01   
             
2.000000e+09  9.498477e-01  1.182201e-01   
             
2.004000e+09  9.504116e-01  1.112769e-01   
             
2.008000e+09  9.508470e-01  1.043428e-01   
             
2.012000e+09  9.511716e-01  9.744908e-02   
             
2.016000e+09  9.514146e-01  9.061612e-02   
             
2.020000e+09  9.516115e-01  8.384950e-02   
             
2.024000e+09  9.517965e-01  7.713883e-02   
             
2.028000e+09  9.519960e-01  7.045968e-02   
             
2.032000e+09  9.522235e-01  6.377828e-02   
             
2.036000e+09  9.524764e-01  5.705804e-02   
             
2.040000e+09  9.527363e-01  5.026672e-02   
             
2.044000e+09  9.529730e-01  4.338275e-02   
             
2.048000e+09  9.531491e-01  3.639955e-02   
             
2.052000e+09  9.532284e-01  2.932689e-02   
             
2.056000e+09  9.531819e-01  2.218917e-02   
             
2.060000e+09  9.529938e-01  1.502071e-02   
             
2.064000e+09  9.526648e-01  7.859154e-03   
             
2.068000e+09  9.522116e-01  7.380386e-04   
             
2.072000e+09  9.516638e-01 -6.319785e-03   
             
2.076000e+09  9.510581e-01 -1.330679e-02   
             
2.080000e+09  9.504312e-01 -2.023244e-02   
             
2.084000e+09  9.498120e-01 -2.712157e-02   
             
2.088000e+09  9.492159e-01 -3.400969e-02   
             
2.092000e+09  9.486416e-01 -4.093623e-02   
             
2.096000e+09  9.480705e-01 -4.793683e-02   
             
2.100000e+09  9.474703e-01 -5.503633e-02   
             
2.104000e+09  9.468008e-01 -6.224377e-02   
             
2.108000e+09  9.460212e-01 -6.955038e-02   
             
2.112000e+09  9.450983e-01 -7.693109e-02   
             
2.116000e+09  9.440128e-01 -8.434925e-02   
             
2.120000e+09  9.427626e-01 -9.176366e-02   
             
2.124000e+09  9.413640e-01 -9.913671e-02   
             
2.128000e+09  9.398480e-01 -1.064419e-01   
             
2.132000e+09  9.382540e-01 -1.136693e-01   
             
2.136000e+09  9.366223e-01 -1.208278e-01   
             
2.140000e+09  9.349856e-01 -1.279441e-01   
             
2.144000e+09  9.333618e-01 -1.350575e-01   
             
2.148000e+09  9.317499e-01 -1.422126e-01   
             
2.152000e+09  9.301293e-01 -1.494507e-01   
             
2.156000e+09  9.284631e-01 -1.568017e-01   
             
2.160000e+09  9.267041e-01 -1.642776e-01   
             
2.164000e+09  9.248039e-01 -1.718702e-01   
             
2.168000e+09  9.227214e-01 -1.795522e-01   
             
2.172000e+09  9.204306e-01 -1.872817e-01   
             
2.176000e+09  9.179259e-01 -1.950110e-01   
             
2.180000e+09  9.152224e-01 -2.026951e-01   
             
2.184000e+09  9.123532e-01 -2.103017e-01   
             
2.188000e+09  9.093624e-01 -2.178172e-01   
             
2.192000e+09  9.062955e-01 -2.252505e-01   
             
2.196000e+09  9.031894e-01 -2.326318e-01   
             
2.200000e+09  9.000642e-01 -2.400074e-01   
             
2.204000e+09  8.969168e-01 -2.474307e-01   
             
2.208000e+09  8.937199e-01 -2.549522e-01   
             
2.212000e+09  8.904250e-01 -2.626087e-01   
             
2.216000e+09  8.869699e-01 -2.704157e-01   
             
2.220000e+09  8.832892e-01 -2.783633e-01   
             
2.224000e+09  8.793254e-01 -2.864166e-01   
             
2.228000e+09  8.750390e-01 -2.945222e-01   
             
2.232000e+09  8.704150e-01 -3.026171e-01   
             
2.236000e+09  8.654648e-01 -3.106411e-01   
             
2.240000e+09  8.602226e-01 -3.185483e-01   
             
2.244000e+09  8.547366e-01 -3.263166e-01   
             
2.248000e+09  8.490575e-01 -3.339521e-01   
             
2.252000e+09  8.432244e-01 -3.414889e-01   
             
2.256000e+09  8.372529e-01 -3.489816e-01   
             
2.260000e+09  8.311271e-01 -3.564945e-01   
             
2.264000e+09  8.247960e-01 -3.640863e-01   
             
2.268000e+09  8.181783e-01 -3.717962e-01   
             
2.272000e+09  8.111711e-01 -3.796312e-01   
             
2.276000e+09  8.036650e-01 -3.875599e-01   
             
2.280000e+09  7.955598e-01 -3.955115e-01   
             
2.284000e+09  7.867793e-01 -4.033837e-01   
             
2.288000e+09  7.772819e-01 -4.110551e-01   
             
2.292000e+09  7.670642e-01 -4.184019e-01   
             
2.296000e+09  7.561560e-01 -4.253150e-01   
             
2.300000e+09  7.446086e-01 -4.317131e-01   
             
2.304000e+09  7.324760e-01 -4.375493e-01   
             
2.308000e+09  7.197950e-01 -4.428080e-01   
             
2.312000e+09  7.065663e-01 -4.474918e-01   
             
2.316000e+09  6.927430e-01 -4.515993e-01   
             
2.320000e+09  6.782289e-01 -4.550970e-01   
             
2.324000e+09  6.628909e-01 -4.578902e-01   
             
2.328000e+09  6.465838e-01 -4.597980e-01   
             
2.332000e+09  6.291877e-01 -4.605384e-01   
             
2.336000e+09  6.106524e-01 -4.597295e-01   
             
2.340000e+09  5.910434e-01 -4.569075e-01   
             
2.344000e+09  5.705807e-01 -4.515646e-01   
             
2.348000e+09  5.496660e-01 -4.432023e-01   
             
2.352000e+09  5.288878e-01 -4.313961e-01   
             
2.356000e+09  5.090044e-01 -4.158631e-01   
             
2.360000e+09  4.909015e-01 -3.965233e-01   
             
2.364000e+09  4.755274e-01 -3.735457e-01   
             
2.368000e+09  4.638138e-01 -3.473713e-01   
             
2.372000e+09  4.565889e-01 -3.187082e-01   
             
2.376000e+09  4.544949e-01 -2.884969e-01   
             
2.380000e+09  4.579199e-01 -2.578493e-01   
             
2.384000e+09  4.669526e-01 -2.279681e-01   
             
2.388000e+09  4.813645e-01 -2.000541e-01   
             
2.392000e+09  5.006237e-01 -1.752139e-01   
             
2.396000e+09  5.239358e-01 -1.543762e-01   
             
2.400000e+09  5.503089e-01 -1.382264e-01   
             
2.404000e+09  5.786339e-01 -1.271648e-01   
             
2.408000e+09  6.077724e-01 -1.212929e-01   
             
2.412000e+09  6.366418e-01 -1.204264e-01   
             
2.416000e+09  6.642905e-01 -1.241328e-01   
             
2.420000e+09  6.899553e-01 -1.317891e-01   
             
2.424000e+09  7.130971e-01 -1.426513e-01   
             
2.428000e+09  7.334114e-01 -1.559289e-01   
             
2.432000e+09  7.508163e-01 -1.708549e-01   
             
2.436000e+09  7.654187e-01 -1.867455e-01   
             
2.440000e+09  7.774673e-01 -2.030419e-01   
             
2.444000e+09  7.872965e-01 -2.193331e-01   
             
2.448000e+09  7.952720e-01 -2.353572e-01   
             
2.452000e+09  8.017417e-01 -2.509857e-01   
             
2.456000e+09  8.070003e-01 -2.661936e-01   
             
2.460000e+09  8.112687e-01 -2.810230e-01   
             
2.464000e+09  8.146897e-01 -2.955450e-01   
             
2.468000e+09  8.173366e-01 -3.098277e-01   
             
2.472000e+09  8.192328e-01 -3.239124e-01   
             
2.476000e+09  8.203759e-01 -3.378017e-01   
             
2.480000e+09  8.207615e-01 -3.514595e-01   
             
2.484000e+09  8.204034e-01 -3.648196e-01   
             
2.488000e+09  8.193452e-01 -3.778022e-01   
             
2.492000e+09  8.176641e-01 -3.903316e-01   
             
2.496000e+09  8.154651e-01 -4.023533e-01   
             
2.500000e+09  8.128692e-01 -4.138454e-01   
             
2.504000e+09  8.099980e-01 -4.248237e-01   
             
2.508000e+09  8.069578e-01 -4.353394e-01   
             
2.512000e+09  8.038266e-01 -4.454695e-01   
             
2.516000e+09  8.006468e-01 -4.553037e-01   
             
2.520000e+09  7.974239e-01 -4.649289e-01   
             
2.524000e+09  7.941326e-01 -4.744155e-01   
             
2.528000e+09  7.907268e-01 -4.838073e-01   
             
2.532000e+09  7.871531e-01 -4.931172e-01   
             
2.536000e+09  7.833649e-01 -5.023284e-01   
             
2.540000e+09  7.793330e-01 -5.114019e-01   
             
2.544000e+09  7.750532e-01 -5.202868e-01   
             
2.548000e+09  7.705478e-01 -5.289331e-01   
             
2.552000e+09  7.658617e-01 -5.373031e-01   
             
2.556000e+09  7.610544e-01 -5.453798e-01   
             
2.560000e+09  7.561892e-01 -5.531713e-01   
             
2.564000e+09  7.513218e-01 -5.607093e-01   
             
2.568000e+09  7.464912e-01 -5.680437e-01   
             
2.572000e+09  7.417132e-01 -5.752335e-01   
             
2.576000e+09  7.369799e-01 -5.823364e-01   
             
2.580000e+09  7.322618e-01 -5.893986e-01   
             
2.584000e+09  7.275157e-01 -5.964473e-01   
             
2.588000e+09  7.226940e-01 -6.034875e-01   
             
2.592000e+09  7.177542e-01 -6.105023e-01   
             
2.596000e+09  7.126678e-01 -6.174577e-01   
             
2.600000e+09  7.074256e-01 -6.243111e-01   
             
2.604000e+09  7.020395e-01 -6.310197e-01   
             
2.608000e+09  6.965395e-01 -6.375502e-01   
             
2.612000e+09  6.909681e-01 -6.438853e-01   
             
2.616000e+09  6.853717e-01 -6.500272e-01   
             
2.620000e+09  6.797920e-01 -6.559974e-01   
             
2.624000e+09  6.742579e-01 -6.618323e-01   
             
2.628000e+09  6.687808e-01 -6.675764e-01   
             
2.632000e+09  6.633529e-01 -6.732738e-01   
             
2.636000e+09  6.579492e-01 -6.789604e-01   
             
2.640000e+09  6.525333e-01 -6.846571e-01   
             
2.644000e+09  6.470643e-01 -6.903667e-01   
             
2.648000e+09  6.415054e-01 -6.960743e-01   
             
2.652000e+09  6.358310e-01 -7.017504e-01   
             
2.656000e+09  6.300314e-01 -7.073578e-01   
             
2.660000e+09  6.241145e-01 -7.128589e-01   
             
2.664000e+09  6.181041e-01 -7.182232e-01   
             
2.668000e+09  6.120350e-01 -7.234336e-01   
             
2.672000e+09  6.059459e-01 -7.284898e-01   
             
2.676000e+09  5.998726e-01 -7.334076e-01   
             
2.680000e+09  5.938402e-01 -7.382165e-01   
             
2.684000e+09  5.878591e-01 -7.429537e-01   
             
2.688000e+09  5.819233e-01 -7.476565e-01   
             
2.692000e+09  5.760117e-01 -7.523559e-01   
             
2.696000e+09  5.700923e-01 -7.570703e-01   
             
2.700000e+09  5.641291e-01 -7.618024e-01   
             
2.704000e+09  5.580889e-01 -7.665392e-01   
             
2.708000e+09  5.519479e-01 -7.712547e-01   
             
2.712000e+09  5.456962e-01 -7.759154e-01   
             
2.716000e+09  5.393394e-01 -7.804866e-01   
             
2.720000e+09  5.328977e-01 -7.849400e-01   
             
2.724000e+09  5.264016e-01 -7.892583e-01   
             
2.728000e+09  5.198861e-01 -7.934395e-01   
             
2.732000e+09  5.133835e-01 -7.974964e-01   
             
2.736000e+09  5.069176e-01 -8.014544e-01   
             
2.740000e+09  5.004989e-01 -8.053464e-01   
             
2.744000e+09  4.941230e-01 -8.092063e-01   
             
2.748000e+09  4.877712e-01 -8.130627e-01   
             
2.752000e+09  4.814150e-01 -8.169331e-01   
             
2.756000e+09  4.750210e-01 -8.208207e-01   
             
2.760000e+09  4.685581e-01 -8.247142e-01   
             
2.764000e+09  4.620032e-01 -8.285900e-01   
             
2.768000e+09  4.553460e-01 -8.324167e-01   
             
2.772000e+09  4.485905e-01 -8.361616e-01   
             
