#   Hz   S  RI   R   50
! 
1.400000e+09  4.834514e-01  8.402286e-01   
             
1.404000e+09  4.890031e-01  8.369989e-01   
             
1.408000e+09  4.946162e-01  8.337905e-01   
             
1.412000e+09  5.003030e-01  8.305786e-01   
             
1.416000e+09  5.060686e-01  8.273365e-01   
             
1.420000e+09  5.119113e-01  8.240373e-01   
             
1.424000e+09  5.178223e-01  8.206556e-01   
             
1.428000e+09  5.237869e-01  8.171693e-01   
             
1.432000e+09  5.297851e-01  8.135611e-01   
             
1.436000e+09  5.357938e-01  8.098193e-01   
             
1.440000e+09  5.417872e-01  8.059386e-01   
             
1.444000e+09  5.477399e-01  8.019205e-01   
             
1.448000e+09  5.536274e-01  7.977727e-01   
             
1.452000e+09  5.594285e-01  7.935091e-01   
             
1.456000e+09  5.651263e-01  7.891479e-01   
             
1.460000e+09  5.707092e-01  7.847111e-01   
             
1.464000e+09  5.761718e-01  7.802227e-01   
             
1.468000e+09  5.815149e-01  7.757067e-01   
             
1.472000e+09  5.867455e-01  7.711860e-01   
             
1.476000e+09  5.918760e-01  7.666807e-01   
             
1.480000e+09  5.969233e-01  7.622066e-01   
             
1.484000e+09  6.019078e-01  7.577746e-01   
             
1.488000e+09  6.068515e-01  7.533899e-01   
             
1.492000e+09  6.117768e-01  7.490516e-01   
             
1.496000e+09  6.167050e-01  7.447531e-01   
             
1.500000e+09  6.216547e-01  7.404827e-01   
             
1.504000e+09  6.266404e-01  7.362244e-01   
             
1.508000e+09  6.316722e-01  7.319589e-01   
             
1.512000e+09  6.367546e-01  7.276653e-01   
             
1.516000e+09  6.418867e-01  7.233224e-01   
             
1.520000e+09  6.470619e-01  7.189100e-01   
             
1.524000e+09  6.522689e-01  7.144104e-01   
             
1.528000e+09  6.574922e-01  7.098094e-01   
             
1.532000e+09  6.627134e-01  7.050974e-01   
             
1.536000e+09  6.679122e-01  7.002699e-01   
             
1.540000e+09  6.730682e-01  6.953274e-01   
             
1.544000e+09  6.781617e-01  6.902759e-01   
             
1.548000e+09  6.831755e-01  6.851260e-01   
             
1.552000e+09  6.880956e-01  6.798921e-01   
             
1.556000e+09  6.929123e-01  6.745917e-01   
             
1.560000e+09  6.976209e-01  6.692438e-01   
             
1.564000e+09  7.022214e-01  6.638680e-01   
             
1.568000e+09  7.067190e-01  6.584828e-01   
             
1.572000e+09  7.111232e-01  6.531046e-01   
             
1.576000e+09  7.154476e-01  6.477467e-01   
             
1.580000e+09  7.197083e-01  6.424182e-01   
             
1.584000e+09  7.239230e-01  6.371238e-01   
             
1.588000e+09  7.281099e-01  6.318632e-01   
             
1.592000e+09  7.322864e-01  6.266315e-01   
             
1.596000e+09  7.364679e-01  6.214194e-01   
             
1.600000e+09  7.406665e-01  6.162143e-01   
             
1.604000e+09  7.448908e-01  6.110005e-01   
             
1.608000e+09  7.491448e-01  6.057610e-01   
             
1.612000e+09  7.534281e-01  6.004784e-01   
             
1.616000e+09  7.577357e-01  5.951358e-01   
             
1.620000e+09  7.620584e-01  5.897184e-01   
             
1.624000e+09  7.663838e-01  5.842143e-01   
             
1.628000e+09  7.706966e-01  5.786152e-01   
             
1.632000e+09  7.749801e-01  5.729169e-01   
             
1.636000e+09  7.792172e-01  5.671195e-01   
             
1.640000e+09  7.833912e-01  5.612277e-01   
             
1.644000e+09  7.874877e-01  5.552500e-01   
             
1.648000e+09  7.914945e-01  5.491981e-01   
             
1.652000e+09  7.954032e-01  5.430866e-01   
             
1.656000e+09  7.992092e-01  5.369313e-01   
             
1.660000e+09  8.029123e-01  5.307487e-01   
             
1.664000e+09  8.065163e-01  5.245544e-01   
             
1.668000e+09  8.100290e-01  5.183627e-01   
             
1.672000e+09  8.134614e-01  5.121849e-01   
             
1.676000e+09  8.168269e-01  5.060291e-01   
             
1.680000e+09  8.201405e-01  4.998996e-01   
             
1.684000e+09  8.234176e-01  4.937965e-01   
             
1.688000e+09  8.266729e-01  4.877162e-01   
             
1.692000e+09  8.299197e-01  4.816509e-01   
             
1.696000e+09  8.331687e-01  4.755900e-01   
             
1.700000e+09  8.364274e-01  4.695202e-01   
             
1.704000e+09  8.396995e-01  4.634272e-01   
             
1.708000e+09  8.429850e-01  4.572956e-01   
             
1.712000e+09  8.462797e-01  4.511110e-01   
             
1.716000e+09  8.495760e-01  4.448604e-01   
             
1.720000e+09  8.528631e-01  4.385331e-01   
             
1.724000e+09  8.561280e-01  4.321216e-01   
             
1.728000e+09  8.593559e-01  4.256220e-01   
             
1.732000e+09  8.625319e-01  4.190340e-01   
             
1.736000e+09  8.656413e-01  4.123612e-01   
             
1.740000e+09  8.686710e-01  4.056109e-01   
             
1.744000e+09  8.716101e-01  3.987933e-01   
             
1.748000e+09  8.744508e-01  3.919207e-01   
             
1.752000e+09  8.771885e-01  3.850073e-01   
             
1.756000e+09  8.798227e-01  3.780674e-01   
             
1.760000e+09  8.823563e-01  3.711152e-01   
             
1.764000e+09  8.847958e-01  3.641631e-01   
             
1.768000e+09  8.871506e-01  3.572217e-01   
             
1.772000e+09  8.894325e-01  3.502984e-01   
             
1.776000e+09  8.916545e-01  3.433973e-01   
             
1.780000e+09  8.938304e-01  3.365189e-01   
             
1.784000e+09  8.959734e-01  3.296600e-01   
             
1.788000e+09  8.980954e-01  3.228140e-01   
             
1.792000e+09  9.002062e-01  3.159716e-01   
             
1.796000e+09  9.023125e-01  3.091208e-01   
             
1.800000e+09  9.044181e-01  3.022485e-01   
             
1.804000e+09  9.065229e-01  2.953411e-01   
             
1.808000e+09  9.086234e-01  2.883850e-01   
             
1.812000e+09  9.107126e-01  2.813682e-01   
             
1.816000e+09  9.127808e-01  2.742809e-01   
             
1.820000e+09  9.148158e-01  2.671156e-01   
             
1.824000e+09  9.168042e-01  2.598685e-01   
             
1.828000e+09  9.187318e-01  2.525391e-01   
             
1.832000e+09  9.205849e-01  2.451304e-01   
             
1.836000e+09  9.223510e-01  2.376488e-01   
             
1.840000e+09  9.240195e-01  2.301034e-01   
             
1.844000e+09  9.255826e-01  2.225058e-01   
             
1.848000e+09  9.270358e-01  2.148688e-01   
             
1.852000e+09  9.283779e-01  2.072059e-01   
             
1.856000e+09  9.296112e-01  1.995304e-01   
             
1.860000e+09  9.307412e-01  1.918541e-01   
             
1.864000e+09  9.317765e-01  1.841872e-01   
             
1.868000e+09  9.327277e-01  1.765367e-01   
             
1.872000e+09  9.336070e-01  1.689069e-01   
             
1.876000e+09  9.344270e-01  1.612983e-01   
             
1.880000e+09  9.352002e-01  1.537082e-01   
             
1.884000e+09  9.359378e-01  1.461305e-01   
             
1.888000e+09  9.366490e-01  1.385563e-01   
             
1.892000e+09  9.373404e-01  1.309742e-01   
             
1.896000e+09  9.380152e-01  1.233716e-01   
             
1.900000e+09  9.386735e-01  1.157352e-01   
             
1.904000e+09  9.393117e-01  1.080519e-01   
             
1.908000e+09  9.399230e-01  1.003098e-01   
             
1.912000e+09  9.404975e-01  9.249893e-02   
             
1.916000e+09  9.410232e-01  8.461194e-02   
             
1.920000e+09  9.414866e-01  7.664467e-02   
             
1.924000e+09  9.418734e-01  6.859635e-02   
             
1.928000e+09  9.421695e-01  6.046968e-02   
             
1.932000e+09  9.423619e-01  5.227067e-02   
             
1.936000e+09  9.424396e-01  4.400825e-02   
             
1.940000e+09  9.423943e-01  3.569362e-02   
             
1.944000e+09  9.422205e-01  2.733956e-02   
             
1.948000e+09  9.419164e-01  1.895952e-02   
             
1.952000e+09  9.414835e-01  1.056674e-02   
             
1.956000e+09  9.409268e-01  2.173319e-03   
             
1.960000e+09  9.402540e-01 -6.210577e-03   
             
1.964000e+09  9.394752e-01 -1.457745e-02   
             
1.968000e+09  9.386021e-01 -2.292296e-02   
             
1.972000e+09  9.376471e-01 -3.124627e-02   
             
1.976000e+09  9.366220e-01 -3.955010e-02   
             
1.980000e+09  9.355380e-01 -4.784054e-02   
             
1.984000e+09  9.344038e-01 -5.612670e-02   
             
1.988000e+09  9.332256e-01 -6.442008e-02   
             
1.992000e+09  9.320063e-01 -7.273380e-02   
             
1.996000e+09  9.307452e-01 -8.108172e-02   
             
2.000000e+09  9.294379e-01 -8.947751e-02   
             
2.004000e+09  9.280765e-01 -9.793372e-02   
             
2.008000e+09  9.266498e-01 -1.064609e-01   
             
2.012000e+09  9.251444e-01 -1.150668e-01   
             
2.016000e+09  9.235448e-01 -1.237561e-01   
             
2.020000e+09  9.218349e-01 -1.325295e-01   
             
2.024000e+09  9.199986e-01 -1.413843e-01   
             
2.028000e+09  9.180208e-01 -1.503141e-01   
             
2.032000e+09  9.158884e-01 -1.593093e-01   
             
2.036000e+09  9.135910e-01 -1.683577e-01   
             
2.040000e+09  9.111213e-01 -1.774454e-01   
             
2.044000e+09  9.084760e-01 -1.865576e-01   
             
2.048000e+09  9.056551e-01 -1.956797e-01   
             
2.052000e+09  9.026625e-01 -2.047981e-01   
             
2.056000e+09  8.995052e-01 -2.139015e-01   
             
2.060000e+09  8.961926e-01 -2.229811e-01   
             
2.064000e+09  8.927359e-01 -2.320318e-01   
             
2.068000e+09  8.891471e-01 -2.410523e-01   
             
2.072000e+09  8.854377e-01 -2.500450e-01   
             
2.076000e+09  8.816182e-01 -2.590163e-01   
             
2.080000e+09  8.776964e-01 -2.679761e-01   
             
2.084000e+09  8.736773e-01 -2.769366e-01   
             
2.088000e+09  8.695619e-01 -2.859123e-01   
             
2.092000e+09  8.653471e-01 -2.949180e-01   
             
2.096000e+09  8.610254e-01 -3.039689e-01   
             
2.100000e+09  8.565850e-01 -3.130784e-01   
             
2.104000e+09  8.520105e-01 -3.222576e-01   
             
2.108000e+09  8.472833e-01 -3.315146e-01   
             
2.112000e+09  8.423825e-01 -3.408535e-01   
             
2.116000e+09  8.372860e-01 -3.502737e-01   
             
2.120000e+09  8.319718e-01 -3.597705e-01   
             
2.124000e+09  8.264187e-01 -3.693347e-01   
             
2.128000e+09  8.206076e-01 -3.789528e-01   
             
2.132000e+09  8.145226e-01 -3.886085e-01   
             
2.136000e+09  8.081515e-01 -3.982828e-01   
             
2.140000e+09  8.014862e-01 -4.079556e-01   
             
2.144000e+09  7.945230e-01 -4.176066e-01   
             
2.148000e+09  7.872624e-01 -4.272166e-01   
             
2.152000e+09  7.797086e-01 -4.367689e-01   
             
2.156000e+09  7.718686e-01 -4.462497e-01   
             
2.160000e+09  7.637513e-01 -4.556493e-01   
             
2.164000e+09  7.553665e-01 -4.649624e-01   
             
2.168000e+09  7.467231e-01 -4.741884e-01   
             
2.172000e+09  7.378282e-01 -4.833308e-01   
             
2.176000e+09  7.286855e-01 -4.923971e-01   
             
2.180000e+09  7.192944e-01 -5.013978e-01   
             
2.184000e+09  7.096491e-01 -5.103448e-01   
             
2.188000e+09  6.997380e-01 -5.192509e-01   
             
2.192000e+09  6.895435e-01 -5.281274e-01   
             
2.196000e+09  6.790423e-01 -5.369832e-01   
             
2.200000e+09  6.682056e-01 -5.458231e-01   
             
2.204000e+09  6.570004e-01 -5.546464e-01   
             
2.208000e+09  6.453903e-01 -5.634462e-01   
             
2.212000e+09  6.333375e-01 -5.722083e-01   
             
2.216000e+09  6.208036e-01 -5.809111e-01   
             
2.220000e+09  6.077521e-01 -5.895257e-01   
             
2.224000e+09  5.941492e-01 -5.980159e-01   
             
2.228000e+09  5.799655e-01 -6.063398e-01   
             
2.232000e+09  5.651772e-01 -6.144501e-01   
             
2.236000e+09  5.497666e-01 -6.222964e-01   
             
2.240000e+09  5.337225e-01 -6.298259e-01   
             
2.244000e+09  5.170403e-01 -6.369859e-01   
             
2.248000e+09  4.997209e-01 -6.437241e-01   
             
2.252000e+09  4.817704e-01 -6.499911e-01   
             
2.256000e+09  4.631981e-01 -6.557403e-01   
             
2.260000e+09  4.440151e-01 -6.609286e-01   
             
2.264000e+09  4.242328e-01 -6.655167e-01   
             
2.268000e+09  4.038610e-01 -6.694680e-01   
             
2.272000e+09  3.829062e-01 -6.727472e-01   
             
2.276000e+09  3.613707e-01 -6.753192e-01   
             
2.280000e+09  3.392519e-01 -6.771462e-01   
             
2.284000e+09  3.165420e-01 -6.781855e-01   
             
2.288000e+09  2.932289e-01 -6.783867e-01   
             
2.292000e+09  2.692976e-01 -6.776891e-01   
             
2.296000e+09  2.447324e-01 -6.760189e-01   
             
2.300000e+09  2.195202e-01 -6.732877e-01   
             
2.304000e+09  1.936541e-01 -6.693906e-01   
             
2.308000e+09  1.671380e-01 -6.642057e-01   
             
2.312000e+09  1.399913e-01 -6.575951e-01   
             
2.316000e+09  1.122535e-01 -6.494060e-01   
             
2.320000e+09  8.398964e-02 -6.394735e-01   
             
2.324000e+09  5.529415e-02 -6.276252e-01   
             
2.328000e+09  2.629493e-02 -6.136859e-01   
             
2.332000e+09 -2.844062e-03 -5.974841e-01   
             
2.336000e+09 -3.192127e-02 -5.788594e-01   
             
2.340000e+09 -6.069757e-02 -5.576695e-01   
             
2.344000e+09 -8.889785e-02 -5.337991e-01   
             
2.348000e+09 -1.162144e-01 -5.071668e-01   
             
2.352000e+09 -1.423119e-01 -4.777331e-01   
             
2.356000e+09 -1.668341e-01 -4.455066e-01   
             
2.360000e+09 -1.894120e-01 -4.105493e-01   
             
2.364000e+09 -2.096731e-01 -3.729800e-01   
             
2.368000e+09 -2.272513e-01 -3.329762e-01   
             
2.372000e+09 -2.417975e-01 -2.907741e-01   
             
2.376000e+09 -2.529900e-01 -2.466659e-01   
             
2.380000e+09 -2.605445e-01 -2.009959e-01   
             
2.384000e+09 -2.642231e-01 -1.541542e-01   
             
2.388000e+09 -2.638422e-01 -1.065687e-01   
             
2.392000e+09 -2.592785e-01 -5.869621e-02   
             
2.396000e+09 -2.504739e-01 -1.101180e-02   
             
2.400000e+09 -2.374376e-01  3.600169e-02   
             
2.404000e+09 -2.202467e-01  8.186486e-02   
             
2.408000e+09 -1.990447e-01  1.261127e-01   
             
2.412000e+09 -1.740381e-01  1.683049e-01   
             
2.416000e+09 -1.454912e-01  2.080354e-01   
             
2.420000e+09 -1.137200e-01  2.449407e-01   
             
2.424000e+09 -7.908365e-02  2.787071e-01   
             
2.428000e+09 -4.197624e-02  3.090757e-01   
             
2.432000e+09 -2.817293e-03  3.358468e-01   
             
2.436000e+09  3.795801e-02  3.588820e-01   
             
2.440000e+09  7.990856e-02  3.781044e-01   
             
2.444000e+09  1.225969e-01  3.934979e-01   
             
2.448000e+09  1.655982e-01  4.051045e-01   
             
2.452000e+09  2.085088e-01  4.130204e-01   
             
2.456000e+09  2.509532e-01  4.173906e-01   
             
2.460000e+09  2.925909e-01  4.184028e-01   
             
2.464000e+09  3.331209e-01  4.162803e-01   
             
2.468000e+09  3.722857e-01  4.112746e-01   
             
2.472000e+09  4.098734e-01  4.036571e-01   
             
2.476000e+09  4.457187e-01  3.937115e-01   
             
2.480000e+09  4.797020e-01  3.817255e-01   
             
2.484000e+09  5.117478e-01  3.679840e-01   
             
2.488000e+09  5.418215e-01  3.527620e-01   
             
2.492000e+09  5.699252e-01  3.363191e-01   
             
2.496000e+09  5.960930e-01  3.188946e-01   
             
2.500000e+09  6.203852e-01  3.007039e-01   
             
2.504000e+09  6.428825e-01  2.819360e-01   
             
2.508000e+09  6.636805e-01  2.627529e-01   
             
2.512000e+09  6.828832e-01  2.432889e-01   
             
2.516000e+09  7.005987e-01  2.236524e-01   
             
2.520000e+09  7.169334e-01  2.039274e-01   
             
2.524000e+09  7.319890e-01  1.841767e-01   
             
2.528000e+09  7.458592e-01  1.644450e-01   
             
2.532000e+09  7.586271e-01  1.447628e-01   
             
2.536000e+09  7.703648e-01  1.251499e-01   
             
2.540000e+09  7.811328e-01  1.056191e-01   
             
2.544000e+09  7.909803e-01  8.617968e-02   
             
2.548000e+09  7.999468e-01  6.684015e-02   
             
2.552000e+09  8.080639e-01  4.761050e-02   
             
2.556000e+09  8.153569e-01  2.850389e-02   
             
2.560000e+09  8.218476e-01  9.537572e-03   
             
2.564000e+09  8.275559e-01 -9.266823e-03   
             
2.568000e+09  8.325028e-01 -2.788363e-02   
             
2.572000e+09  8.367112e-01 -4.628399e-02   
             
2.576000e+09  8.402079e-01 -6.443716e-02   
             
2.580000e+09  8.430242e-01 -8.231205e-02   
             
2.584000e+09  8.451966e-01 -9.987888e-02   
             
2.588000e+09  8.467660e-01 -1.171109e-01   
             
2.592000e+09  8.477776e-01 -1.339859e-01   
             
2.596000e+09  8.482800e-01 -1.504874e-01   
             
2.600000e+09  8.483230e-01 -1.666059e-01   
             
2.604000e+09  8.479569e-01 -1.823389e-01   
             
2.608000e+09  8.472306e-01 -1.976913e-01   
             
2.612000e+09  8.461895e-01 -2.126750e-01   
             
2.616000e+09  8.448746e-01 -2.273078e-01   
             
2.620000e+09  8.433212e-01 -2.416127e-01   
             
2.624000e+09  8.415575e-01 -2.556162e-01   
             
2.628000e+09  8.396048e-01 -2.693464e-01   
             
2.632000e+09  8.374770e-01 -2.828320e-01   
             
2.636000e+09  8.351810e-01 -2.961001e-01   
             
2.640000e+09  8.327174e-01 -3.091748e-01   
             
2.644000e+09  8.300818e-01 -3.220764e-01   
             
2.648000e+09  8.272658e-01 -3.348196e-01   
             
2.652000e+09  8.242588e-01 -3.474139e-01   
             
2.656000e+09  8.210493e-01 -3.598628e-01   
             
2.660000e+09  8.176265e-01 -3.721641e-01   
             
2.664000e+09  8.139818e-01 -3.843109e-01   
             
2.668000e+09  8.101101e-01 -3.962918e-01   
             
2.672000e+09  8.060101e-01 -4.080929e-01   
             
2.676000e+09  8.016856e-01 -4.196984e-01   
             
2.680000e+09  7.971453e-01 -4.310926e-01   
             
2.684000e+09  7.924026e-01 -4.422607e-01   
             
2.688000e+09  7.874752e-01 -4.531906e-01   
             
2.692000e+09  7.823840e-01 -4.638739e-01   
             
2.696000e+09  7.771524e-01 -4.743062e-01   
             
2.700000e+09  7.718048e-01 -4.844884e-01   
             
2.704000e+09  7.663654e-01 -4.944261e-01   
             
2.708000e+09  7.608567e-01 -5.041300e-01   
             
2.712000e+09  7.552985e-01 -5.136148e-01   
             
2.716000e+09  7.497068e-01 -5.228989e-01   
             
2.720000e+09  7.440930e-01 -5.320030e-01   
             
2.724000e+09  7.384637e-01 -5.409492e-01   
             
2.728000e+09  7.328200e-01 -5.497592e-01   
             
2.732000e+09  7.271583e-01 -5.584536e-01   
             
2.736000e+09  7.214705e-01 -5.670504e-01   
             
2.740000e+09  7.157448e-01 -5.755641e-01   
             
2.744000e+09  7.099670e-01 -5.840048e-01   
             
2.748000e+09  7.041212e-01 -5.923780e-01   
             
2.752000e+09  6.981915e-01 -6.006843e-01   
             
2.756000e+09  6.921630e-01 -6.089195e-01   
             
2.760000e+09  6.860231e-01 -6.170752e-01   
             
2.764000e+09  6.797623e-01 -6.251396e-01   
             
2.768000e+09  6.733751e-01 -6.330982e-01   
             
2.772000e+09  6.668604e-01 -6.409354e-01   
             
