#   Hz   S  RI   R   50
! 
1.400000e+09  4.479071e-01  8.628188e-01   
             
1.404000e+09  4.541760e-01  8.605742e-01   
             
1.408000e+09  4.606756e-01  8.581058e-01   
             
1.412000e+09  4.673358e-01  8.553499e-01   
             
1.416000e+09  4.740718e-01  8.522673e-01   
             
1.420000e+09  4.807925e-01  8.488463e-01   
             
1.424000e+09  4.874086e-01  8.451028e-01   
             
1.428000e+09  4.938410e-01  8.410782e-01   
             
1.432000e+09  5.000276e-01  8.368347e-01   
             
1.436000e+09  5.059287e-01  8.324491e-01   
             
1.440000e+09  5.115293e-01  8.280050e-01   
             
1.444000e+09  5.168402e-01  8.235855e-01   
             
1.448000e+09  5.218963e-01  8.192654e-01   
             
1.452000e+09  5.267519e-01  8.151044e-01   
             
1.456000e+09  5.314761e-01  8.111426e-01   
             
1.460000e+09  5.361455e-01  8.073972e-01   
             
1.464000e+09  5.408370e-01  8.038617e-01   
             
1.468000e+09  5.456211e-01  8.005071e-01   
             
1.472000e+09  5.505555e-01  7.972852e-01   
             
1.476000e+09  5.556799e-01  7.941336e-01   
             
1.480000e+09  5.610134e-01  7.909817e-01   
             
1.484000e+09  5.665528e-01  7.877576e-01   
             
1.488000e+09  5.722737e-01  7.843941e-01   
             
1.492000e+09  5.781334e-01  7.808355e-01   
             
1.496000e+09  5.840749e-01  7.770419e-01   
             
1.500000e+09  5.900328e-01  7.729927e-01   
             
1.504000e+09  5.959394e-01  7.686876e-01   
             
1.508000e+09  6.017307e-01  7.641467e-01   
             
1.512000e+09  6.073526e-01  7.594076e-01   
             
1.516000e+09  6.127653e-01  7.545217e-01   
             
1.520000e+09  6.179463e-01  7.495492e-01   
             
1.524000e+09  6.228923e-01  7.445532e-01   
             
1.528000e+09  6.276191e-01  7.395942e-01   
             
1.532000e+09  6.321592e-01  7.347244e-01   
             
1.536000e+09  6.365585e-01  7.299830e-01   
             
1.540000e+09  6.408720e-01  7.253936e-01   
             
1.544000e+09  6.451584e-01  7.209619e-01   
             
1.548000e+09  6.494746e-01  7.166757e-01   
             
1.552000e+09  6.538706e-01  7.125069e-01   
             
1.556000e+09  6.583849e-01  7.084139e-01   
             
1.560000e+09  6.630417e-01  7.043461e-01   
             
1.564000e+09  6.678486e-01  7.002484e-01   
             
1.568000e+09  6.727963e-01  6.960668e-01   
             
1.572000e+09  6.778599e-01  6.917531e-01   
             
1.576000e+09  6.830018e-01  6.872688e-01   
             
1.580000e+09  6.881749e-01  6.825893e-01   
             
1.584000e+09  6.933273e-01  6.777049e-01   
             
1.588000e+09  6.984074e-01  6.726220e-01   
             
1.592000e+09  7.033681e-01  6.673619e-01   
             
1.596000e+09  7.081716e-01  6.619585e-01   
             
1.600000e+09  7.127919e-01  6.564551e-01   
             
1.604000e+09  7.172177e-01  6.509002e-01   
             
1.608000e+09  7.214522e-01  6.453427e-01   
             
1.612000e+09  7.255133e-01  6.398278e-01   
             
1.616000e+09  7.294311e-01  6.343928e-01   
             
1.620000e+09  7.332449e-01  6.290639e-01   
             
1.624000e+09  7.369997e-01  6.238540e-01   
             
1.628000e+09  7.407417e-01  6.187620e-01   
             
1.632000e+09  7.445141e-01  6.137731e-01   
             
1.636000e+09  7.483533e-01  6.088602e-01   
             
1.640000e+09  7.522854e-01  6.039870e-01   
             
1.644000e+09  7.563244e-01  5.991115e-01   
             
1.648000e+09  7.604709e-01  5.941896e-01   
             
1.652000e+09  7.647122e-01  5.891795e-01   
             
1.656000e+09  7.690241e-01  5.840455e-01   
             
1.660000e+09  7.733727e-01  5.787609e-01   
             
1.664000e+09  7.777182e-01  5.733105e-01   
             
1.668000e+09  7.820184e-01  5.676918e-01   
             
1.672000e+09  7.862325e-01  5.619150e-01   
             
1.676000e+09  7.903250e-01  5.560017e-01   
             
1.680000e+09  7.942688e-01  5.499828e-01   
             
1.684000e+09  7.980474e-01  5.438955e-01   
             
1.688000e+09  8.016561e-01  5.377800e-01   
             
1.692000e+09  8.051024e-01  5.316756e-01   
             
1.696000e+09  8.084052e-01  5.256168e-01   
             
1.700000e+09  8.115924e-01  5.196311e-01   
             
1.704000e+09  8.146985e-01  5.137357e-01   
             
1.708000e+09  8.177615e-01  5.079368e-01   
             
1.712000e+09  8.208187e-01  5.022287e-01   
             
1.716000e+09  8.239040e-01  4.965950e-01   
             
1.720000e+09  8.270444e-01  4.910100e-01   
             
1.724000e+09  8.302577e-01  4.854410e-01   
             
1.728000e+09  8.335510e-01  4.798522e-01   
             
1.732000e+09  8.369204e-01  4.742069e-01   
             
1.736000e+09  8.403511e-01  4.684720e-01   
             
1.740000e+09  8.438191e-01  4.626203e-01   
             
1.744000e+09  8.472937e-01  4.566329e-01   
             
1.748000e+09  8.507401e-01  4.505014e-01   
             
1.752000e+09  8.541225e-01  4.442279e-01   
             
1.756000e+09  8.574080e-01  4.378250e-01   
             
1.760000e+09  8.605689e-01  4.313145e-01   
             
1.764000e+09  8.635854e-01  4.247251e-01   
             
1.768000e+09  8.664473e-01  4.180899e-01   
             
1.772000e+09  8.691548e-01  4.114432e-01   
             
1.776000e+09  8.717182e-01  4.048175e-01   
             
1.780000e+09  8.741569e-01  3.982403e-01   
             
1.784000e+09  8.764976e-01  3.917318e-01   
             
1.788000e+09  8.787713e-01  3.853032e-01   
             
1.792000e+09  8.810110e-01  3.789557e-01   
             
1.796000e+09  8.832481e-01  3.726807e-01   
             
1.800000e+09  8.855099e-01  3.664603e-01   
             
1.804000e+09  8.878167e-01  3.602694e-01   
             
1.808000e+09  8.901804e-01  3.540781e-01   
             
1.812000e+09  8.926034e-01  3.478544e-01   
             
1.816000e+09  8.950780e-01  3.415671e-01   
             
1.820000e+09  8.975879e-01  3.351887e-01   
             
1.824000e+09  9.001091e-01  3.286980e-01   
             
1.828000e+09  9.026127e-01  3.220818e-01   
             
1.832000e+09  9.050669e-01  3.153364e-01   
             
1.836000e+09  9.074407e-01  3.084675e-01   
             
1.840000e+09  9.097061e-01  3.014896e-01   
             
1.844000e+09  9.118410e-01  2.944250e-01   
             
1.848000e+09  9.138308e-01  2.873011e-01   
             
1.852000e+09  9.156699e-01  2.801485e-01   
             
1.856000e+09  9.173622e-01  2.729975e-01   
             
1.860000e+09  9.189201e-01  2.658759e-01   
             
1.864000e+09  9.203641e-01  2.588061e-01   
             
1.868000e+09  9.217200e-01  2.518033e-01   
             
1.872000e+09  9.230169e-01  2.448741e-01   
             
1.876000e+09  9.242845e-01  2.380157e-01   
             
1.880000e+09  9.255500e-01  2.312166e-01   
             
1.884000e+09  9.268360e-01  2.244578e-01   
             
1.888000e+09  9.281581e-01  2.177139e-01   
             
1.892000e+09  9.295234e-01  2.109563e-01   
             
1.896000e+09  9.309303e-01  2.041554e-01   
             
1.900000e+09  9.323681e-01  1.972832e-01   
             
1.904000e+09  9.338184e-01  1.903164e-01   
             
1.908000e+09  9.352564e-01  1.832380e-01   
             
1.912000e+09  9.366537e-01  1.760393e-01   
             
1.916000e+09  9.379804e-01  1.687201e-01   
             
1.920000e+09  9.392078e-01  1.612893e-01   
             
1.924000e+09  9.403114e-01  1.537637e-01   
             
1.928000e+09  9.412729e-01  1.461664e-01   
             
1.932000e+09  9.420816e-01  1.385248e-01   
             
1.936000e+09  9.427355e-01  1.308681e-01   
             
1.940000e+09  9.432416e-01  1.232245e-01   
             
1.944000e+09  9.436148e-01  1.156186e-01   
             
1.948000e+09  9.438767e-01  1.080690e-01   
             
1.952000e+09  9.440535e-01  1.005869e-01   
             
1.956000e+09  9.441734e-01  9.317502e-02   
             
1.960000e+09  9.442641e-01  8.582704e-02   
             
1.964000e+09  9.443501e-01  7.852849e-02   
             
1.968000e+09  9.444503e-01  7.125797e-02   
             
1.972000e+09  9.445764e-01  6.398912e-02   
             
1.976000e+09  9.447314e-01  5.669307e-02   
             
1.980000e+09  9.449095e-01  4.934109e-02   
             
1.984000e+09  9.450966e-01  4.190722e-02   
             
1.988000e+09  9.452712e-01  3.437071e-02   
             
1.992000e+09  9.454065e-01  2.671791e-02   
             
1.996000e+09  9.454730e-01  1.894356e-02   
             
2.000000e+09  9.454404e-01  1.105128e-02   
             
2.004000e+09  9.452813e-01  3.053251e-03   
             
2.008000e+09  9.449728e-01 -5.030867e-03   
             
2.012000e+09  9.444991e-01 -1.317577e-02   
             
2.016000e+09  9.438524e-01 -2.135283e-02   
             
2.020000e+09  9.430342e-01 -2.953273e-02   
             
2.024000e+09  9.420543e-01 -3.768820e-02   
             
2.028000e+09  9.409306e-01 -4.579658e-02   
             
2.032000e+09  9.396866e-01 -5.384193e-02   
             
2.036000e+09  9.383499e-01 -6.181657e-02   
             
2.040000e+09  9.369489e-01 -6.972188e-02   
             
2.044000e+09  9.355103e-01 -7.756820e-02   
             
2.048000e+09  9.340565e-01 -8.537399e-02   
             
2.052000e+09  9.326033e-01 -9.316417e-02   
             
2.056000e+09  9.311581e-01 -1.009679e-01   
             
2.060000e+09  9.297192e-01 -1.088157e-01   
             
2.064000e+09  9.282755e-01 -1.167371e-01   
             
2.068000e+09  9.268073e-01 -1.247575e-01   
             
2.072000e+09  9.252881e-01 -1.328957e-01   
             
2.076000e+09  9.236864e-01 -1.411626e-01   
             
2.080000e+09  9.219689e-01 -1.495596e-01   
             
2.084000e+09  9.201028e-01 -1.580787e-01   
             
2.088000e+09  9.180590e-01 -1.667029e-01   
             
2.092000e+09  9.158146e-01 -1.754080e-01   
             
2.096000e+09  9.133549e-01 -1.841643e-01   
             
2.100000e+09  9.106741e-01 -1.929400e-01   
             
2.104000e+09  9.077767e-01 -2.017035e-01   
             
2.108000e+09  9.046759e-01 -2.104266e-01   
             
2.112000e+09  9.013928e-01 -2.190874e-01   
             
2.116000e+09  8.979542e-01 -2.276721e-01   
             
2.120000e+09  8.943894e-01 -2.361766e-01   
             
2.124000e+09  8.907278e-01 -2.446070e-01   
             
2.128000e+09  8.869952e-01 -2.529791e-01   
             
2.132000e+09  8.832112e-01 -2.613173e-01   
             
2.136000e+09  8.793870e-01 -2.696521e-01   
             
2.140000e+09  8.755233e-01 -2.780175e-01   
             
2.144000e+09  8.716100e-01 -2.864479e-01   
             
2.148000e+09  8.676265e-01 -2.949748e-01   
             
2.152000e+09  8.635424e-01 -3.036234e-01   
             
2.156000e+09  8.593204e-01 -3.124106e-01   
             
2.160000e+09  8.549183e-01 -3.213428e-01   
             
2.164000e+09  8.502929e-01 -3.304149e-01   
             
2.168000e+09  8.454033e-01 -3.396107e-01   
             
2.172000e+09  8.402137e-01 -3.489039e-01   
             
2.176000e+09  8.346969e-01 -3.582601e-01   
             
2.180000e+09  8.288358e-01 -3.676399e-01   
             
2.184000e+09  8.226247e-01 -3.770024e-01   
             
2.188000e+09  8.160692e-01 -3.863085e-01   
             
2.192000e+09  8.091852e-01 -3.955244e-01   
             
2.196000e+09  8.019967e-01 -4.046252e-01   
             
2.200000e+09  7.945326e-01 -4.135968e-01   
             
2.204000e+09  7.868231e-01 -4.224369e-01   
             
2.208000e+09  7.788958e-01 -4.311559e-01   
             
2.212000e+09  7.707715e-01 -4.397752e-01   
             
2.216000e+09  7.624612e-01 -4.483251e-01   
             
2.220000e+09  7.539629e-01 -4.568417e-01   
             
2.224000e+09  7.452600e-01 -4.653627e-01   
             
2.228000e+09  7.363212e-01 -4.739233e-01   
             
2.232000e+09  7.271008e-01 -4.825513e-01   
             
2.236000e+09  7.175416e-01 -4.912637e-01   
             
2.240000e+09  7.075773e-01 -5.000628e-01   
             
2.244000e+09  6.971376e-01 -5.089347e-01   
             
2.248000e+09  6.861520e-01 -5.178478e-01   
             
2.252000e+09  6.745552e-01 -5.267538e-01   
             
2.256000e+09  6.622911e-01 -5.355897e-01   
             
2.260000e+09  6.493164e-01 -5.442808e-01   
             
2.264000e+09  6.356033e-01 -5.527451e-01   
             
2.268000e+09  6.211401e-01 -5.608981e-01   
             
2.272000e+09  6.059306e-01 -5.686578e-01   
             
2.276000e+09  5.899922e-01 -5.759492e-01   
             
2.280000e+09  5.733515e-01 -5.827079e-01   
             
2.284000e+09  5.560401e-01 -5.888822e-01   
             
2.288000e+09  5.380884e-01 -5.944341e-01   
             
2.292000e+09  5.195201e-01 -5.993370e-01   
             
2.296000e+09  5.003469e-01 -6.035730e-01   
             
2.300000e+09  4.805643e-01 -6.071271e-01   
             
2.304000e+09  4.601491e-01 -6.099802e-01   
             
2.308000e+09  4.390590e-01 -6.121011e-01   
             
2.312000e+09  4.172352e-01 -6.134380e-01   
             
2.316000e+09  3.946076e-01 -6.139108e-01   
             
2.320000e+09  3.711019e-01 -6.134034e-01   
             
2.324000e+09  3.466509e-01 -6.117597e-01   
             
2.328000e+09  3.212058e-01 -6.087804e-01   
             
2.332000e+09  2.947498e-01 -6.042251e-01   
             
2.336000e+09  2.673122e-01 -5.978166e-01   
             
2.340000e+09  2.389802e-01 -5.892500e-01   
             
2.344000e+09  2.099112e-01 -5.782051e-01   
             
2.348000e+09  1.803397e-01 -5.643625e-01   
             
2.352000e+09  1.505824e-01 -5.474222e-01   
             
2.356000e+09  1.210369e-01 -5.271238e-01   
             
2.360000e+09  9.217682e-02 -5.032669e-01   
             
2.364000e+09  6.454023e-02 -4.757310e-01   
             
2.368000e+09  3.871405e-02 -4.444920e-01   
             
2.372000e+09  1.531350e-02 -4.096362e-01   
             
2.376000e+09 -5.041561e-03 -3.713682e-01   
             
2.380000e+09 -2.175249e-02 -3.300140e-01   
             
2.384000e+09 -3.426816e-02 -2.860171e-01   
             
2.388000e+09 -4.211023e-02 -2.399290e-01   
             
2.392000e+09 -4.489578e-02 -1.923938e-01   
             
2.396000e+09 -4.235599e-02 -1.441276e-01   
             
2.400000e+09 -3.434979e-02 -9.589454e-02   
             
2.404000e+09 -2.087174e-02 -4.848020e-02   
             
2.408000e+09 -2.053839e-03 -2.663944e-03   
             
2.412000e+09  2.183867e-02  4.080801e-02   
             
2.416000e+09  5.041706e-02  8.124776e-02   
             
2.420000e+09  8.318381e-02  1.180479e-01   
             
2.424000e+09  1.195513e-01  1.507000e-01   
             
2.428000e+09  1.588635e-01  1.788079e-01   
             
2.432000e+09  2.004192e-01  2.020973e-01   
             
2.436000e+09  2.434970e-01  2.204187e-01   
             
2.440000e+09  2.873786e-01  2.337472e-01   
             
2.444000e+09  3.313719e-01  2.421759e-01   
             
2.448000e+09  3.748319e-01  2.459060e-01   
             
2.452000e+09  4.171782e-01  2.452334e-01   
             
2.456000e+09  4.579093e-01  2.405317e-01   
             
2.460000e+09  4.966133e-01  2.322336e-01   
             
2.464000e+09  5.329735e-01  2.208109e-01   
             
2.468000e+09  5.667704e-01  2.067541e-01   
             
2.472000e+09  5.978790e-01  1.905530e-01   
             
2.476000e+09  6.262621e-01  1.726787e-01   
             
2.480000e+09  6.519606e-01  1.535680e-01   
             
2.484000e+09  6.750806e-01  1.336109e-01   
             
2.488000e+09  6.957789e-01  1.131419e-01   
             
2.492000e+09  7.142472e-01  9.243495e-02   
             
2.496000e+09  7.306971e-01  7.170222e-02   
             
2.500000e+09  7.453451e-01  5.109659e-02   
             
2.504000e+09  7.584003e-01  3.071716e-02   
             
2.508000e+09  7.700538e-01  1.061733e-02   
             
2.512000e+09  7.804717e-01 -9.185652e-03   
             
2.516000e+09  7.897901e-01 -2.870013e-02   
             
2.520000e+09  7.981144e-01 -4.794967e-02   
             
2.524000e+09  8.055203e-01 -6.696335e-02   
             
2.528000e+09  8.120578e-01 -8.576762e-02   
             
2.532000e+09  8.177559e-01 -1.043799e-01   
             
2.536000e+09  8.226299e-01 -1.228046e-01   
             
2.540000e+09  8.266877e-01 -1.410311e-01   
             
2.544000e+09  8.299365e-01 -1.590340e-01   
             
2.548000e+09  8.323886e-01 -1.767756e-01   
             
2.552000e+09  8.340655e-01 -1.942091e-01   
             
2.556000e+09  8.350011e-01 -2.112836e-01   
             
2.560000e+09  8.352427e-01 -2.279491e-01   
             
2.564000e+09  8.348502e-01 -2.441614e-01   
             
2.568000e+09  8.338941e-01 -2.598862e-01   
             
2.572000e+09  8.324520e-01 -2.751030e-01   
             
2.576000e+09  8.306046e-01 -2.898066e-01   
             
2.580000e+09  8.284307e-01 -3.040083e-01   
             
2.584000e+09  8.260029e-01 -3.177341e-01   
             
2.588000e+09  8.233838e-01 -3.310234e-01   
             
2.592000e+09  8.206224e-01 -3.439250e-01   
             
2.596000e+09  8.177525e-01 -3.564936e-01   
             
2.600000e+09  8.147918e-01 -3.687848e-01   
             
2.604000e+09  8.117429e-01 -3.808511e-01   
             
2.608000e+09  8.085950e-01 -3.927379e-01   
             
2.612000e+09  8.053268e-01 -4.044803e-01   
             
2.616000e+09  8.019102e-01 -4.161010e-01   
             
2.620000e+09  7.983145e-01 -4.276096e-01   
             
2.624000e+09  7.945104e-01 -4.390023e-01   
             
2.628000e+09  7.904734e-01 -4.502641e-01   
             
2.632000e+09  7.861875e-01 -4.613708e-01   
             
2.636000e+09  7.816467e-01 -4.722924e-01   
             
2.640000e+09  7.768566e-01 -4.829965e-01   
             
2.644000e+09  7.718337e-01 -4.934524e-01   
             
2.648000e+09  7.666051e-01 -5.036340e-01   
             
2.652000e+09  7.612053e-01 -5.135233e-01   
             
2.656000e+09  7.556743e-01 -5.231117e-01   
             
2.660000e+09  7.500538e-01 -5.324019e-01   
             
2.664000e+09  7.443839e-01 -5.414074e-01   
             
2.668000e+09  7.386996e-01 -5.501516e-01   
             
2.672000e+09  7.330287e-01 -5.586658e-01   
             
2.676000e+09  7.273889e-01 -5.669869e-01   
             
2.680000e+09  7.217876e-01 -5.751539e-01   
             
2.684000e+09  7.162211e-01 -5.832047e-01   
             
2.688000e+09  7.106758e-01 -5.911733e-01   
             
2.692000e+09  7.051297e-01 -5.990867e-01   
             
2.696000e+09  6.995552e-01 -6.069631e-01   
             
2.700000e+09  6.939217e-01 -6.148108e-01   
             
2.704000e+09  6.881987e-01 -6.226278e-01   
             
2.708000e+09  6.823590e-01 -6.304021e-01   
             
2.712000e+09  6.763816e-01 -6.381142e-01   
             
2.716000e+09  6.702529e-01 -6.457383e-01   
             
2.720000e+09  6.639689e-01 -6.532457e-01   
             
2.724000e+09  6.575352e-01 -6.606074e-01   
             
2.728000e+09  6.509664e-01 -6.677973e-01   
             
2.732000e+09  6.442851e-01 -6.747946e-01   
             
2.736000e+09  6.375194e-01 -6.815860e-01   
             
2.740000e+09  6.307006e-01 -6.881670e-01   
             
2.744000e+09  6.238605e-01 -6.945424e-01   
             
2.748000e+09  6.170282e-01 -7.007260e-01   
             
2.752000e+09  6.102278e-01 -7.067391e-01   
             
2.756000e+09  6.034761e-01 -7.126091e-01   
             
2.760000e+09  5.967816e-01 -7.183667e-01   
             
2.764000e+09  5.901433e-01 -7.240431e-01   
             
2.768000e+09  5.835517e-01 -7.296677e-01   
             
2.772000e+09  5.769892e-01 -7.352649e-01   
             
