#   Hz   S  RI   R   50
! 
1.400000e+09  4.670554e-01  8.533703e-01   
             
1.404000e+09  4.731432e-01  8.503941e-01   
             
1.408000e+09  4.792933e-01  8.472565e-01   
             
1.412000e+09  4.854607e-01  8.439382e-01   
             
1.416000e+09  4.915973e-01  8.404358e-01   
             
1.420000e+09  4.976571e-01  8.367611e-01   
             
1.424000e+09  5.036007e-01  8.329400e-01   
             
1.428000e+09  5.093997e-01  8.290093e-01   
             
1.432000e+09  5.150393e-01  8.250123e-01   
             
1.436000e+09  5.205192e-01  8.209942e-01   
             
1.440000e+09  5.258541e-01  8.169972e-01   
             
1.444000e+09  5.310708e-01  8.130562e-01   
             
1.448000e+09  5.362057e-01  8.091948e-01   
             
1.452000e+09  5.413003e-01  8.054234e-01   
             
1.456000e+09  5.463968e-01  8.017385e-01   
             
1.460000e+09  5.515332e-01  7.981228e-01   
             
1.464000e+09  5.567395e-01  7.945482e-01   
             
1.468000e+09  5.620347e-01  7.909784e-01   
             
1.472000e+09  5.674247e-01  7.873736e-01   
             
1.476000e+09  5.729022e-01  7.836945e-01   
             
1.480000e+09  5.784475e-01  7.799068e-01   
             
1.484000e+09  5.840314e-01  7.759844e-01   
             
1.488000e+09  5.896180e-01  7.719126e-01   
             
1.492000e+09  5.951690e-01  7.676890e-01   
             
1.496000e+09  6.006476e-01  7.633236e-01   
             
1.500000e+09  6.060228e-01  7.588374e-01   
             
1.504000e+09  6.112722e-01  7.542600e-01   
             
1.508000e+09  6.163841e-01  7.496264e-01   
             
1.512000e+09  6.213590e-01  7.449730e-01   
             
1.516000e+09  6.262089e-01  7.403335e-01   
             
1.520000e+09  6.309559e-01  7.357355e-01   
             
1.524000e+09  6.356295e-01  7.311980e-01   
             
1.528000e+09  6.402634e-01  7.267287e-01   
             
1.532000e+09  6.448916e-01  7.223243e-01   
             
1.536000e+09  6.495446e-01  7.179705e-01   
             
1.540000e+09  6.542464e-01  7.136439e-01   
             
1.544000e+09  6.590120e-01  7.093150e-01   
             
1.548000e+09  6.638455e-01  7.049512e-01   
             
1.552000e+09  6.687405e-01  7.005205e-01   
             
1.556000e+09  6.736804e-01  6.959952e-01   
             
1.560000e+09  6.786408e-01  6.913544e-01   
             
1.564000e+09  6.835921e-01  6.865866e-01   
             
1.568000e+09  6.885027e-01  6.816903e-01   
             
1.572000e+09  6.933424e-01  6.766743e-01   
             
1.576000e+09  6.980859e-01  6.715565e-01   
             
1.580000e+09  7.027150e-01  6.663618e-01   
             
1.584000e+09  7.072207e-01  6.611193e-01   
             
1.588000e+09  7.116039e-01  6.558592e-01   
             
1.592000e+09  7.158752e-01  6.506094e-01   
             
1.596000e+09  7.200534e-01  6.453925e-01   
             
1.600000e+09  7.241633e-01  6.402236e-01   
             
1.604000e+09  7.282333e-01  6.351089e-01   
             
1.608000e+09  7.322915e-01  6.300449e-01   
             
1.612000e+09  7.363633e-01  6.250189e-01   
             
1.616000e+09  7.404685e-01  6.200111e-01   
             
1.620000e+09  7.446189e-01  6.149963e-01   
             
1.624000e+09  7.488174e-01  6.099469e-01   
             
1.628000e+09  7.530579e-01  6.048362e-01   
             
1.632000e+09  7.573259e-01  5.996410e-01   
             
1.636000e+09  7.616001e-01  5.943441e-01   
             
1.640000e+09  7.658552e-01  5.889364e-01   
             
1.644000e+09  7.700642e-01  5.834172e-01   
             
1.648000e+09  7.742016e-01  5.777947e-01   
             
1.652000e+09  7.782460e-01  5.720847e-01   
             
1.656000e+09  7.821825e-01  5.663090e-01   
             
1.660000e+09  7.860039e-01  5.604926e-01   
             
1.664000e+09  7.897117e-01  5.546615e-01   
             
1.668000e+09  7.933154e-01  5.488393e-01   
             
1.672000e+09  7.968318e-01  5.430452e-01   
             
1.676000e+09  8.002827e-01  5.372916e-01   
             
1.680000e+09  8.036924e-01  5.315832e-01   
             
1.684000e+09  8.070855e-01  5.259161e-01   
             
1.688000e+09  8.104835e-01  5.202791e-01   
             
1.692000e+09  8.139029e-01  5.146542e-01   
             
1.696000e+09  8.173536e-01  5.090193e-01   
             
1.700000e+09  8.208372e-01  5.033502e-01   
             
1.704000e+09  8.243478e-01  4.976238e-01   
             
1.708000e+09  8.278719e-01  4.918200e-01   
             
1.712000e+09  8.313905e-01  4.859245e-01   
             
1.716000e+09  8.348809e-01  4.799298e-01   
             
1.720000e+09  8.383194e-01  4.738360e-01   
             
1.724000e+09  8.416836e-01  4.676510e-01   
             
1.728000e+09  8.449549e-01  4.613894e-01   
             
1.732000e+09  8.481208e-01  4.550707e-01   
             
1.736000e+09  8.511754e-01  4.487176e-01   
             
1.740000e+09  8.541207e-01  4.423530e-01   
             
1.744000e+09  8.569659e-01  4.359976e-01   
             
1.748000e+09  8.597263e-01  4.296681e-01   
             
1.752000e+09  8.624219e-01  4.233749e-01   
             
1.756000e+09  8.650744e-01  4.171215e-01   
             
1.760000e+09  8.677056e-01  4.109038e-01   
             
1.764000e+09  8.703346e-01  4.047109e-01   
             
1.768000e+09  8.729756e-01  3.985260e-01   
             
1.772000e+09  8.756368e-01  3.923290e-01   
             
1.776000e+09  8.783189e-01  3.860980e-01   
             
1.780000e+09  8.810155e-01  3.798121e-01   
             
1.784000e+09  8.837140e-01  3.734535e-01   
             
1.788000e+09  8.863964e-01  3.670097e-01   
             
1.792000e+09  8.890417e-01  3.604745e-01   
             
1.796000e+09  8.916280e-01  3.538489e-01   
             
1.800000e+09  8.941352e-01  3.471408e-01   
             
1.804000e+09  8.965467e-01  3.403641e-01   
             
1.808000e+09  8.988512e-01  3.335373e-01   
             
1.812000e+09  9.010442e-01  3.266812e-01   
             
1.816000e+09  9.031281e-01  3.198169e-01   
             
1.820000e+09  9.051122e-01  3.129634e-01   
             
1.824000e+09  9.070110e-01  3.061355e-01   
             
1.828000e+09  9.088433e-01  2.993422e-01   
             
1.832000e+09  9.106295e-01  2.925858e-01   
             
1.836000e+09  9.123896e-01  2.858618e-01   
             
1.840000e+09  9.141409e-01  2.791591e-01   
             
1.844000e+09  9.158960e-01  2.724618e-01   
             
1.848000e+09  9.176617e-01  2.657503e-01   
             
1.852000e+09  9.194378e-01  2.590041e-01   
             
1.856000e+09  9.212175e-01  2.522036e-01   
             
1.860000e+09  9.229878e-01  2.453325e-01   
             
1.864000e+09  9.247312e-01  2.383796e-01   
             
1.868000e+09  9.264275e-01  2.313396e-01   
             
1.872000e+09  9.280556e-01  2.242145e-01   
             
1.876000e+09  9.295966e-01  2.170123e-01   
             
1.880000e+09  9.310348e-01  2.097470e-01   
             
1.884000e+09  9.323603e-01  2.024366e-01   
             
1.888000e+09  9.335692e-01  1.951014e-01   
             
1.892000e+09  9.346647e-01  1.877614e-01   
             
1.896000e+09  9.356560e-01  1.804345e-01   
             
1.900000e+09  9.365580e-01  1.731343e-01   
             
1.904000e+09  9.373887e-01  1.658687e-01   
             
1.908000e+09  9.381681e-01  1.586390e-01   
             
1.912000e+09  9.389150e-01  1.514398e-01   
             
1.916000e+09  9.396458e-01  1.442597e-01   
             
1.920000e+09  9.403719e-01  1.370822e-01   
             
1.924000e+09  9.410988e-01  1.298881e-01   
             
1.928000e+09  9.418251e-01  1.226569e-01   
             
1.932000e+09  9.425432e-01  1.153696e-01   
             
1.936000e+09  9.432391e-01  1.080106e-01   
             
1.940000e+09  9.438948e-01  1.005695e-01   
             
1.944000e+09  9.444897e-01  9.304194e-02   
             
1.948000e+09  9.450027e-01  8.543059e-02   
             
1.952000e+09  9.454148e-01  7.774445e-02   
             
1.956000e+09  9.457109e-01  6.999806e-02   
             
1.960000e+09  9.458814e-01  6.220989e-02   
             
1.964000e+09  9.459232e-01  5.440028e-02   
             
1.968000e+09  9.458400e-01  4.658927e-02   
             
1.972000e+09  9.456418e-01  3.879431e-02   
             
1.976000e+09  9.453437e-01  3.102836e-02   
             
1.980000e+09  9.449642e-01  2.329844e-02   
             
1.984000e+09  9.445232e-01  1.560480e-02   
             
1.988000e+09  9.440393e-01  7.940846e-03   
             
1.992000e+09  9.435282e-01  2.938575e-04   
             
1.996000e+09  9.430003e-01 -7.353681e-03   
             
2.000000e+09  9.424597e-01 -1.502217e-02   
             
2.004000e+09  9.419035e-01 -2.273265e-02   
             
2.008000e+09  9.413220e-01 -3.050452e-02   
             
2.012000e+09  9.406996e-01 -3.835337e-02   
             
2.016000e+09  9.400161e-01 -4.628924e-02   
             
2.020000e+09  9.392492e-01 -5.431552e-02   
             
2.024000e+09  9.383763e-01 -6.242845e-02   
             
2.028000e+09  9.373774e-01 -7.061759e-02   
             
2.032000e+09  9.362365e-01 -7.886684e-02   
             
2.036000e+09  9.349439e-01 -8.715623e-02   
             
2.040000e+09  9.334966e-01 -9.546409e-02   
             
2.044000e+09  9.318991e-01 -1.037694e-01   
             
2.048000e+09  9.301621e-01 -1.120544e-01   
             
2.052000e+09  9.283019e-01 -1.203060e-01   
             
2.056000e+09  9.263377e-01 -1.285181e-01   
             
2.060000e+09  9.242899e-01 -1.366916e-01   
             
2.064000e+09  9.221775e-01 -1.448351e-01   
             
2.068000e+09  9.200153e-01 -1.529634e-01   
             
2.072000e+09  9.178124e-01 -1.610963e-01   
             
2.076000e+09  9.155708e-01 -1.692565e-01   
             
2.080000e+09  9.132846e-01 -1.774669e-01   
             
2.084000e+09  9.109404e-01 -1.857482e-01   
             
2.088000e+09  9.085184e-01 -1.941166e-01   
             
2.092000e+09  9.059942e-01 -2.025818e-01   
             
2.096000e+09  9.033410e-01 -2.111460e-01   
             
2.100000e+09  9.005322e-01 -2.198032e-01   
             
2.104000e+09  8.975442e-01 -2.285403e-01   
             
2.108000e+09  8.943586e-01 -2.373377e-01   
             
2.112000e+09  8.909637e-01 -2.461721e-01   
             
2.116000e+09  8.873559e-01 -2.550183e-01   
             
2.120000e+09  8.835396e-01 -2.638526e-01   
             
2.124000e+09  8.795263e-01 -2.726551e-01   
             
2.128000e+09  8.753331e-01 -2.814119e-01   
             
2.132000e+09  8.709803e-01 -2.901169e-01   
             
2.136000e+09  8.664886e-01 -2.987726e-01   
             
2.140000e+09  8.618763e-01 -3.073899e-01   
             
2.144000e+09  8.571564e-01 -3.159868e-01   
             
2.148000e+09  8.523347e-01 -3.245866e-01   
             
2.152000e+09  8.474077e-01 -3.332154e-01   
             
2.156000e+09  8.423627e-01 -3.418987e-01   
             
2.160000e+09  8.371779e-01 -3.506590e-01   
             
2.164000e+09  8.318236e-01 -3.595121e-01   
             
2.168000e+09  8.262649e-01 -3.684659e-01   
             
2.172000e+09  8.204645e-01 -3.775184e-01   
             
2.176000e+09  8.143857e-01 -3.866578e-01   
             
2.180000e+09  8.079955e-01 -3.958629e-01   
             
2.184000e+09  8.012676e-01 -4.051053e-01   
             
2.188000e+09  7.941843e-01 -4.143516e-01   
             
2.192000e+09  7.867373e-01 -4.235669e-01   
             
2.196000e+09  7.789281e-01 -4.327180e-01   
             
2.200000e+09  7.707664e-01 -4.417768e-01   
             
2.204000e+09  7.622679e-01 -4.507231e-01   
             
2.208000e+09  7.534510e-01 -4.595461e-01   
             
2.212000e+09  7.443334e-01 -4.682454e-01   
             
2.216000e+09  7.349280e-01 -4.768305e-01   
             
2.220000e+09  7.252397e-01 -4.853184e-01   
             
2.224000e+09  7.152622e-01 -4.937317e-01   
             
2.228000e+09  7.049765e-01 -5.020938e-01   
             
2.232000e+09  6.943504e-01 -5.104251e-01   
             
2.236000e+09  6.833389e-01 -5.187389e-01   
             
2.240000e+09  6.718873e-01 -5.270370e-01   
             
2.244000e+09  6.599337e-01 -5.353073e-01   
             
2.248000e+09  6.474138e-01 -5.435212e-01   
             
2.252000e+09  6.342653e-01 -5.516340e-01   
             
2.256000e+09  6.204325e-01 -5.595856e-01   
             
2.260000e+09  6.058698e-01 -5.673030e-01   
             
2.264000e+09  5.905451e-01 -5.747040e-01   
             
2.268000e+09  5.744409e-01 -5.817016e-01   
             
2.272000e+09  5.575537e-01 -5.882087e-01   
             
2.276000e+09  5.398929e-01 -5.941420e-01   
             
2.280000e+09  5.214764e-01 -5.994256e-01   
             
2.284000e+09  5.023268e-01 -6.039923e-01   
             
2.288000e+09  4.824660e-01 -6.077834e-01   
             
2.292000e+09  4.619104e-01 -6.107469e-01   
             
2.296000e+09  4.406666e-01 -6.128324e-01   
             
2.300000e+09  4.187292e-01 -6.139856e-01   
             
2.304000e+09  3.960804e-01 -6.141406e-01   
             
2.308000e+09  3.726929e-01 -6.132119e-01   
             
2.312000e+09  3.485347e-01 -6.110875e-01   
             
2.316000e+09  3.235786e-01 -6.076222e-01   
             
2.320000e+09  2.978119e-01 -6.026343e-01   
             
2.324000e+09  2.712505e-01 -5.959052e-01   
             
2.328000e+09  2.439516e-01 -5.871824e-01   
             
2.332000e+09  2.160279e-01 -5.761881e-01   
             
2.336000e+09  1.876590e-01 -5.626305e-01   
             
2.340000e+09  1.591009e-01 -5.462208e-01   
             
2.344000e+09  1.306903e-01 -5.266919e-01   
             
2.348000e+09  1.028446e-01 -5.038201e-01   
             
2.352000e+09  7.605544e-02 -4.774472e-01   
             
2.356000e+09  5.087636e-02 -4.475011e-01   
             
2.360000e+09  2.790486e-02 -4.140139e-01   
             
2.364000e+09  7.759214e-03 -3.771352e-01   
             
2.368000e+09 -8.948263e-03 -3.371399e-01   
             
2.372000e+09 -2.163987e-02 -2.944286e-01   
             
2.376000e+09 -2.980127e-02 -2.495216e-01   
             
2.380000e+09 -3.300837e-02 -2.030445e-01   
             
2.384000e+09 -3.095037e-02 -1.557092e-01   
             
2.388000e+09 -2.344765e-02 -1.082878e-01   
             
2.392000e+09 -1.046317e-02 -6.158450e-02   
             
2.396000e+09  7.893075e-03 -1.640492e-02   
             
2.400000e+09  3.136682e-02  2.647482e-02   
             
2.404000e+09  5.956904e-02  6.633683e-02   
             
2.408000e+09  9.199157e-02  1.025473e-01   
             
2.412000e+09  1.280277e-01  1.345778e-01   
             
2.416000e+09  1.669966e-01  1.620212e-01   
             
2.420000e+09  2.081701e-01  1.846022e-01   
             
2.424000e+09  2.508004e-01  2.021808e-01   
             
2.428000e+09  2.941476e-01  2.147504e-01   
             
2.432000e+09  3.375053e-01  2.224305e-01   
             
2.436000e+09  3.802233e-01  2.254532e-01   
             
2.440000e+09  4.217271e-01  2.241467e-01   
             
2.444000e+09  4.615317e-01  2.189149e-01   
             
2.448000e+09  4.992515e-01  2.102149e-01   
             
2.452000e+09  5.346039e-01  1.985344e-01   
             
2.456000e+09  5.674079e-01  1.843690e-01   
             
2.460000e+09  5.975780e-01  1.682013e-01   
             
2.464000e+09  6.251137e-01  1.504832e-01   
             
2.468000e+09  6.500858e-01  1.316214e-01   
             
2.472000e+09  6.726203e-01  1.119676e-01   
             
2.476000e+09  6.928815e-01  9.181328e-02   
             
2.480000e+09  7.110554e-01  7.138837e-02   
             
2.484000e+09  7.273346e-01  5.086454e-02   
             
2.488000e+09  7.419053e-01  3.036159e-02   
             
2.492000e+09  7.549371e-01  9.956304e-03   
             
2.496000e+09  7.665771e-01 -1.030726e-02   
             
2.500000e+09  7.769461e-01 -3.040708e-02   
             
2.504000e+09  7.861390e-01 -5.033312e-02   
             
2.508000e+09  7.942275e-01 -7.007859e-02   
             
2.512000e+09  8.012645e-01 -8.963328e-02   
             
2.516000e+09  8.072907e-01 -1.089792e-01   
             
2.520000e+09  8.123405e-01 -1.280886e-01   
             
2.524000e+09  8.164481e-01 -1.469247e-01   
             
2.528000e+09  8.196523e-01 -1.654432e-01   
             
2.532000e+09  8.220005e-01 -1.835970e-01   
             
2.536000e+09  8.235499e-01 -2.013397e-01   
             
2.540000e+09  8.243677e-01 -2.186309e-01   
             
2.544000e+09  8.245293e-01 -2.354398e-01   
             
2.548000e+09  8.241151e-01 -2.517485e-01   
             
2.552000e+09  8.232067e-01 -2.675539e-01   
             
2.556000e+09  8.218822e-01 -2.828679e-01   
             
2.560000e+09  8.202121e-01 -2.977159e-01   
             
2.564000e+09  8.182560e-01 -3.121346e-01   
             
2.568000e+09  8.160595e-01 -3.261681e-01   
             
2.572000e+09  8.136535e-01 -3.398639e-01   
             
2.576000e+09  8.110539e-01 -3.532683e-01   
             
2.580000e+09  8.082636e-01 -3.664223e-01   
             
2.584000e+09  8.052747e-01 -3.793586e-01   
             
2.588000e+09  8.020724e-01 -3.920993e-01   
             
2.592000e+09  7.986386e-01 -4.046546e-01   
             
2.596000e+09  7.949562e-01 -4.170232e-01   
             
2.600000e+09  7.910127e-01 -4.291941e-01   
             
2.604000e+09  7.868027e-01 -4.411488e-01   
             
2.608000e+09  7.823299e-01 -4.528648e-01   
             
2.612000e+09  7.776076e-01 -4.643188e-01   
             
2.616000e+09  7.726585e-01 -4.754907e-01   
             
2.620000e+09  7.675125e-01 -4.863661e-01   
             
2.624000e+09  7.622044e-01 -4.969386e-01   
             
2.628000e+09  7.567711e-01 -5.072115e-01   
             
2.632000e+09  7.512479e-01 -5.171974e-01   
             
2.636000e+09  7.456656e-01 -5.269178e-01   
             
2.640000e+09  7.400480e-01 -5.364006e-01   
             
2.644000e+09  7.344101e-01 -5.456780e-01   
             
2.648000e+09  7.287572e-01 -5.547835e-01   
             
2.652000e+09  7.230849e-01 -5.637483e-01   
             
2.656000e+09  7.173808e-01 -5.725990e-01   
             
2.660000e+09  7.116261e-01 -5.813551e-01   
             
2.664000e+09  7.057985e-01 -5.900277e-01   
             
2.668000e+09  6.998747e-01 -5.986184e-01   
             
2.672000e+09  6.938340e-01 -6.071208e-01   
             
2.676000e+09  6.876604e-01 -6.155207e-01   
             
2.680000e+09  6.813448e-01 -6.237991e-01   
             
2.684000e+09  6.748859e-01 -6.319343e-01   
             
2.688000e+09  6.682907e-01 -6.399051e-01   
             
2.692000e+09  6.615740e-01 -6.476930e-01   
             
2.696000e+09  6.547562e-01 -6.552850e-01   
             
2.700000e+09  6.478621e-01 -6.626751e-01   
             
2.704000e+09  6.409175e-01 -6.698650e-01   
             
2.708000e+09  6.339471e-01 -6.768644e-01   
             
2.712000e+09  6.269714e-01 -6.836898e-01   
             
2.716000e+09  6.200053e-01 -6.903630e-01   
             
2.720000e+09  6.130563e-01 -6.969091e-01   
             
2.724000e+09  6.061240e-01 -7.033534e-01   
             
2.728000e+09  5.992006e-01 -7.097193e-01   
             
2.732000e+09  5.922714e-01 -7.160258e-01   
             
2.736000e+09  5.853174e-01 -7.222857e-01   
             
2.740000e+09  5.783169e-01 -7.285046e-01   
             
2.744000e+09  5.712484e-01 -7.346803e-01   
             
2.748000e+09  5.640930e-01 -7.408035e-01   
             
2.752000e+09  5.568362e-01 -7.468589e-01   
             
2.756000e+09  5.494700e-01 -7.528275e-01   
             
2.760000e+09  5.419935e-01 -7.586884e-01   
             
2.764000e+09  5.344132e-01 -7.644213e-01   
             
2.768000e+09  5.267421e-01 -7.700095e-01   
             
2.772000e+09  5.189981e-01 -7.754408e-01   
             
