#   Hz   S  RI   R   50
! 
1.400000e+09  4.709121e-01  8.493763e-01   
             
1.404000e+09  4.760624e-01  8.459137e-01   
             
1.408000e+09  4.811982e-01  8.426367e-01   
             
1.412000e+09  4.863920e-01  8.395262e-01   
             
1.416000e+09  4.917048e-01  8.365411e-01   
             
1.420000e+09  4.971798e-01  8.336235e-01   
             
1.424000e+09  5.028385e-01  8.307051e-01   
             
1.428000e+09  5.086788e-01  8.277157e-01   
             
1.432000e+09  5.146758e-01  8.245905e-01   
             
1.436000e+09  5.207851e-01  8.212772e-01   
             
1.440000e+09  5.269487e-01  8.177414e-01   
             
1.444000e+09  5.331011e-01  8.139701e-01   
             
1.448000e+09  5.391772e-01  8.099723e-01   
             
1.452000e+09  5.451194e-01  8.057775e-01   
             
1.456000e+09  5.508836e-01  8.014316e-01   
             
1.460000e+09  5.564435e-01  7.969917e-01   
             
1.464000e+09  5.617933e-01  7.925195e-01   
             
1.468000e+09  5.669473e-01  7.880738e-01   
             
1.472000e+09  5.719382e-01  7.837049e-01   
             
1.476000e+09  5.768124e-01  7.794489e-01   
             
1.480000e+09  5.816246e-01  7.753242e-01   
             
1.484000e+09  5.864318e-01  7.713302e-01   
             
1.488000e+09  5.912867e-01  7.674478e-01   
             
1.492000e+09  5.962323e-01  7.636420e-01   
             
1.496000e+09  6.012969e-01  7.598662e-01   
             
1.500000e+09  6.064921e-01  7.560679e-01   
             
1.504000e+09  6.118112e-01  7.521943e-01   
             
1.508000e+09  6.172310e-01  7.481981e-01   
             
1.512000e+09  6.227143e-01  7.440429e-01   
             
1.516000e+09  6.282147e-01  7.397069e-01   
             
1.520000e+09  6.336817e-01  7.351846e-01   
             
1.524000e+09  6.390664e-01  7.304874e-01   
             
1.528000e+09  6.443268e-01  7.256416e-01   
             
1.532000e+09  6.494325e-01  7.206854e-01   
             
1.536000e+09  6.543672e-01  7.156642e-01   
             
1.540000e+09  6.591307e-01  7.106255e-01   
             
1.544000e+09  6.637380e-01  7.056136e-01   
             
1.548000e+09  6.682174e-01  7.006649e-01   
             
1.552000e+09  6.726070e-01  6.958040e-01   
             
1.556000e+09  6.769505e-01  6.910414e-01   
             
1.560000e+09  6.812916e-01  6.863728e-01   
             
1.564000e+09  6.856699e-01  6.817797e-01   
             
1.568000e+09  6.901162e-01  6.772322e-01   
             
1.572000e+09  6.946494e-01  6.726920e-01   
             
1.576000e+09  6.992746e-01  6.681175e-01   
             
1.580000e+09  7.039830e-01  6.634679e-01   
             
1.584000e+09  7.087532e-01  6.587081e-01   
             
1.588000e+09  7.135535e-01  6.538120e-01   
             
1.592000e+09  7.183459e-01  6.487657e-01   
             
1.596000e+09  7.230902e-01  6.435686e-01   
             
1.600000e+09  7.277489e-01  6.382328e-01   
             
1.604000e+09  7.322905e-01  6.327822e-01   
             
1.608000e+09  7.366936e-01  6.272490e-01   
             
1.612000e+09  7.409484e-01  6.216702e-01   
             
1.616000e+09  7.450578e-01  6.160836e-01   
             
1.620000e+09  7.490368e-01  6.105234e-01   
             
1.624000e+09  7.529105e-01  6.050166e-01   
             
1.628000e+09  7.567110e-01  5.995803e-01   
             
1.632000e+09  7.604736e-01  5.942198e-01   
             
1.636000e+09  7.642332e-01  5.889286e-01   
             
1.640000e+09  7.680203e-01  5.836893e-01   
             
1.644000e+09  7.718573e-01  5.784754e-01   
             
1.648000e+09  7.757569e-01  5.732551e-01   
             
1.652000e+09  7.797202e-01  5.679943e-01   
             
1.656000e+09  7.837372e-01  5.626607e-01   
             
1.660000e+09  7.877880e-01  5.572272e-01   
             
1.664000e+09  7.918450e-01  5.516750e-01   
             
1.668000e+09  7.958763e-01  5.459954e-01   
             
1.672000e+09  7.998491e-01  5.401907e-01   
             
1.676000e+09  8.037334e-01  5.342735e-01   
             
1.680000e+09  8.075051e-01  5.282654e-01   
             
1.684000e+09  8.111488e-01  5.221945e-01   
             
1.688000e+09  8.146591e-01  5.160919e-01   
             
1.692000e+09  8.180409e-01  5.099884e-01   
             
1.696000e+09  8.213090e-01  5.039112e-01   
             
1.700000e+09  8.244859e-01  4.978808e-01   
             
1.704000e+09  8.275992e-01  4.919093e-01   
             
1.708000e+09  8.306788e-01  4.859985e-01   
             
1.712000e+09  8.337530e-01  4.801405e-01   
             
1.716000e+09  8.368460e-01  4.743187e-01   
             
1.720000e+09  8.399747e-01  4.685095e-01   
             
1.724000e+09  8.431472e-01  4.626852e-01   
             
1.728000e+09  8.463620e-01  4.568171e-01   
             
1.732000e+09  8.496085e-01  4.508789e-01   
             
1.736000e+09  8.528677e-01  4.448491e-01   
             
1.740000e+09  8.561151e-01  4.387139e-01   
             
1.744000e+09  8.593229e-01  4.324682e-01   
             
1.748000e+09  8.624634e-01  4.261162e-01   
             
1.752000e+09  8.655120e-01  4.196708e-01   
             
1.756000e+09  8.684498e-01  4.131521e-01   
             
1.760000e+09  8.712654e-01  4.065850e-01   
             
1.764000e+09  8.739565e-01  3.999967e-01   
             
1.768000e+09  8.765293e-01  3.934130e-01   
             
1.772000e+09  8.789984e-01  3.868563e-01   
             
1.776000e+09  8.813846e-01  3.803427e-01   
             
1.780000e+09  8.837126e-01  3.738804e-01   
             
1.784000e+09  8.860080e-01  3.674688e-01   
             
1.788000e+09  8.882949e-01  3.610992e-01   
             
1.792000e+09  8.905929e-01  3.547553e-01   
             
1.796000e+09  8.929149e-01  3.484152e-01   
             
1.800000e+09  8.952658e-01  3.420544e-01   
             
1.804000e+09  8.976422e-01  3.356478e-01   
             
1.808000e+09  9.000327e-01  3.291730e-01   
             
1.812000e+09  9.024191e-01  3.226128e-01   
             
1.816000e+09  9.047786e-01  3.159567e-01   
             
1.820000e+09  9.070863e-01  3.092021e-01   
             
1.824000e+09  9.093180e-01  3.023549e-01   
             
1.828000e+09  9.114528e-01  2.954283e-01   
             
1.832000e+09  9.134751e-01  2.884415e-01   
             
1.836000e+09  9.153768e-01  2.814175e-01   
             
1.840000e+09  9.171575e-01  2.743804e-01   
             
1.844000e+09  9.188248e-01  2.673531e-01   
             
1.848000e+09  9.203932e-01  2.603544e-01   
             
1.852000e+09  9.218825e-01  2.533970e-01   
             
1.856000e+09  9.233152e-01  2.464865e-01   
             
1.860000e+09  9.247146e-01  2.396206e-01   
             
1.864000e+09  9.261014e-01  2.327892e-01   
             
1.868000e+09  9.274920e-01  2.259762e-01   
             
1.872000e+09  9.288964e-01  2.191608e-01   
             
1.876000e+09  9.303171e-01  2.123200e-01   
             
1.880000e+09  9.317489e-01  2.054313e-01   
             
1.884000e+09  9.331794e-01  1.984751e-01   
             
1.888000e+09  9.345905e-01  1.914368e-01   
             
1.892000e+09  9.359604e-01  1.843085e-01   
             
1.896000e+09  9.372657e-01  1.770899e-01   
             
1.900000e+09  9.384844e-01  1.697879e-01   
             
1.904000e+09  9.395978e-01  1.624165e-01   
             
1.908000e+09  9.405931e-01  1.549946e-01   
             
1.912000e+09  9.414640e-01  1.475443e-01   
             
1.916000e+09  9.422121e-01  1.400879e-01   
             
1.920000e+09  9.428459e-01  1.326463e-01   
             
1.924000e+09  9.433805e-01  1.252357e-01   
             
1.928000e+09  9.438351e-01  1.178666e-01   
             
1.932000e+09  9.442314e-01  1.105424e-01   
             
1.936000e+09  9.445907e-01  1.032588e-01   
             
1.940000e+09  9.449319e-01  9.600468e-02   
             
1.944000e+09  9.452688e-01  8.876328e-02   
             
1.948000e+09  9.456090e-01  8.151388e-02   
             
1.952000e+09  9.459529e-01  7.423430e-02   
             
1.956000e+09  9.462933e-01  6.690329e-02   
             
1.960000e+09  9.466165e-01  5.950294e-02   
             
1.964000e+09  9.469035e-01  5.202062e-02   
             
1.968000e+09  9.471323e-01  4.445043e-02   
             
1.972000e+09  9.472801e-01  3.679383e-02   
             
1.976000e+09  9.473255e-01  2.905948e-02   
             
1.980000e+09  9.472515e-01  2.126230e-02   
             
1.984000e+09  9.470465e-01  1.342178e-02   
             
1.988000e+09  9.467061e-01  5.559857e-03   
             
1.992000e+09  9.462332e-01 -2.301570e-03   
             
1.996000e+09  9.456379e-01 -1.014304e-02   
             
2.000000e+09  9.449357e-01 -1.794973e-02   
             
2.004000e+09  9.441463e-01 -2.571308e-02   
             
2.008000e+09  9.432910e-01 -3.343182e-02   
             
2.012000e+09  9.423904e-01 -4.111205e-02   
             
2.016000e+09  9.414617e-01 -4.876668e-02   
             
2.020000e+09  9.405169e-01 -5.641393e-02   
             
2.024000e+09  9.395612e-01 -6.407537e-02   
             
2.028000e+09  9.385926e-01 -7.177354e-02   
             
2.032000e+09  9.376012e-01 -7.952939e-02   
             
2.036000e+09  9.365709e-01 -8.735999e-02   
             
2.040000e+09  9.354808e-01 -9.527657e-02   
             
2.044000e+09  9.343070e-01 -1.032833e-01   
             
2.048000e+09  9.330256e-01 -1.113766e-01   
             
2.052000e+09  9.316149e-01 -1.195457e-01   
             
2.056000e+09  9.300577e-01 -1.277739e-01   
             
2.060000e+09  9.283434e-01 -1.360399e-01   
             
2.064000e+09  9.264686e-01 -1.443207e-01   
             
2.068000e+09  9.244376e-01 -1.525938e-01   
             
2.072000e+09  9.222617e-01 -1.608399e-01   
             
2.076000e+09  9.199580e-01 -1.690452e-01   
             
2.080000e+09  9.175469e-01 -1.772026e-01   
             
2.084000e+09  9.150500e-01 -1.853130e-01   
             
2.088000e+09  9.124875e-01 -1.933850e-01   
             
2.092000e+09  9.098753e-01 -2.014341e-01   
             
2.096000e+09  9.072231e-01 -2.094811e-01   
             
2.100000e+09  9.045331e-01 -2.175497e-01   
             
2.104000e+09  9.017993e-01 -2.256639e-01   
             
2.108000e+09  8.990076e-01 -2.338454e-01   
             
2.112000e+09  8.961372e-01 -2.421109e-01   
             
2.116000e+09  8.931625e-01 -2.504705e-01   
             
2.120000e+09  8.900555e-01 -2.589261e-01   
             
2.124000e+09  8.867884e-01 -2.674711e-01   
             
2.128000e+09  8.833369e-01 -2.760911e-01   
             
2.132000e+09  8.796818e-01 -2.847656e-01   
             
2.136000e+09  8.758115e-01 -2.934695e-01   
             
2.140000e+09  8.717229e-01 -3.021766e-01   
             
2.144000e+09  8.674210e-01 -3.108619e-01   
             
2.148000e+09  8.629184e-01 -3.195046e-01   
             
2.152000e+09  8.582335e-01 -3.280907e-01   
             
2.156000e+09  8.533877e-01 -3.366142e-01   
             
2.160000e+09  8.484028e-01 -3.450781e-01   
             
2.164000e+09  8.432976e-01 -3.534942e-01   
             
2.168000e+09  8.380853e-01 -3.618814e-01   
             
2.172000e+09  8.327713e-01 -3.702644e-01   
             
2.176000e+09  8.273515e-01 -3.786698e-01   
             
2.180000e+09  8.218117e-01 -3.871239e-01   
             
2.184000e+09  8.161287e-01 -3.956491e-01   
             
2.188000e+09  8.102711e-01 -4.042608e-01   
             
2.192000e+09  8.042027e-01 -4.129656e-01   
             
2.196000e+09  7.978848e-01 -4.217601e-01   
             
2.200000e+09  7.912800e-01 -4.306303e-01   
             
2.204000e+09  7.843553e-01 -4.395527e-01   
             
2.208000e+09  7.770848e-01 -4.484967e-01   
             
2.212000e+09  7.694520e-01 -4.574268e-01   
             
2.216000e+09  7.614502e-01 -4.663066e-01   
             
2.220000e+09  7.530829e-01 -4.751019e-01   
             
2.224000e+09  7.443617e-01 -4.837842e-01   
             
2.228000e+09  7.353040e-01 -4.923337e-01   
             
2.232000e+09  7.259297e-01 -5.007405e-01   
             
2.236000e+09  7.162571e-01 -5.090055e-01   
             
2.240000e+09  7.062990e-01 -5.171394e-01   
             
2.244000e+09  6.960593e-01 -5.251607e-01   
             
2.248000e+09  6.855300e-01 -5.330923e-01   
             
2.252000e+09  6.746900e-01 -5.409577e-01   
             
2.256000e+09  6.635041e-01 -5.487762e-01   
             
2.260000e+09  6.519251e-01 -5.565589e-01   
             
2.264000e+09  6.398959e-01 -5.643042e-01   
             
2.268000e+09  6.273531e-01 -5.719956e-01   
             
2.272000e+09  6.142321e-01 -5.795996e-01   
             
2.276000e+09  6.004713e-01 -5.870659e-01   
             
2.280000e+09  5.860171e-01 -5.943287e-01   
             
2.284000e+09  5.708276e-01 -6.013099e-01   
             
2.288000e+09  5.548751e-01 -6.079230e-01   
             
2.292000e+09  5.381475e-01 -6.140776e-01   
             
2.296000e+09  5.206471e-01 -6.196844e-01   
             
2.300000e+09  5.023887e-01 -6.246593e-01   
             
2.304000e+09  4.833953e-01 -6.289264e-01   
             
2.308000e+09  4.636936e-01 -6.324190e-01   
             
2.312000e+09  4.433084e-01 -6.350793e-01   
             
2.316000e+09  4.222577e-01 -6.368553e-01   
             
2.320000e+09  4.005493e-01 -6.376957e-01   
             
2.324000e+09  3.781781e-01 -6.375435e-01   
             
2.328000e+09  3.551272e-01 -6.363279e-01   
             
2.332000e+09  3.313714e-01 -6.339563e-01   
             
2.336000e+09  3.068832e-01 -6.303072e-01   
             
2.340000e+09  2.816428e-01 -6.252245e-01   
             
2.344000e+09  2.556500e-01 -6.185147e-01   
             
2.348000e+09  2.289373e-01 -6.099477e-01   
             
2.352000e+09  2.015847e-01 -5.992617e-01   
             
2.356000e+09  1.737327e-01 -5.861731e-01   
             
2.360000e+09  1.455937e-01 -5.703901e-01   
             
2.364000e+09  1.174598e-01 -5.516309e-01   
             
2.368000e+09  8.970609e-02 -5.296442e-01   
             
2.372000e+09  6.278790e-02 -5.042320e-01   
             
2.376000e+09  3.723211e-02 -4.752717e-01   
             
2.380000e+09  1.362212e-02 -4.427368e-01   
             
2.384000e+09 -7.422945e-03 -4.067138e-01   
             
2.388000e+09 -2.527369e-02 -3.674139e-01   
             
2.392000e+09 -3.931917e-02 -3.251784e-01   
             
2.396000e+09 -4.899694e-02 -2.804761e-01   
             
2.400000e+09 -5.382236e-02 -2.338938e-01   
             
2.404000e+09 -5.341525e-02 -1.861193e-01   
             
2.408000e+09 -4.752192e-02 -1.379180e-01   
             
2.412000e+09 -3.603111e-02 -9.010492e-02   
             
2.416000e+09 -1.898287e-02 -4.351351e-02   
             
2.420000e+09  3.430135e-03  1.036974e-03   
             
2.424000e+09  3.086886e-02  4.277297e-02   
             
2.428000e+09  6.286107e-02  8.099580e-02   
             
2.432000e+09  9.882054e-02  1.151067e-01   
             
2.436000e+09  1.380710e-01  1.446267e-01   
             
2.440000e+09  1.798735e-01  1.692104e-01   
             
2.444000e+09  2.234552e-01  1.886530e-01   
             
2.448000e+09  2.680389e-01  2.028913e-01   
             
2.452000e+09  3.128709e-01  2.119983e-01   
             
2.456000e+09  3.572469e-01  2.161715e-01   
             
2.460000e+09  4.005333e-01  2.157172e-01   
             
2.464000e+09  4.421854e-01  2.110304e-01   
             
2.468000e+09  4.817586e-01  2.025720e-01   
             
2.472000e+09  5.189159e-01  1.908452e-01   
             
2.476000e+09  5.534283e-01  1.763709e-01   
             
2.480000e+09  5.851706e-01  1.596655e-01   
             
2.484000e+09  6.141124e-01  1.412200e-01   
             
2.488000e+09  6.403045e-01  1.214836e-01   
             
2.492000e+09  6.638634e-01  1.008511e-01   
             
2.496000e+09  6.849535e-01  7.965476e-02   
             
2.500000e+09  7.037692e-01  5.816183e-02   
             
2.504000e+09  7.205180e-01  3.657550e-02   
             
2.508000e+09  7.354060e-01  1.504055e-02   
             
2.512000e+09  7.486251e-01 -6.348278e-03   
             
2.516000e+09  7.603453e-01 -2.753582e-02   
             
2.520000e+09  7.707093e-01 -4.849518e-02   
             
2.524000e+09  7.798315e-01 -6.921657e-02   
             
2.528000e+09  7.877994e-01 -8.969730e-02   
             
2.532000e+09  7.946782e-01 -1.099337e-01   
             
2.536000e+09  8.005164e-01 -1.299152e-01   
             
2.540000e+09  8.053529e-01 -1.496215e-01   
             
2.544000e+09  8.092233e-01 -1.690216e-01   
             
2.548000e+09  8.121660e-01 -1.880757e-01   
             
2.552000e+09  8.142264e-01 -2.067385e-01   
             
2.556000e+09  8.154601e-01 -2.249635e-01   
             
2.560000e+09  8.159328e-01 -2.427080e-01   
             
2.564000e+09  8.157202e-01 -2.599378e-01   
             
2.568000e+09  8.149043e-01 -2.766310e-01   
             
2.572000e+09  8.135699e-01 -2.927803e-01   
             
2.576000e+09  8.118002e-01 -3.083940e-01   
             
2.580000e+09  8.096720e-01 -3.234958e-01   
             
2.584000e+09  8.072515e-01 -3.381216e-01   
             
2.588000e+09  8.045912e-01 -3.523169e-01   
             
2.592000e+09  8.017283e-01 -3.661320e-01   
             
2.596000e+09  7.986841e-01 -3.796177e-01   
             
2.600000e+09  7.954651e-01 -3.928203e-01   
             
2.604000e+09  7.920658e-01 -4.057785e-01   
             
2.608000e+09  7.884717e-01 -4.185200e-01   
             
2.612000e+09  7.846639e-01 -4.310602e-01   
             
2.616000e+09  7.806229e-01 -4.434022e-01   
             
2.620000e+09  7.763329e-01 -4.555378e-01   
             
2.624000e+09  7.717853e-01 -4.674501e-01   
             
2.628000e+09  7.669804e-01 -4.791167e-01   
             
2.632000e+09  7.619289e-01 -4.905133e-01   
             
2.636000e+09  7.566514e-01 -5.016178e-01   
             
2.640000e+09  7.511773e-01 -5.124131e-01   
             
2.644000e+09  7.455417e-01 -5.228907e-01   
             
2.648000e+09  7.397831e-01 -5.330514e-01   
             
2.652000e+09  7.339391e-01 -5.429065e-01   
             
2.656000e+09  7.280435e-01 -5.524766e-01   
             
2.660000e+09  7.221230e-01 -5.617902e-01   
             
2.664000e+09  7.161957e-01 -5.708809e-01   
             
2.668000e+09  7.102690e-01 -5.797843e-01   
             
2.672000e+09  7.043402e-01 -5.885346e-01   
             
2.676000e+09  6.983976e-01 -5.971615e-01   
             
2.680000e+09  6.924220e-01 -6.056875e-01   
             
2.684000e+09  6.863899e-01 -6.141263e-01   
             
2.688000e+09  6.802764e-01 -6.224820e-01   
             
2.692000e+09  6.740584e-01 -6.307491e-01   
             
2.696000e+09  6.677174e-01 -6.389142e-01   
             
2.700000e+09  6.612423e-01 -6.469578e-01   
             
2.704000e+09  6.546298e-01 -6.548570e-01   
             
2.708000e+09  6.478862e-01 -6.625889e-01   
             
2.712000e+09  6.410255e-01 -6.701333e-01   
             
2.716000e+09  6.340690e-01 -6.774753e-01   
             
2.720000e+09  6.270423e-01 -6.846074e-01   
             
2.724000e+09  6.199733e-01 -6.915305e-01   
             
2.728000e+09  6.128883e-01 -6.982538e-01   
             
2.732000e+09  6.058101e-01 -7.047945e-01   
             
2.736000e+09  5.987555e-01 -7.111756e-01   
             
2.740000e+09  5.917331e-01 -7.174236e-01   
             
2.744000e+09  5.847435e-01 -7.235661e-01   
             
2.748000e+09  5.777786e-01 -7.296286e-01   
             
2.752000e+09  5.708235e-01 -7.356323e-01   
             
2.756000e+09  5.638576e-01 -7.415915e-01   
             
2.760000e+09  5.568578e-01 -7.475129e-01   
             
2.764000e+09  5.498007e-01 -7.533947e-01   
             
2.768000e+09  5.426655e-01 -7.592274e-01   
             
2.772000e+09  5.354365e-01 -7.649950e-01   
             
