#   Hz   S  RI   R   50
! 
1.400000e+09  3.283861e-01  9.215578e-01   
             
1.404000e+09  3.355819e-01  9.191113e-01   
             
1.408000e+09  3.426804e-01  9.163232e-01   
             
1.412000e+09  3.496041e-01  9.132327e-01   
             
1.416000e+09  3.562902e-01  9.098981e-01   
             
1.420000e+09  3.626953e-01  9.063918e-01   
             
1.424000e+09  3.687976e-01  9.027942e-01   
             
1.428000e+09  3.745990e-01  8.991876e-01   
             
1.432000e+09  3.801234e-01  8.956493e-01   
             
1.436000e+09  3.854150e-01  8.922462e-01   
             
1.440000e+09  3.905341e-01  8.890293e-01   
             
1.444000e+09  3.955516e-01  8.860306e-01   
             
1.448000e+09  4.005438e-01  8.832607e-01   
             
1.452000e+09  4.055859e-01  8.807085e-01   
             
1.456000e+09  4.107460e-01  8.783429e-01   
             
1.460000e+09  4.160804e-01  8.761156e-01   
             
1.464000e+09  4.216288e-01  8.739652e-01   
             
1.468000e+09  4.274123e-01  8.718225e-01   
             
1.472000e+09  4.334319e-01  8.696161e-01   
             
1.476000e+09  4.396688e-01  8.672778e-01   
             
1.480000e+09  4.460865e-01  8.647481e-01   
             
1.484000e+09  4.526341e-01  8.619802e-01   
             
1.488000e+09  4.592503e-01  8.589440e-01   
             
1.492000e+09  4.658689e-01  8.556271e-01   
             
1.496000e+09  4.724234e-01  8.520362e-01   
             
1.500000e+09  4.788524e-01  8.481957e-01   
             
1.504000e+09  4.851046e-01  8.441455e-01   
             
1.508000e+09  4.911419e-01  8.399376e-01   
             
1.512000e+09  4.969423e-01  8.356317e-01   
             
1.516000e+09  5.025015e-01  8.312906e-01   
             
1.520000e+09  5.078326e-01  8.269749e-01   
             
1.524000e+09  5.129648e-01  8.227388e-01   
             
1.528000e+09  5.179404e-01  8.186254e-01   
             
1.532000e+09  5.228120e-01  8.146642e-01   
             
1.536000e+09  5.276372e-01  8.108684e-01   
             
1.540000e+09  5.324748e-01  8.072348e-01   
             
1.544000e+09  5.373793e-01  8.037439e-01   
             
1.548000e+09  5.423975e-01  8.003623e-01   
             
1.552000e+09  5.475645e-01  7.970449e-01   
             
1.556000e+09  5.529014e-01  7.937396e-01   
             
1.560000e+09  5.584135e-01  7.903906e-01   
             
1.564000e+09  5.640909e-01  7.869434e-01   
             
1.568000e+09  5.699090e-01  7.833488e-01   
             
1.572000e+09  5.758308e-01  7.795668e-01   
             
1.576000e+09  5.818102e-01  7.755693e-01   
             
1.580000e+09  5.877955e-01  7.713423e-01   
             
1.584000e+09  5.937337e-01  7.668864e-01   
             
1.588000e+09  5.995744e-01  7.622169e-01   
             
1.592000e+09  6.052741e-01  7.573620e-01   
             
1.596000e+09  6.107987e-01  7.523604e-01   
             
1.600000e+09  6.161267e-01  7.472585e-01   
             
1.604000e+09  6.212504e-01  7.421060e-01   
             
1.608000e+09  6.261758e-01  7.369525e-01   
             
1.612000e+09  6.309228e-01  7.318434e-01   
             
1.616000e+09  6.355225e-01  7.268163e-01   
             
1.620000e+09  6.400149e-01  7.218985e-01   
             
1.624000e+09  6.444459e-01  7.171048e-01   
             
1.628000e+09  6.488630e-01  7.124363e-01   
             
1.632000e+09  6.533118e-01  7.078812e-01   
             
1.636000e+09  6.578326e-01  7.034153e-01   
             
1.640000e+09  6.624569e-01  6.990045e-01   
             
1.644000e+09  6.672055e-01  6.946073e-01   
             
1.648000e+09  6.720865e-01  6.901785e-01   
             
1.652000e+09  6.770954e-01  6.856726e-01   
             
1.656000e+09  6.822150e-01  6.810475e-01   
             
1.660000e+09  6.874176e-01  6.762675e-01   
             
1.664000e+09  6.926668e-01  6.713064e-01   
             
1.668000e+09  6.979205e-01  6.661488e-01   
             
1.672000e+09  7.031346e-01  6.607918e-01   
             
1.676000e+09  7.082658e-01  6.552446e-01   
             
1.680000e+09  7.132757e-01  6.495278e-01   
             
1.684000e+09  7.181332e-01  6.436717e-01   
             
1.688000e+09  7.228169e-01  6.377136e-01   
             
1.692000e+09  7.273167e-01  6.316949e-01   
             
1.696000e+09  7.316346e-01  6.256577e-01   
             
1.700000e+09  7.357838e-01  6.196418e-01   
             
1.704000e+09  7.397881e-01  6.136811e-01   
             
1.708000e+09  7.436798e-01  6.078016e-01   
             
1.712000e+09  7.474966e-01  6.020188e-01   
             
1.716000e+09  7.512790e-01  5.963371e-01   
             
1.720000e+09  7.550666e-01  5.907492e-01   
             
1.724000e+09  7.588957e-01  5.852372e-01   
             
1.728000e+09  7.627954e-01  5.797736e-01   
             
1.732000e+09  7.667864e-01  5.743243e-01   
             
1.736000e+09  7.708787e-01  5.688505e-01   
             
1.740000e+09  7.750712e-01  5.633125e-01   
             
1.744000e+09  7.793518e-01  5.576723e-01   
             
1.748000e+09  7.836986e-01  5.518969e-01   
             
1.752000e+09  7.880813e-01  5.459609e-01   
             
1.756000e+09  7.924639e-01  5.398479e-01   
             
1.760000e+09  7.968077e-01  5.335522e-01   
             
1.764000e+09  8.010738e-01  5.270791e-01   
             
1.768000e+09  8.052267e-01  5.204441e-01   
             
1.772000e+09  8.092365e-01  5.136716e-01   
             
1.776000e+09  8.130817e-01  5.067935e-01   
             
1.780000e+09  8.167502e-01  4.998458e-01   
             
1.784000e+09  8.202407e-01  4.928661e-01   
             
1.788000e+09  8.235623e-01  4.858909e-01   
             
1.792000e+09  8.267338e-01  4.789523e-01   
             
1.796000e+09  8.297824e-01  4.720754e-01   
             
1.800000e+09  8.327407e-01  4.652768e-01   
             
1.804000e+09  8.356450e-01  4.585631e-01   
             
1.808000e+09  8.385315e-01  4.519303e-01   
             
1.812000e+09  8.414341e-01  4.453641e-01   
             
1.816000e+09  8.443811e-01  4.388416e-01   
             
1.820000e+09  8.473933e-01  4.323325e-01   
             
1.824000e+09  8.504824e-01  4.258018e-01   
             
1.828000e+09  8.536497e-01  4.192126e-01   
             
1.832000e+09  8.568862e-01  4.125289e-01   
             
1.836000e+09  8.601734e-01  4.057186e-01   
             
1.840000e+09  8.634847e-01  3.987556e-01   
             
1.844000e+09  8.667872e-01  3.916222e-01   
             
1.848000e+09  8.700446e-01  3.843104e-01   
             
1.852000e+09  8.732198e-01  3.768223e-01   
             
1.856000e+09  8.762780e-01  3.691698e-01   
             
1.860000e+09  8.791888e-01  3.613741e-01   
             
1.864000e+09  8.819295e-01  3.534635e-01   
             
1.868000e+09  8.844857e-01  3.454712e-01   
             
1.872000e+09  8.868533e-01  3.374329e-01   
             
1.876000e+09  8.890381e-01  3.293837e-01   
             
1.880000e+09  8.910556e-01  3.213552e-01   
             
1.884000e+09  8.929296e-01  3.133734e-01   
             
1.888000e+09  8.946903e-01  3.054560e-01   
             
1.892000e+09  8.963716e-01  2.976114e-01   
             
1.896000e+09  8.980084e-01  2.898377e-01   
             
1.900000e+09  8.996341e-01  2.821231e-01   
             
1.904000e+09  9.012772e-01  2.744465e-01   
             
1.908000e+09  9.029594e-01  2.667792e-01   
             
1.912000e+09  9.046935e-01  2.590870e-01   
             
1.916000e+09  9.064826e-01  2.513333e-01   
             
1.920000e+09  9.083193e-01  2.434813e-01   
             
1.924000e+09  9.101862e-01  2.354975e-01   
             
1.928000e+09  9.120573e-01  2.273538e-01   
             
1.932000e+09  9.139000e-01  2.190299e-01   
             
1.936000e+09  9.156770e-01  2.105151e-01   
             
1.940000e+09  9.173498e-01  2.018088e-01   
             
1.944000e+09  9.188810e-01  1.929206e-01   
             
1.948000e+09  9.202374e-01  1.838697e-01   
             
1.952000e+09  9.213925e-01  1.746832e-01   
             
1.956000e+09  9.223285e-01  1.653941e-01   
             
1.960000e+09  9.230374e-01  1.560384e-01   
             
1.964000e+09  9.235218e-01  1.466522e-01   
             
1.968000e+09  9.237944e-01  1.372692e-01   
             
1.972000e+09  9.238769e-01  1.279170e-01   
             
1.976000e+09  9.237982e-01  1.186158e-01   
             
1.980000e+09  9.235917e-01  1.093758e-01   
             
1.984000e+09  9.232926e-01  1.001966e-01   
             
1.988000e+09  9.229351e-01  9.106692e-02   
             
1.992000e+09  9.225486e-01  8.196538e-02   
             
1.996000e+09  9.221557e-01  7.286191e-02   
             
2.000000e+09  9.217699e-01  6.372001e-02   
             
2.004000e+09  9.213938e-01  5.449952e-02   
             
2.008000e+09  9.210187e-01  4.515967e-02   
             
2.012000e+09  9.206244e-01  3.566227e-02   
             
2.016000e+09  9.201810e-01  2.597469e-02   
             
2.020000e+09  9.196501e-01  1.607246e-02   
             
2.024000e+09  9.189875e-01  5.941266e-03   
             
2.028000e+09  9.181465e-01 -4.421877e-03   
             
2.032000e+09  9.170807e-01 -1.500828e-02   
             
2.036000e+09  9.157476e-01 -2.579820e-02   
             
2.040000e+09  9.141114e-01 -3.676234e-02   
             
2.044000e+09  9.121455e-01 -4.786411e-02   
             
2.048000e+09  9.098342e-01 -5.906260e-02   
             
2.052000e+09  9.071732e-01 -7.031582e-02   
             
2.056000e+09  9.041703e-01 -8.158423e-02   
             
2.060000e+09  9.008433e-01 -9.283404e-02   
             
2.064000e+09  8.972189e-01 -1.040401e-01   
             
2.068000e+09  8.933291e-01 -1.151884e-01   
             
2.072000e+09  8.892084e-01 -1.262770e-01   
             
2.076000e+09  8.848898e-01 -1.373173e-01   
             
2.080000e+09  8.804011e-01 -1.483325e-01   
             
2.084000e+09  8.757614e-01 -1.593567e-01   
             
2.088000e+09  8.709783e-01 -1.704319e-01   
             
2.092000e+09  8.660455e-01 -1.816049e-01   
             
2.096000e+09  8.609418e-01 -1.929233e-01   
             
2.100000e+09  8.556308e-01 -2.044314e-01   
             
2.104000e+09  8.500622e-01 -2.161665e-01   
             
2.108000e+09  8.441737e-01 -2.281549e-01   
             
2.112000e+09  8.378942e-01 -2.404093e-01   
             
2.116000e+09  8.311473e-01 -2.529265e-01   
             
2.120000e+09  8.238557e-01 -2.656870e-01   
             
2.124000e+09  8.159454e-01 -2.786550e-01   
             
2.128000e+09  8.073497e-01 -2.917798e-01   
             
2.132000e+09  7.980128e-01 -3.049990e-01   
             
2.136000e+09  7.878921e-01 -3.182414e-01   
             
2.140000e+09  7.769600e-01 -3.314319e-01   
             
2.144000e+09  7.652034e-01 -3.444954e-01   
             
2.148000e+09  7.526231e-01 -3.573617e-01   
             
2.152000e+09  7.392305e-01 -3.699691e-01   
             
2.156000e+09  7.250441e-01 -3.822677e-01   
             
2.160000e+09  7.100847e-01 -3.942209e-01   
             
2.164000e+09  6.943697e-01 -4.058057e-01   
             
2.168000e+09  6.779081e-01 -4.170117e-01   
             
2.172000e+09  6.606948e-01 -4.278371e-01   
             
2.176000e+09  6.427068e-01 -4.382847e-01   
             
2.180000e+09  6.239001e-01 -4.483548e-01   
             
2.184000e+09  6.042083e-01 -4.580387e-01   
             
2.188000e+09  5.835437e-01 -4.673097e-01   
             
2.192000e+09  5.618003e-01 -4.761161e-01   
             
2.196000e+09  5.388596e-01 -4.843728e-01   
             
2.200000e+09  5.145981e-01 -4.919553e-01   
             
2.204000e+09  4.888972e-01 -4.986953e-01   
             
2.208000e+09  4.616543e-01 -5.043779e-01   
             
2.212000e+09  4.327957e-01 -5.087427e-01   
             
2.216000e+09  4.022886e-01 -5.114870e-01   
             
2.220000e+09  3.701540e-01 -5.122731e-01   
             
2.224000e+09  3.364773e-01 -5.107379e-01   
             
2.228000e+09  3.014175e-01 -5.065064e-01   
             
2.232000e+09  2.652129e-01 -4.992069e-01   
             
2.236000e+09  2.281840e-01 -4.884886e-01   
             
2.240000e+09  1.907320e-01 -4.740397e-01   
             
2.244000e+09  1.533327e-01 -4.556060e-01   
             
2.248000e+09  1.165268e-01 -4.330078e-01   
             
2.252000e+09  8.090571e-02 -4.061551e-01   
             
2.256000e+09  4.709373e-02 -3.750597e-01   
             
2.260000e+09  1.572803e-02 -3.398428e-01   
             
2.264000e+09 -1.256355e-02 -3.007387e-01   
             
2.268000e+09 -3.718513e-02 -2.580933e-01   
             
2.272000e+09 -5.759479e-02 -2.123575e-01   
             
2.276000e+09 -7.332489e-02 -1.640764e-01   
             
2.280000e+09 -8.399961e-02 -1.138735e-01   
             
2.284000e+09 -8.934884e-02 -6.243271e-02   
             
2.288000e+09 -8.921782e-02 -1.047684e-02   
             
2.292000e+09 -8.357227e-02  4.125446e-02   
             
2.296000e+09 -7.249866e-02  9.202751e-02   
             
2.300000e+09 -5.620007e-02  1.411366e-01   
             
2.304000e+09 -3.498780e-02  1.879244e-01   
             
2.308000e+09 -9.269354e-03  2.317997e-01   
             
2.312000e+09  2.046656e-02  2.722526e-01   
             
2.316000e+09  5.366723e-02  3.088658e-01   
             
2.320000e+09  8.973468e-02  3.413227e-01   
             
2.324000e+09  1.280449e-01  3.694106e-01   
             
2.328000e+09  1.679673e-01  3.930218e-01   
             
2.332000e+09  2.088828e-01  4.121495e-01   
             
2.336000e+09  2.502012e-01  4.268814e-01   
             
2.340000e+09  2.913759e-01  4.373900e-01   
             
2.344000e+09  3.319166e-01  4.439209e-01   
             
2.348000e+09  3.713989e-01  4.467788e-01   
             
2.352000e+09  4.094710e-01  4.463131e-01   
             
2.356000e+09  4.458571e-01  4.429020e-01   
             
2.360000e+09  4.803576e-01  4.369373e-01   
             
2.364000e+09  5.128470e-01  4.288105e-01   
             
2.368000e+09  5.432676e-01  4.188988e-01   
             
2.372000e+09  5.716228e-01  4.075545e-01   
             
2.376000e+09  5.979671e-01  3.950956e-01   
             
2.380000e+09  6.223956e-01  3.817995e-01   
             
2.384000e+09  6.450326e-01  3.678991e-01   
             
2.388000e+09  6.660210e-01  3.535817e-01   
             
2.392000e+09  6.855110e-01  3.389899e-01   
             
2.396000e+09  7.036512e-01  3.242255e-01   
             
2.400000e+09  7.205804e-01  3.093542e-01   
             
2.404000e+09  7.364220e-01  2.944123e-01   
             
2.408000e+09  7.512794e-01  2.794137e-01   
             
2.412000e+09  7.652346e-01  2.643575e-01   
             
2.416000e+09  7.783477e-01  2.492348e-01   
             
2.420000e+09  7.906589e-01  2.340355e-01   
             
2.424000e+09  8.021910e-01  2.187529e-01   
             
2.428000e+09  8.129540e-01  2.033885e-01   
             
2.432000e+09  8.229494e-01  1.879539e-01   
             
2.436000e+09  8.321749e-01  1.724723e-01   
             
2.440000e+09  8.406293e-01  1.569778e-01   
             
2.444000e+09  8.483161e-01  1.415136e-01   
             
2.448000e+09  8.552470e-01  1.261300e-01   
             
2.452000e+09  8.614436e-01  1.108808e-01   
             
2.456000e+09  8.669388e-01  9.581935e-02   
             
2.460000e+09  8.717764e-01  8.099558e-02   
             
2.464000e+09  8.760098e-01  6.645215e-02   
             
2.468000e+09  8.797001e-01  5.222193e-02   
             
2.472000e+09  8.829129e-01  3.832597e-02   
             
2.476000e+09  8.857154e-01  2.477248e-02   
             
2.480000e+09  8.881728e-01  1.155672e-02   
             
2.484000e+09  8.903454e-01 -1.338045e-03   
             
2.488000e+09  8.922853e-01 -1.393886e-02   
             
2.492000e+09  8.940345e-01 -2.628058e-02   
             
2.496000e+09  8.956234e-01 -3.840299e-02   
             
2.500000e+09  8.970701e-01 -5.034760e-02   
             
2.504000e+09  8.983810e-01 -6.215448e-02   
             
2.508000e+09  8.995517e-01 -7.385936e-02   
             
2.512000e+09  9.005690e-01 -8.549118e-02   
             
2.516000e+09  9.014131e-01 -9.707023e-02   
             
2.520000e+09  9.020606e-01 -1.086071e-01   
             
2.524000e+09  9.024875e-01 -1.201025e-01   
             
2.528000e+09  9.026716e-01 -1.315477e-01   
             
2.532000e+09  9.025954e-01 -1.429256e-01   
             
2.536000e+09  9.022478e-01 -1.542129e-01   
             
2.540000e+09  9.016257e-01 -1.653825e-01   
             
2.544000e+09  9.007346e-01 -1.764055e-01   
             
2.548000e+09  8.995886e-01 -1.872542e-01   
             
2.552000e+09  8.982096e-01 -1.979047e-01   
             
2.556000e+09  8.966256e-01 -2.083384e-01   
             
2.560000e+09  8.948695e-01 -2.185441e-01   
             
2.564000e+09  8.929759e-01 -2.285186e-01   
             
2.568000e+09  8.909798e-01 -2.382671e-01   
             
2.572000e+09  8.889133e-01 -2.478031e-01   
             
2.576000e+09  8.868040e-01 -2.571468e-01   
             
2.580000e+09  8.846733e-01 -2.663241e-01   
             
2.584000e+09  8.825347e-01 -2.753642e-01   
             
2.588000e+09  8.803941e-01 -2.842977e-01   
             
2.592000e+09  8.782487e-01 -2.931542e-01   
             
2.596000e+09  8.760887e-01 -3.019602e-01   
             
2.600000e+09  8.738979e-01 -3.107373e-01   
             
2.604000e+09  8.716553e-01 -3.195004e-01   
             
2.608000e+09  8.693377e-01 -3.282576e-01   
             
2.612000e+09  8.669212e-01 -3.370089e-01   
             
2.616000e+09  8.643835e-01 -3.457473e-01   
             
2.620000e+09  8.617060e-01 -3.544590e-01   
             
2.624000e+09  8.588752e-01 -3.631254e-01   
             
2.628000e+09  8.558841e-01 -3.717242e-01   
             
2.632000e+09  8.527325e-01 -3.802316e-01   
             
2.636000e+09  8.494274e-01 -3.886246e-01   
             
2.640000e+09  8.459823e-01 -3.968825e-01   
             
2.644000e+09  8.424161e-01 -4.049889e-01   
             
2.648000e+09  8.387518e-01 -4.129330e-01   
             
2.652000e+09  8.350150e-01 -4.207105e-01   
             
2.656000e+09  8.312313e-01 -4.283239e-01   
             
2.660000e+09  8.274250e-01 -4.357823e-01   
             
2.664000e+09  8.236171e-01 -4.431009e-01   
             
2.668000e+09  8.198237e-01 -4.502995e-01   
             
2.672000e+09  8.160548e-01 -4.574011e-01   
             
2.676000e+09  8.123141e-01 -4.644303e-01   
             
2.680000e+09  8.085986e-01 -4.714112e-01   
             
2.684000e+09  8.048987e-01 -4.783656e-01   
             
2.688000e+09  8.012000e-01 -4.853114e-01   
             
2.692000e+09  7.974834e-01 -4.922612e-01   
             
2.696000e+09  7.937279e-01 -4.992219e-01   
             
2.700000e+09  7.899116e-01 -5.061935e-01   
             
2.704000e+09  7.860138e-01 -5.131700e-01   
             
2.708000e+09  7.820166e-01 -5.201394e-01   
             
2.712000e+09  7.779066e-01 -5.270851e-01   
             
2.716000e+09  7.736756e-01 -5.339875e-01   
             
2.720000e+09  7.693218e-01 -5.408249e-01   
             
2.724000e+09  7.648493e-01 -5.475763e-01   
             
2.728000e+09  7.602685e-01 -5.542222e-01   
             
2.732000e+09  7.555946e-01 -5.607470e-01   
             
2.736000e+09  7.508470e-01 -5.671395e-01   
             
2.740000e+09  7.460472e-01 -5.733945e-01   
             
2.744000e+09  7.412178e-01 -5.795126e-01   
             
2.748000e+09  7.363802e-01 -5.855006e-01   
             
2.752000e+09  7.315531e-01 -5.913710e-01   
             
2.756000e+09  7.267513e-01 -5.971406e-01   
             
2.760000e+09  7.219841e-01 -6.028294e-01   
             
2.764000e+09  7.172552e-01 -6.084594e-01   
             
2.768000e+09  7.125621e-01 -6.140522e-01   
             
2.772000e+09  7.078965e-01 -6.196277e-01   
             
