#   Hz   S  RI   R   50
! 
1.400000e+09  4.138201e-01  8.797380e-01   
             
1.404000e+09  4.188340e-01  8.767427e-01   
             
1.408000e+09  4.238446e-01  8.739802e-01   
             
1.412000e+09  4.289345e-01  8.714278e-01   
             
1.416000e+09  4.341736e-01  8.690389e-01   
             
1.420000e+09  4.396131e-01  8.667483e-01   
             
1.424000e+09  4.452810e-01  8.644792e-01   
             
1.428000e+09  4.511798e-01  8.621512e-01   
             
1.432000e+09  4.572869e-01  8.596882e-01   
             
1.436000e+09  4.635578e-01  8.570256e-01   
             
1.440000e+09  4.699310e-01  8.541169e-01   
             
1.444000e+09  4.763346e-01  8.509371e-01   
             
1.448000e+09  4.826935e-01  8.474852e-01   
             
1.452000e+09  4.889370e-01  8.437832e-01   
             
1.456000e+09  4.950057e-01  8.398733e-01   
             
1.460000e+09  5.008571e-01  8.358131e-01   
             
1.464000e+09  5.064688e-01  8.316698e-01   
             
1.468000e+09  5.118407e-01  8.275129e-01   
             
1.472000e+09  5.169938e-01  8.234075e-01   
             
1.476000e+09  5.219678e-01  8.194079e-01   
             
1.480000e+09  5.268165e-01  8.155530e-01   
             
1.484000e+09  5.316021e-01  8.118623e-01   
             
1.488000e+09  5.363890e-01  8.083353e-01   
             
1.492000e+09  5.412371e-01  8.049513e-01   
             
1.496000e+09  5.461962e-01  8.016727e-01   
             
1.500000e+09  5.513016e-01  7.984488e-01   
             
1.504000e+09  5.565705e-01  7.952212e-01   
             
1.508000e+09  5.620010e-01  7.919298e-01   
             
1.512000e+09  5.675730e-01  7.885185e-01   
             
1.516000e+09  5.732501e-01  7.849413e-01   
             
1.520000e+09  5.789841e-01  7.811659e-01   
             
1.524000e+09  5.847197e-01  7.771769e-01   
             
1.528000e+09  5.904002e-01  7.729767e-01   
             
1.532000e+09  5.959734e-01  7.685851e-01   
             
1.536000e+09  6.013962e-01  7.640367e-01   
             
1.540000e+09  6.066386e-01  7.593771e-01   
             
1.544000e+09  6.116869e-01  7.546581e-01   
             
1.548000e+09  6.165437e-01  7.499328e-01   
             
1.552000e+09  6.212280e-01  7.452498e-01   
             
1.556000e+09  6.257724e-01  7.406489e-01   
             
1.560000e+09  6.302198e-01  7.361575e-01   
             
1.564000e+09  6.346187e-01  7.317880e-01   
             
1.568000e+09  6.390185e-01  7.275369e-01   
             
1.572000e+09  6.434644e-01  7.233858e-01   
             
1.576000e+09  6.479931e-01  7.193035e-01   
             
1.580000e+09  6.526296e-01  7.152492e-01   
             
1.584000e+09  6.573846e-01  7.111769e-01   
             
1.588000e+09  6.622539e-01  7.070400e-01   
             
1.592000e+09  6.672193e-01  7.027959e-01   
             
1.596000e+09  6.722503e-01  6.984104e-01   
             
1.600000e+09  6.773078e-01  6.938603e-01   
             
1.604000e+09  6.823478e-01  6.891361e-01   
             
1.608000e+09  6.873260e-01  6.842422e-01   
             
1.612000e+09  6.922022e-01  6.791966e-01   
             
1.616000e+09  6.969439e-01  6.740282e-01   
             
1.620000e+09  7.015296e-01  6.687745e-01   
             
1.624000e+09  7.059504e-01  6.634770e-01   
             
1.628000e+09  7.102109e-01  6.581776e-01   
             
1.632000e+09  7.143281e-01  6.529141e-01   
             
1.636000e+09  7.183298e-01  6.477167e-01   
             
1.640000e+09  7.222512e-01  6.426054e-01   
             
1.644000e+09  7.261317e-01  6.375878e-01   
             
1.648000e+09  7.300105e-01  6.326590e-01   
             
1.652000e+09  7.339231e-01  6.278024e-01   
             
1.656000e+09  7.378976e-01  6.229910e-01   
             
1.660000e+09  7.419520e-01  6.181909e-01   
             
1.664000e+09  7.460930e-01  6.133646e-01   
             
1.668000e+09  7.503151e-01  6.084746e-01   
             
1.672000e+09  7.546014e-01  6.034871e-01   
             
1.676000e+09  7.589257e-01  5.983757e-01   
             
1.680000e+09  7.632551e-01  5.931233e-01   
             
1.684000e+09  7.675532e-01  5.877242e-01   
             
1.688000e+09  7.717839e-01  5.821839e-01   
             
1.692000e+09  7.759149e-01  5.765190e-01   
             
1.696000e+09  7.799210e-01  5.707546e-01   
             
1.700000e+09  7.837859e-01  5.649225e-01   
             
1.704000e+09  7.875043e-01  5.590574e-01   
             
1.708000e+09  7.910817e-01  5.531937e-01   
             
1.712000e+09  7.945339e-01  5.473618e-01   
             
1.716000e+09  7.978852e-01  5.415857e-01   
             
1.720000e+09  8.011658e-01  5.358802e-01   
             
1.724000e+09  8.044087e-01  5.302501e-01   
             
1.728000e+09  8.076465e-01  5.246894e-01   
             
1.732000e+09  8.109080e-01  5.191824e-01   
             
1.736000e+09  8.142155e-01  5.137054e-01   
             
1.740000e+09  8.175826e-01  5.082289e-01   
             
1.744000e+09  8.210131e-01  5.027209e-01   
             
1.748000e+09  8.245006e-01  4.971501e-01   
             
1.752000e+09  8.280291e-01  4.914886e-01   
             
1.756000e+09  8.315751e-01  4.857151e-01   
             
1.760000e+09  8.351097e-01  4.798167e-01   
             
1.764000e+09  8.386016e-01  4.737900e-01   
             
1.768000e+09  8.420202e-01  4.676415e-01   
             
1.772000e+09  8.453384e-01  4.613868e-01   
             
1.776000e+09  8.485357e-01  4.550487e-01   
             
1.780000e+09  8.515995e-01  4.486552e-01   
             
1.784000e+09  8.545267e-01  4.422364e-01   
             
1.788000e+09  8.573236e-01  4.358218e-01   
             
1.792000e+09  8.600052e-01  4.294370e-01   
             
1.796000e+09  8.625937e-01  4.231016e-01   
             
1.800000e+09  8.651159e-01  4.168272e-01   
             
1.804000e+09  8.676008e-01  4.106161e-01   
             
1.808000e+09  8.700766e-01  4.044617e-01   
             
1.812000e+09  8.725677e-01  3.983487e-01   
             
1.816000e+09  8.750924e-01  3.922552e-01   
             
1.820000e+09  8.776612e-01  3.861545e-01   
             
1.824000e+09  8.802758e-01  3.800182e-01   
             
1.828000e+09  8.829288e-01  3.738186e-01   
             
1.832000e+09  8.856048e-01  3.675318e-01   
             
1.836000e+09  8.882816e-01  3.611400e-01   
             
1.840000e+09  8.909326e-01  3.546329e-01   
             
1.844000e+09  8.935297e-01  3.480090e-01   
             
1.848000e+09  8.960454e-01  3.412756e-01   
             
1.852000e+09  8.984563e-01  3.344478e-01   
             
1.856000e+09  9.007446e-01  3.275472e-01   
             
1.860000e+09  9.029003e-01  3.205997e-01   
             
1.864000e+09  9.049220e-01  3.136326e-01   
             
1.868000e+09  9.068166e-01  3.066722e-01   
             
1.872000e+09  9.085990e-01  2.997411e-01   
             
1.876000e+09  9.102902e-01  2.928560e-01   
             
1.880000e+09  9.119153e-01  2.860260e-01   
             
1.884000e+09  9.135007e-01  2.792517e-01   
             
1.888000e+09  9.150718e-01  2.725254e-01   
             
1.892000e+09  9.166501e-01  2.658319e-01   
             
1.896000e+09  9.182515e-01  2.591498e-01   
             
1.900000e+09  9.198839e-01  2.524536e-01   
             
1.904000e+09  9.215473e-01  2.457167e-01   
             
1.908000e+09  9.232332e-01  2.389137e-01   
             
1.912000e+09  9.249256e-01  2.320229e-01   
             
1.916000e+09  9.266027e-01  2.250286e-01   
             
1.920000e+09  9.282386e-01  2.179226e-01   
             
1.924000e+09  9.298065e-01  2.107046e-01   
             
1.928000e+09  9.312806e-01  2.033830e-01   
             
1.932000e+09  9.326392e-01  1.959733e-01   
             
1.936000e+09  9.338663e-01  1.884967e-01   
             
1.940000e+09  9.349537e-01  1.809784e-01   
             
1.944000e+09  9.359009e-01  1.734445e-01   
             
1.948000e+09  9.367159e-01  1.659196e-01   
             
1.952000e+09  9.374138e-01  1.584245e-01   
             
1.956000e+09  9.380157e-01  1.509740e-01   
             
1.960000e+09  9.385457e-01  1.435752e-01   
             
1.964000e+09  9.390294e-01  1.362274e-01   
             
1.968000e+09  9.394907e-01  1.289212e-01   
             
1.972000e+09  9.399492e-01  1.216405e-01   
             
1.976000e+09  9.404188e-01  1.143631e-01   
             
1.980000e+09  9.409056e-01  1.070635e-01   
             
1.984000e+09  9.414074e-01  9.971532e-02   
             
1.988000e+09  9.419139e-01  9.229368e-02   
             
1.992000e+09  9.424075e-01  8.477789e-02   
             
1.996000e+09  9.428650e-01  7.715340e-02   
             
2.000000e+09  9.432598e-01  6.941332e-02   
             
2.004000e+09  9.435642e-01  6.155903e-02   
             
2.008000e+09  9.437524e-01  5.360010e-02   
             
2.012000e+09  9.438029e-01  4.555333e-02   
             
2.016000e+09  9.437002e-01  3.744109e-02   
             
2.020000e+09  9.434368e-01  2.928904e-02   
             
2.024000e+09  9.430133e-01  2.112361e-02   
             
2.028000e+09  9.424387e-01  1.296928e-02   
             
2.032000e+09  9.417292e-01  4.846127e-03   
             
2.036000e+09  9.409063e-01 -3.232269e-03   
             
2.040000e+09  9.399949e-01 -1.126025e-02   
             
2.044000e+09  9.390204e-01 -1.924072e-02   
             
2.048000e+09  9.380062e-01 -2.718500e-02   
             
2.052000e+09  9.369707e-01 -3.511175e-02   
             
2.056000e+09  9.359259e-01 -4.304520e-02   
             
2.060000e+09  9.348754e-01 -5.101283e-02   
             
2.064000e+09  9.338139e-01 -5.904266e-02   
             
2.068000e+09  9.327276e-01 -6.716049e-02   
             
2.072000e+09  9.315951e-01 -7.538730e-02   
             
2.076000e+09  9.303892e-01 -8.373714e-02   
             
2.080000e+09  9.290795e-01 -9.221570e-02   
             
2.084000e+09  9.276349e-01 -1.008197e-01   
             
2.088000e+09  9.260268e-01 -1.095369e-01   
             
2.092000e+09  9.242314e-01 -1.183478e-01   
             
2.096000e+09  9.222320e-01 -1.272270e-01   
             
2.100000e+09  9.200204e-01 -1.361459e-01   
             
2.104000e+09  9.175976e-01 -1.450758e-01   
             
2.108000e+09  9.149735e-01 -1.539905e-01   
             
2.112000e+09  9.121655e-01 -1.628690e-01   
             
2.116000e+09  9.091965e-01 -1.716983e-01   
             
2.120000e+09  9.060924e-01 -1.804742e-01   
             
2.124000e+09  9.028790e-01 -1.892020e-01   
             
2.128000e+09  8.995789e-01 -1.978965e-01   
             
2.132000e+09  8.962087e-01 -2.065805e-01   
             
2.136000e+09  8.927768e-01 -2.152826e-01   
             
2.140000e+09  8.892814e-01 -2.240343e-01   
             
2.144000e+09  8.857107e-01 -2.328672e-01   
             
2.148000e+09  8.820424e-01 -2.418094e-01   
             
2.152000e+09  8.782457e-01 -2.508828e-01   
             
2.156000e+09  8.742834e-01 -2.601005e-01   
             
2.160000e+09  8.701146e-01 -2.694655e-01   
             
2.164000e+09  8.656985e-01 -2.789697e-01   
             
2.168000e+09  8.609973e-01 -2.885947e-01   
             
2.172000e+09  8.559792e-01 -2.983132e-01   
             
2.176000e+09  8.506213e-01 -3.080914e-01   
             
2.180000e+09  8.449111e-01 -3.178922e-01   
             
2.184000e+09  8.388465e-01 -3.276787e-01   
             
2.188000e+09  8.324360e-01 -3.374174e-01   
             
2.192000e+09  8.256961e-01 -3.470823e-01   
             
2.196000e+09  8.186493e-01 -3.566567e-01   
             
2.200000e+09  8.113202e-01 -3.661348e-01   
             
2.204000e+09  8.037316e-01 -3.755231e-01   
             
2.208000e+09  7.959009e-01 -3.848383e-01   
             
2.212000e+09  7.878360e-01 -3.941064e-01   
             
2.216000e+09  7.795329e-01 -4.033590e-01   
             
2.220000e+09  7.709736e-01 -4.126296e-01   
             
2.224000e+09  7.621254e-01 -4.219494e-01   
             
2.228000e+09  7.529422e-01 -4.313424e-01   
             
2.232000e+09  7.433660e-01 -4.408220e-01   
             
2.236000e+09  7.333304e-01 -4.503873e-01   
             
2.240000e+09  7.227650e-01 -4.600211e-01   
             
2.244000e+09  7.115995e-01 -4.696891e-01   
             
2.248000e+09  6.997690e-01 -4.793408e-01   
             
2.252000e+09  6.872177e-01 -4.889114e-01   
             
2.256000e+09  6.739023e-01 -4.983254e-01   
             
2.260000e+09  6.597944e-01 -5.075007e-01   
             
2.264000e+09  6.448806e-01 -5.163534e-01   
             
2.268000e+09  6.291615e-01 -5.248028e-01   
             
2.272000e+09  6.126487e-01 -5.327750e-01   
             
2.276000e+09  5.953611e-01 -5.402060e-01   
             
2.280000e+09  5.773192e-01 -5.470433e-01   
             
2.284000e+09  5.585398e-01 -5.532446e-01   
             
2.288000e+09  5.390305e-01 -5.587757e-01   
             
2.292000e+09  5.187853e-01 -5.636053e-01   
             
2.296000e+09  4.977818e-01 -5.676982e-01   
             
2.300000e+09  4.759804e-01 -5.710083e-01   
             
2.304000e+09  4.533263e-01 -5.734692e-01   
             
2.308000e+09  4.297544e-01 -5.749865e-01   
             
2.312000e+09  4.051970e-01 -5.754301e-01   
             
2.316000e+09  3.795943e-01 -5.746297e-01   
             
2.320000e+09  3.529070e-01 -5.723720e-01   
             
2.324000e+09  3.251300e-01 -5.684018e-01   
             
2.328000e+09  2.963066e-01 -5.624277e-01   
             
2.332000e+09  2.665423e-01 -5.541311e-01   
             
2.336000e+09  2.360158e-01 -5.431800e-01   
             
2.340000e+09  2.049875e-01 -5.292461e-01   
             
2.344000e+09  1.738029e-01 -5.120247e-01   
             
2.348000e+09  1.428921e-01 -4.912564e-01   
             
2.352000e+09  1.127623e-01 -4.667487e-01   
             
2.356000e+09  8.398537e-02 -4.383966e-01   
             
2.360000e+09  5.717974e-02 -4.062000e-01   
             
2.364000e+09  3.298789e-02 -3.702771e-01   
             
2.368000e+09  1.205016e-02 -3.308717e-01   
             
2.372000e+09 -5.023107e-03 -2.883544e-01   
             
2.376000e+09 -1.767956e-02 -2.432169e-01   
             
2.380000e+09 -2.545121e-02 -1.960598e-01   
             
2.384000e+09 -2.797734e-02 -1.475740e-01   
             
2.388000e+09 -2.502271e-02 -9.851687e-02   
             
2.392000e+09 -1.648984e-02 -4.968593e-02   
             
2.396000e+09 -2.424744e-03 -1.889139e-03   
             
2.400000e+09  1.698400e-02  4.408431e-02   
             
2.404000e+09  4.141262e-02  8.749221e-02   
             
2.408000e+09  7.041544e-02  1.276648e-01   
             
2.412000e+09  1.034430e-01  1.640265e-01   
             
2.416000e+09  1.398639e-01  1.961127e-01   
             
2.420000e+09  1.789895e-01  2.235814e-01   
             
2.424000e+09  2.200996e-01  2.462190e-01   
             
2.428000e+09  2.624681e-01  2.639412e-01   
             
2.432000e+09  3.053880e-01  2.767879e-01   
             
2.436000e+09  3.481937e-01  2.849134e-01   
             
2.440000e+09  3.902807e-01  2.885732e-01   
             
2.444000e+09  4.311213e-01  2.881066e-01   
             
2.448000e+09  4.702761e-01  2.839171e-01   
             
2.452000e+09  5.074006e-01  2.764523e-01   
             
2.456000e+09  5.422478e-01  2.661823e-01   
             
2.460000e+09  5.746651e-01  2.535796e-01   
             
2.464000e+09  6.045883e-01  2.391006e-01   
             
2.468000e+09  6.320308e-01  2.231699e-01   
             
2.472000e+09  6.570712e-01  2.061675e-01   
             
2.476000e+09  6.798379e-01  1.884203e-01   
             
2.480000e+09  7.004938e-01  1.701976e-01   
             
2.484000e+09  7.192210e-01  1.517100e-01   
             
2.488000e+09  7.362067e-01  1.331126e-01   
             
2.492000e+09  7.516309e-01  1.145110e-01   
             
2.496000e+09  7.656572e-01  9.596894e-02   
             
2.500000e+09  7.784262e-01  7.751872e-02   
             
2.504000e+09  7.900522e-01  5.917072e-02   
             
2.508000e+09  8.006227e-01  4.092341e-02   
             
2.512000e+09  8.102008e-01  2.277200e-02   
             
2.516000e+09  8.188289e-01  4.715446e-03   
             
2.520000e+09  8.265351e-01 -1.323859e-02   
             
2.524000e+09  8.333386e-01 -3.107105e-02   
             
2.528000e+09  8.392563e-01 -4.875095e-02   
             
2.532000e+09  8.443085e-01 -6.623688e-02   
             
2.536000e+09  8.485232e-01 -8.347997e-02   
             
2.540000e+09  8.519388e-01 -1.004281e-01   
             
2.544000e+09  8.546055e-01 -1.170305e-01   
             
2.548000e+09  8.565851e-01 -1.332425e-01   
             
2.552000e+09  8.579484e-01 -1.490295e-01   
             
2.556000e+09  8.587723e-01 -1.643699e-01   
             
2.560000e+09  8.591359e-01 -1.792574e-01   
             
2.564000e+09  8.591155e-01 -1.937007e-01   
             
2.568000e+09  8.587812e-01 -2.077231e-01   
             
2.572000e+09  8.581922e-01 -2.213595e-01   
             
2.576000e+09  8.573949e-01 -2.346535e-01   
             
2.580000e+09  8.564208e-01 -2.476532e-01   
             
2.584000e+09  8.552865e-01 -2.604065e-01   
             
2.588000e+09  8.539945e-01 -2.729578e-01   
             
2.592000e+09  8.525357e-01 -2.853434e-01   
             
2.596000e+09  8.508925e-01 -2.975899e-01   
             
2.600000e+09  8.490423e-01 -3.097118e-01   
             
2.604000e+09  8.469617e-01 -3.217116e-01   
             
2.608000e+09  8.446301e-01 -3.335804e-01   
             
2.612000e+09  8.420331e-01 -3.453002e-01   
             
2.616000e+09  8.391650e-01 -3.568462e-01   
             
2.620000e+09  8.360298e-01 -3.681905e-01   
             
2.624000e+09  8.326421e-01 -3.793055e-01   
             
2.628000e+09  8.290258e-01 -3.901672e-01   
             
2.632000e+09  8.252127e-01 -4.007584e-01   
             
2.636000e+09  8.212395e-01 -4.110706e-01   
             
2.640000e+09  8.171449e-01 -4.211051e-01   
             
2.644000e+09  8.129666e-01 -4.308734e-01   
             
2.648000e+09  8.087377e-01 -4.403963e-01   
             
2.652000e+09  8.044843e-01 -4.497018e-01   
             
2.656000e+09  8.002238e-01 -4.588231e-01   
             
2.660000e+09  7.959633e-01 -4.677952e-01   
             
2.664000e+09  7.917001e-01 -4.766518e-01   
             
2.668000e+09  7.874223e-01 -4.854228e-01   
             
2.672000e+09  7.831109e-01 -4.941314e-01   
             
2.676000e+09  7.787417e-01 -5.027924e-01   
             
2.680000e+09  7.742885e-01 -5.114113e-01   
             
2.684000e+09  7.697260e-01 -5.199841e-01   
             
2.688000e+09  7.650328e-01 -5.284985e-01   
             
2.692000e+09  7.601934e-01 -5.369356e-01   
             
2.696000e+09  7.551999e-01 -5.452716e-01   
             
2.700000e+09  7.500534e-01 -5.534815e-01   
             
2.704000e+09  7.447634e-01 -5.615410e-01   
             
2.708000e+09  7.393473e-01 -5.694298e-01   
             
2.712000e+09  7.338285e-01 -5.771336e-01   
             
2.716000e+09  7.282343e-01 -5.846455e-01   
             
2.720000e+09  7.225933e-01 -5.919673e-01   
             
2.724000e+09  7.169327e-01 -5.991090e-01   
             
2.728000e+09  7.112754e-01 -6.060879e-01   
             
2.732000e+09  7.056385e-01 -6.129273e-01   
             
2.736000e+09  7.000315e-01 -6.196540e-01   
             
2.740000e+09  6.944553e-01 -6.262958e-01   
             
2.744000e+09  6.889028e-01 -6.328791e-01   
             
2.748000e+09  6.833597e-01 -6.394262e-01   
             
2.752000e+09  6.778058e-01 -6.459532e-01   
             
2.756000e+09  6.722177e-01 -6.524691e-01   
             
2.760000e+09  6.665708e-01 -6.589745e-01   
             
2.764000e+09  6.608421e-01 -6.654621e-01   
             
2.768000e+09  6.550125e-01 -6.719178e-01   
             
2.772000e+09  6.490687e-01 -6.783219e-01   
             
