#   Hz   S  RI   R   50
! 
1.400000e+09  4.226618e-01  8.769390e-01   
             
1.404000e+09  4.291492e-01  8.746419e-01   
             
1.408000e+09  4.357988e-01  8.720841e-01   
             
1.412000e+09  4.425291e-01  8.692226e-01   
             
1.416000e+09  4.492503e-01  8.660427e-01   
             
1.420000e+09  4.558738e-01  8.625591e-01   
             
1.424000e+09  4.623218e-01  8.588132e-01   
             
1.428000e+09  4.685345e-01  8.548679e-01   
             
1.432000e+09  4.744756e-01  8.508006e-01   
             
1.436000e+09  4.801358e-01  8.466950e-01   
             
1.440000e+09  4.855325e-01  8.426319e-01   
             
1.444000e+09  4.907070e-01  8.386812e-01   
             
1.448000e+09  4.957201e-01  8.348951e-01   
             
1.452000e+09  5.006445e-01  8.313034e-01   
             
1.456000e+09  5.055576e-01  8.279109e-01   
             
1.460000e+09  5.105330e-01  8.246979e-01   
             
1.464000e+09  5.156332e-01  8.216227e-01   
             
1.468000e+09  5.209037e-01  8.186268e-01   
             
1.472000e+09  5.263684e-01  8.156411e-01   
             
1.476000e+09  5.320279e-01  8.125935e-01   
             
1.480000e+09  5.378602e-01  8.094164e-01   
             
1.484000e+09  5.438233e-01  8.060534e-01   
             
1.488000e+09  5.498601e-01  8.024648e-01   
             
1.492000e+09  5.559049e-01  7.986315e-01   
             
1.496000e+09  5.618900e-01  7.945563e-01   
             
1.500000e+09  5.677530e-01  7.902630e-01   
             
1.504000e+09  5.734430e-01  7.857932e-01   
             
1.508000e+09  5.789254e-01  7.812021e-01   
             
1.512000e+09  5.841853e-01  7.765518e-01   
             
1.516000e+09  5.892279e-01  7.719053e-01   
             
1.520000e+09  5.940782e-01  7.673194e-01   
             
1.524000e+09  5.987769e-01  7.628397e-01   
             
1.528000e+09  6.033767e-01  7.584957e-01   
             
1.532000e+09  6.079361e-01  7.542988e-01   
             
1.536000e+09  6.125130e-01  7.502408e-01   
             
1.540000e+09  6.171593e-01  7.462960e-01   
             
1.544000e+09  6.219153e-01  7.424241e-01   
             
1.548000e+09  6.268061e-01  7.385743e-01   
             
1.552000e+09  6.318390e-01  7.346914e-01   
             
1.556000e+09  6.370037e-01  7.307212e-01   
             
1.560000e+09  6.422732e-01  7.266163e-01   
             
1.564000e+09  6.476072e-01  7.223404e-01   
             
1.568000e+09  6.529568e-01  7.178725e-01   
             
1.572000e+09  6.582691e-01  7.132080e-01   
             
1.576000e+09  6.634934e-01  7.083594e-01   
             
1.580000e+09  6.685858e-01  7.033541e-01   
             
1.584000e+09  6.735140e-01  6.982317e-01   
             
1.588000e+09  6.782600e-01  6.930394e-01   
             
1.592000e+09  6.828218e-01  6.878269e-01   
             
1.596000e+09  6.872129e-01  6.826415e-01   
             
1.600000e+09  6.914611e-01  6.775230e-01   
             
1.604000e+09  6.956046e-01  6.725001e-01   
             
1.608000e+09  6.996885e-01  6.675875e-01   
             
1.612000e+09  7.037594e-01  6.627848e-01   
             
1.616000e+09  7.078609e-01  6.580770e-01   
             
1.620000e+09  7.120290e-01  6.534360e-01   
             
1.624000e+09  7.162888e-01  6.488243e-01   
             
1.628000e+09  7.206517e-01  6.441987e-01   
             
1.632000e+09  7.251150e-01  6.395148e-01   
             
1.636000e+09  7.296618e-01  6.347321e-01   
             
1.640000e+09  7.342638e-01  6.298177e-01   
             
1.644000e+09  7.388836e-01  6.247494e-01   
             
1.648000e+09  7.434795e-01  6.195184e-01   
             
1.652000e+09  7.480090e-01  6.141295e-01   
             
1.656000e+09  7.524342e-01  6.086002e-01   
             
1.660000e+09  7.567245e-01  6.029593e-01   
             
1.664000e+09  7.608607e-01  5.972431e-01   
             
1.668000e+09  7.648356e-01  5.914918e-01   
             
1.672000e+09  7.686556e-01  5.857452e-01   
             
1.676000e+09  7.723389e-01  5.800389e-01   
             
1.680000e+09  7.759137e-01  5.744002e-01   
             
1.684000e+09  7.794152e-01  5.688461e-01   
             
1.688000e+09  7.828817e-01  5.633811e-01   
             
1.692000e+09  7.863506e-01  5.579975e-01   
             
1.696000e+09  7.898544e-01  5.526762e-01   
             
1.700000e+09  7.934178e-01  5.473889e-01   
             
1.704000e+09  7.970547e-01  5.421011e-01   
             
1.708000e+09  8.007676e-01  5.367760e-01   
             
1.712000e+09  8.045469e-01  5.313780e-01   
             
1.716000e+09  8.083725e-01  5.258769e-01   
             
1.720000e+09  8.122156e-01  5.202504e-01   
             
1.724000e+09  8.160423e-01  5.144864e-01   
             
1.728000e+09  8.198167e-01  5.085844e-01   
             
1.732000e+09  8.235050e-01  5.025551e-01   
             
1.736000e+09  8.270784e-01  4.964194e-01   
             
1.740000e+09  8.305167e-01  4.902056e-01   
             
1.744000e+09  8.338095e-01  4.839469e-01   
             
1.748000e+09  8.369577e-01  4.776777e-01   
             
1.752000e+09  8.399727e-01  4.714301e-01   
             
1.756000e+09  8.428756e-01  4.652304e-01   
             
1.760000e+09  8.456942e-01  4.590969e-01   
             
1.764000e+09  8.484607e-01  4.530378e-01   
             
1.768000e+09  8.512078e-01  4.470506e-01   
             
1.772000e+09  8.539653e-01  4.411227e-01   
             
1.776000e+09  8.567576e-01  4.352324e-01   
             
1.780000e+09  8.596003e-01  4.293519e-01   
             
1.784000e+09  8.624997e-01  4.234496e-01   
             
1.788000e+09  8.654514e-01  4.174940e-01   
             
1.792000e+09  8.684414e-01  4.114565e-01   
             
1.796000e+09  8.714473e-01  4.053146e-01   
             
1.800000e+09  8.744407e-01  3.990542e-01   
             
1.804000e+09  8.773907e-01  3.926706e-01   
             
1.808000e+09  8.802663e-01  3.861696e-01   
             
1.812000e+09  8.830401e-01  3.795658e-01   
             
1.816000e+09  8.856910e-01  3.728820e-01   
             
1.820000e+09  8.882062e-01  3.661462e-01   
             
1.824000e+09  8.905822e-01  3.593886e-01   
             
1.828000e+09  8.928257e-01  3.526388e-01   
             
1.832000e+09  8.949518e-01  3.459226e-01   
             
1.836000e+09  8.969834e-01  3.392593e-01   
             
1.840000e+09  8.989477e-01  3.326600e-01   
             
1.844000e+09  9.008741e-01  3.261261e-01   
             
1.848000e+09  9.027908e-01  3.196500e-01   
             
1.852000e+09  9.047216e-01  3.132150e-01   
             
1.856000e+09  9.066841e-01  3.067981e-01   
             
1.860000e+09  9.086871e-01  3.003716e-01   
             
1.864000e+09  9.107305e-01  2.939066e-01   
             
1.868000e+09  9.128048e-01  2.873757e-01   
             
1.872000e+09  9.148922e-01  2.807561e-01   
             
1.876000e+09  9.169688e-01  2.740314e-01   
             
1.880000e+09  9.190066e-01  2.671940e-01   
             
1.884000e+09  9.209768e-01  2.602452e-01   
             
1.888000e+09  9.228526e-01  2.531953e-01   
             
1.892000e+09  9.246117e-01  2.460626e-01   
             
1.896000e+09  9.262389e-01  2.388712e-01   
             
1.900000e+09  9.277276e-01  2.316486e-01   
             
1.904000e+09  9.290799e-01  2.244227e-01   
             
1.908000e+09  9.303069e-01  2.172193e-01   
             
1.912000e+09  9.314271e-01  2.100588e-01   
             
1.916000e+09  9.324644e-01  2.029549e-01   
             
1.920000e+09  9.334458e-01  1.959124e-01   
             
1.924000e+09  9.343984e-01  1.889273e-01   
             
1.928000e+09  9.353464e-01  1.819872e-01   
             
1.932000e+09  9.363087e-01  1.750723e-01   
             
1.936000e+09  9.372969e-01  1.681578e-01   
             
1.940000e+09  9.383141e-01  1.612163e-01   
             
1.944000e+09  9.393545e-01  1.542208e-01   
             
1.948000e+09  9.404038e-01  1.471473e-01   
             
1.952000e+09  9.414409e-01  1.399776e-01   
             
1.956000e+09  9.424400e-01  1.327007e-01   
             
1.960000e+09  9.433732e-01  1.253145e-01   
             
1.964000e+09  9.442130e-01  1.178255e-01   
             
1.968000e+09  9.449359e-01  1.102486e-01   
             
1.972000e+09  9.455239e-01  1.026050e-01   
             
1.976000e+09  9.459668e-01  9.492046e-02   
             
1.980000e+09  9.462631e-01  8.722230e-02   
             
1.984000e+09  9.464200e-01  7.953677e-02   
             
1.988000e+09  9.464527e-01  7.188617e-02   
             
1.992000e+09  9.463827e-01  6.428659e-02   
             
1.996000e+09  9.462355e-01  5.674618e-02   
             
2.000000e+09  9.460376e-01  4.926431e-02   
             
2.004000e+09  9.458142e-01  4.183160e-02   
             
2.008000e+09  9.455861e-01  3.443086e-02   
             
2.012000e+09  9.453673e-01  2.703885e-02   
             
2.016000e+09  9.451641e-01  1.962869e-02   
             
2.020000e+09  9.449733e-01  1.217262e-02   
             
2.024000e+09  9.447834e-01  4.644899e-03   
             
2.028000e+09  9.445748e-01 -2.975546e-03   
             
2.032000e+09  9.443226e-01 -1.070288e-02   
             
2.036000e+09  9.439980e-01 -1.854289e-02   
             
2.040000e+09  9.435721e-01 -2.649231e-02   
             
2.044000e+09  9.430183e-01 -3.453919e-02   
             
2.048000e+09  9.423152e-01 -4.266405e-02   
             
2.052000e+09  9.414483e-01 -5.084191e-02   
             
2.056000e+09  9.404120e-01 -5.904489e-02   
             
2.060000e+09  9.392098e-01 -6.724511e-02   
             
2.064000e+09  9.378538e-01 -7.541764e-02   
             
2.068000e+09  9.363635e-01 -8.354312e-02   
             
2.072000e+09  9.347635e-01 -9.160988e-02   
             
2.076000e+09  9.330808e-01 -9.961525e-02   
             
2.080000e+09  9.313420e-01 -1.075659e-01   
             
2.084000e+09  9.295701e-01 -1.154773e-01   
             
2.088000e+09  9.277821e-01 -1.233722e-01   
             
2.092000e+09  9.259865e-01 -1.312783e-01   
             
2.096000e+09  9.241827e-01 -1.392254e-01   
             
2.100000e+09  9.223601e-01 -1.472424e-01   
             
2.104000e+09  9.204995e-01 -1.553543e-01   
             
2.108000e+09  9.185742e-01 -1.635794e-01   
             
2.112000e+09  9.165527e-01 -1.719274e-01   
             
2.116000e+09  9.144018e-01 -1.803982e-01   
             
2.120000e+09  9.120893e-01 -1.889821e-01   
             
2.124000e+09  9.095878e-01 -1.976602e-01   
             
2.128000e+09  9.068768e-01 -2.064068e-01   
             
2.132000e+09  9.039446e-01 -2.151916e-01   
             
2.136000e+09  9.007897e-01 -2.239829e-01   
             
2.140000e+09  8.974204e-01 -2.327513e-01   
             
2.144000e+09  8.938540e-01 -2.414724e-01   
             
2.148000e+09  8.901143e-01 -2.501296e-01   
             
2.152000e+09  8.862291e-01 -2.587161e-01   
             
2.156000e+09  8.822268e-01 -2.672355e-01   
             
2.160000e+09  8.781326e-01 -2.757022e-01   
             
2.164000e+09  8.739659e-01 -2.841392e-01   
             
2.168000e+09  8.697368e-01 -2.925766e-01   
             
2.172000e+09  8.654450e-01 -3.010479e-01   
             
2.176000e+09  8.610782e-01 -3.095870e-01   
             
2.180000e+09  8.566134e-01 -3.182241e-01   
             
2.184000e+09  8.520176e-01 -3.269826e-01   
             
2.188000e+09  8.472507e-01 -3.358761e-01   
             
2.192000e+09  8.422689e-01 -3.449069e-01   
             
2.196000e+09  8.370282e-01 -3.540652e-01   
             
2.200000e+09  8.314885e-01 -3.633296e-01   
             
2.204000e+09  8.256167e-01 -3.726689e-01   
             
2.208000e+09  8.193898e-01 -3.820451e-01   
             
2.212000e+09  8.127963e-01 -3.914168e-01   
             
2.216000e+09  8.058368e-01 -4.007434e-01   
             
2.220000e+09  7.985231e-01 -4.099892e-01   
             
2.224000e+09  7.908760e-01 -4.191265e-01   
             
2.228000e+09  7.829218e-01 -4.281391e-01   
             
2.232000e+09  7.746887e-01 -4.370233e-01   
             
2.236000e+09  7.662016e-01 -4.457883e-01   
             
2.240000e+09  7.574783e-01 -4.544550e-01   
             
2.244000e+09  7.485253e-01 -4.630533e-01   
             
2.248000e+09  7.393350e-01 -4.716181e-01   
             
2.252000e+09  7.298838e-01 -4.801850e-01   
             
2.256000e+09  7.201323e-01 -4.887851e-01   
             
2.260000e+09  7.100266e-01 -4.974396e-01   
             
2.264000e+09  6.995013e-01 -5.061564e-01   
             
2.268000e+09  6.884837e-01 -5.149262e-01   
             
2.272000e+09  6.768990e-01 -5.237208e-01   
             
2.276000e+09  6.646753e-01 -5.324933e-01   
             
2.280000e+09  6.517495e-01 -5.411797e-01   
             
2.284000e+09  6.380711e-01 -5.497017e-01   
             
2.288000e+09  6.236054e-01 -5.579718e-01   
             
2.292000e+09  6.083353e-01 -5.658984e-01   
             
2.296000e+09  5.922604e-01 -5.733911e-01   
             
2.300000e+09  5.753947e-01 -5.803663e-01   
             
2.304000e+09  5.577624e-01 -5.867508e-01   
             
2.308000e+09  5.393924e-01 -5.924845e-01   
             
2.312000e+09  5.203118e-01 -5.975200e-01   
             
2.316000e+09  5.005397e-01 -6.018209e-01   
             
2.320000e+09  4.800816e-01 -6.053568e-01   
             
2.324000e+09  4.589253e-01 -6.080963e-01   
             
2.328000e+09  4.370396e-01 -6.099989e-01   
             
2.332000e+09  4.143752e-01 -6.110051e-01   
             
2.336000e+09  3.908700e-01 -6.110270e-01   
             
2.340000e+09  3.664567e-01 -6.099399e-01   
             
2.344000e+09  3.410740e-01 -6.075759e-01   
             
2.348000e+09  3.146808e-01 -6.037211e-01   
             
2.352000e+09  2.872711e-01 -5.981157e-01   
             
2.356000e+09  2.588903e-01 -5.904601e-01   
             
2.360000e+09  2.296504e-01 -5.804249e-01   
             
2.364000e+09  1.997427e-01 -5.676660e-01   
             
2.368000e+09  1.694468e-01 -5.518440e-01   
             
2.372000e+09  1.391354e-01 -5.326462e-01   
             
2.376000e+09  1.092721e-01 -5.098112e-01   
             
2.380000e+09  8.040295e-02 -4.831532e-01   
             
2.384000e+09  5.314228e-02 -4.525845e-01   
             
2.388000e+09  2.815105e-02 -4.181347e-01   
             
2.392000e+09  6.110940e-03 -3.799647e-01   
             
2.396000e+09 -1.230549e-02 -3.383735e-01   
             
2.400000e+09 -2.646639e-02 -2.937984e-01   
             
2.404000e+09 -3.581185e-02 -2.468063e-01   
             
2.408000e+09 -3.988281e-02 -1.980780e-01   
             
2.412000e+09 -3.834555e-02 -1.483858e-01   
             
2.416000e+09 -3.101026e-02 -9.856526e-02   
             
2.420000e+09 -1.784258e-02 -4.948396e-02   
             
2.424000e+09  1.032551e-03 -2.007915e-03   
             
2.428000e+09  2.533478e-02  4.303138e-02   
             
2.432000e+09  5.463946e-02  8.486796e-02   
             
2.436000e+09  8.839523e-02  1.228287e-01   
             
2.440000e+09  1.259468e-01  1.563557e-01   
             
2.444000e+09  1.665614e-01  1.850229e-01   
             
2.448000e+09  2.094580e-01  2.085460e-01   
             
2.452000e+09  2.538367e-01  2.267865e-01   
             
2.456000e+09  2.989084e-01  2.397486e-01   
             
2.460000e+09  3.439215e-01  2.475707e-01   
             
2.464000e+09  3.881865e-01  2.505114e-01   
             
2.468000e+09  4.310956e-01  2.489311e-01   
             
2.472000e+09  4.721387e-01  2.432706e-01   
             
2.476000e+09  5.109124e-01  2.340270e-01   
             
2.480000e+09  5.471249e-01  2.217295e-01   
             
2.484000e+09  5.805943e-01  2.069149e-01   
             
2.488000e+09  6.112426e-01  1.901055e-01   
             
2.492000e+09  6.390842e-01  1.717893e-01   
             
2.496000e+09  6.642114e-01  1.524044e-01   
             
2.500000e+09  6.867770e-01  1.323276e-01   
             
2.504000e+09  7.069762e-01  1.118683e-01   
             
2.508000e+09  7.250280e-01  9.126645e-02   
             
2.512000e+09  7.411579e-01  7.069583e-02   
             
2.516000e+09  7.555832e-01  5.027066e-02   
             
2.520000e+09  7.685014e-01  3.005527e-02   
             
2.524000e+09  7.800819e-01  1.007564e-02   
             
2.528000e+09  7.904617e-01 -9.668279e-03   
             
2.532000e+09  7.997453e-01 -2.919071e-02   
             
2.536000e+09  8.080065e-01 -4.850935e-02   
             
2.540000e+09  8.152942e-01 -6.763683e-02   
             
2.544000e+09  8.216387e-01 -8.657465e-02   
             
2.548000e+09  8.270599e-01 -1.053099e-01   
             
2.552000e+09  8.315746e-01 -1.238146e-01   
             
2.556000e+09  8.352032e-01 -1.420479e-01   
             
2.560000e+09  8.379755e-01 -1.599594e-01   
             
2.564000e+09  8.399336e-01 -1.774945e-01   
             
2.568000e+09  8.411337e-01 -1.946004e-01   
             
2.572000e+09  8.416452e-01 -2.112310e-01   
             
2.576000e+09  8.415480e-01 -2.273525e-01   
             
2.580000e+09  8.409285e-01 -2.429464e-01   
             
2.584000e+09  8.398748e-01 -2.580118e-01   
             
2.588000e+09  8.384711e-01 -2.725655e-01   
             
2.592000e+09  8.367927e-01 -2.866401e-01   
             
2.596000e+09  8.349019e-01 -3.002812e-01   
             
2.600000e+09  8.328451e-01 -3.135430e-01   
             
2.604000e+09  8.306509e-01 -3.264832e-01   
             
2.608000e+09  8.283307e-01 -3.391579e-01   
             
2.612000e+09  8.258804e-01 -3.516169e-01   
             
2.616000e+09  8.232832e-01 -3.638997e-01   
             
2.620000e+09  8.205140e-01 -3.760325e-01   
             
2.624000e+09  8.175438e-01 -3.880275e-01   
             
2.628000e+09  8.143446e-01 -3.998825e-01   
             
2.632000e+09  8.108938e-01 -4.115828e-01   
             
2.636000e+09  8.071775e-01 -4.231039e-01   
             
2.640000e+09  8.031931e-01 -4.344154e-01   
             
2.644000e+09  7.989501e-01 -4.454852e-01   
             
2.648000e+09  7.944700e-01 -4.562834e-01   
             
2.652000e+09  7.897846e-01 -4.667868e-01   
             
2.656000e+09  7.849332e-01 -4.769811e-01   
             
2.660000e+09  7.799590e-01 -4.868636e-01   
             
2.664000e+09  7.749056e-01 -4.964434e-01   
             
2.668000e+09  7.698124e-01 -5.057411e-01   
             
2.672000e+09  7.647119e-01 -5.147868e-01   
             
2.676000e+09  7.596265e-01 -5.236176e-01   
             
2.680000e+09  7.545672e-01 -5.322738e-01   
             
2.684000e+09  7.495331e-01 -5.407954e-01   
             
2.688000e+09  7.445121e-01 -5.492185e-01   
             
2.692000e+09  7.394831e-01 -5.575719e-01   
             
2.696000e+09  7.344183e-01 -5.658750e-01   
             
2.700000e+09  7.292870e-01 -5.741361e-01   
             
2.704000e+09  7.240589e-01 -5.823526e-01   
             
2.708000e+09  7.187076e-01 -5.905114e-01   
             
2.712000e+09  7.132136e-01 -5.985911e-01   
             
2.716000e+09  7.075667e-01 -6.065649e-01   
             
2.720000e+09  7.017666e-01 -6.144034e-01   
             
2.724000e+09  6.958234e-01 -6.220786e-01   
             
2.728000e+09  6.897567e-01 -6.295666e-01   
             
2.732000e+09  6.835931e-01 -6.368506e-01   
             
2.736000e+09  6.773640e-01 -6.439230e-01   
             
2.740000e+09  6.711023e-01 -6.507858e-01   
             
2.744000e+09  6.648390e-01 -6.574512e-01   
             
2.748000e+09  6.586000e-01 -6.639400e-01   
             
2.752000e+09  6.524041e-01 -6.702796e-01   
             
2.756000e+09  6.462609e-01 -6.765016e-01   
             
2.760000e+09  6.401699e-01 -6.826383e-01   
             
2.764000e+09  6.341211e-01 -6.887196e-01   
             
2.768000e+09  6.280963e-01 -6.947703e-01   
             
2.772000e+09  6.220708e-01 -7.008078e-01   
             
