#   Hz   S  RI   R   50
! 
1.400000e+09  2.529535e-01  9.450259e-01   
             
1.404000e+09  2.590237e-01  9.424320e-01   
             
1.408000e+09  2.648112e-01  9.398418e-01   
             
1.412000e+09  2.703491e-01  9.373406e-01   
             
1.416000e+09  2.756952e-01  9.349970e-01   
             
1.420000e+09  2.809255e-01  9.328564e-01   
             
1.424000e+09  2.861252e-01  9.309368e-01   
             
1.428000e+09  2.913793e-01  9.292276e-01   
             
1.432000e+09  2.967639e-01  9.276917e-01   
             
1.436000e+09  3.023378e-01  9.262702e-01   
             
1.440000e+09  3.081371e-01  9.248891e-01   
             
1.444000e+09  3.141719e-01  9.234679e-01   
             
1.448000e+09  3.204256e-01  9.219281e-01   
             
1.452000e+09  3.268577e-01  9.202019e-01   
             
1.456000e+09  3.334086e-01  9.182388e-01   
             
1.460000e+09  3.400068e-01  9.160107e-01   
             
1.464000e+09  3.465762e-01  9.135145e-01   
             
1.468000e+09  3.530452e-01  9.107714e-01   
             
1.472000e+09  3.593536e-01  9.078240e-01   
             
1.476000e+09  3.654591e-01  9.047313e-01   
             
1.480000e+09  3.713409e-01  9.015619e-01   
             
1.484000e+09  3.770018e-01  8.983860e-01   
             
1.488000e+09  3.824667e-01  8.952685e-01   
             
1.492000e+09  3.877796e-01  8.922615e-01   
             
1.496000e+09  3.929983e-01  8.893999e-01   
             
1.500000e+09  3.981879e-01  8.866972e-01   
             
1.504000e+09  4.034133e-01  8.841455e-01   
             
1.508000e+09  4.087329e-01  8.817164e-01   
             
1.512000e+09  4.141919e-01  8.793646e-01   
             
1.516000e+09  4.198179e-01  8.770332e-01   
             
1.520000e+09  4.256188e-01  8.746601e-01   
             
1.524000e+09  4.315817e-01  8.721846e-01   
             
1.528000e+09  4.376754e-01  8.695541e-01   
             
1.532000e+09  4.438535e-01  8.667296e-01   
             
1.536000e+09  4.500604e-01  8.636890e-01   
             
1.540000e+09  4.562370e-01  8.604298e-01   
             
1.544000e+09  4.623271e-01  8.569684e-01   
             
1.548000e+09  4.682836e-01  8.533379e-01   
             
1.552000e+09  4.740731e-01  8.495845e-01   
             
1.556000e+09  4.796792e-01  8.457619e-01   
             
1.560000e+09  4.851036e-01  8.419254e-01   
             
1.564000e+09  4.903658e-01  8.381262e-01   
             
1.568000e+09  4.955003e-01  8.344055e-01   
             
1.572000e+09  5.005527e-01  8.307911e-01   
             
1.576000e+09  5.055744e-01  8.272940e-01   
             
1.580000e+09  5.106172e-01  8.239081e-01   
             
1.584000e+09  5.157272e-01  8.206108e-01   
             
1.588000e+09  5.209408e-01  8.173662e-01   
             
1.592000e+09  5.262802e-01  8.141288e-01   
             
1.596000e+09  5.317517e-01  8.108491e-01   
             
1.600000e+09  5.373451e-01  8.074782e-01   
             
1.604000e+09  5.430354e-01  8.039738e-01   
             
1.608000e+09  5.487853e-01  8.003042e-01   
             
1.612000e+09  5.545500e-01  7.964515e-01   
             
1.616000e+09  5.602815e-01  7.924132e-01   
             
1.620000e+09  5.659343e-01  7.882026e-01   
             
1.624000e+09  5.714698e-01  7.838463e-01   
             
1.628000e+09  5.768606e-01  7.793817e-01   
             
1.632000e+09  5.820928e-01  7.748526e-01   
             
1.636000e+09  5.871678e-01  7.703042e-01   
             
1.640000e+09  5.921011e-01  7.657785e-01   
             
1.644000e+09  5.969208e-01  7.613095e-01   
             
1.648000e+09  6.016641e-01  7.569203e-01   
             
1.652000e+09  6.063735e-01  7.526201e-01   
             
1.656000e+09  6.110916e-01  7.484041e-01   
             
1.660000e+09  6.158567e-01  7.442539e-01   
             
1.664000e+09  6.206991e-01  7.401397e-01   
             
1.668000e+09  6.256373e-01  7.360238e-01   
             
1.672000e+09  6.306768e-01  7.318648e-01   
             
1.676000e+09  6.358092e-01  7.276220e-01   
             
1.680000e+09  6.410137e-01  7.232597e-01   
             
1.684000e+09  6.462591e-01  7.187511e-01   
             
1.688000e+09  6.515077e-01  7.140808e-01   
             
1.692000e+09  6.567191e-01  7.092467e-01   
             
1.696000e+09  6.618544e-01  7.042594e-01   
             
1.700000e+09  6.668810e-01  6.991414e-01   
             
1.704000e+09  6.717751e-01  6.939242e-01   
             
1.708000e+09  6.765249e-01  6.886449e-01   
             
1.712000e+09  6.811308e-01  6.833421e-01   
             
1.716000e+09  6.856060e-01  6.780516e-01   
             
1.720000e+09  6.899742e-01  6.728028e-01   
             
1.724000e+09  6.942673e-01  6.676156e-01   
             
1.728000e+09  6.985215e-01  6.624983e-01   
             
1.732000e+09  7.027736e-01  6.574468e-01   
             
1.736000e+09  7.070568e-01  6.524452e-01   
             
1.740000e+09  7.113973e-01  6.474681e-01   
             
1.744000e+09  7.158114e-01  6.424826e-01   
             
1.748000e+09  7.203041e-01  6.374526e-01   
             
1.752000e+09  7.248681e-01  6.323424e-01   
             
1.756000e+09  7.294853e-01  6.271206e-01   
             
1.760000e+09  7.341284e-01  6.217634e-01   
             
1.764000e+09  7.387642e-01  6.162570e-01   
             
1.768000e+09  7.433570e-01  6.105991e-01   
             
1.772000e+09  7.478722e-01  6.047989e-01   
             
1.776000e+09  7.522806e-01  5.988758e-01   
             
1.780000e+09  7.565609e-01  5.928578e-01   
             
1.784000e+09  7.607020e-01  5.867776e-01   
             
1.788000e+09  7.647041e-01  5.806696e-01   
             
1.792000e+09  7.685784e-01  5.745659e-01   
             
1.796000e+09  7.723460e-01  5.684928e-01   
             
1.800000e+09  7.760353e-01  5.624685e-01   
             
1.804000e+09  7.796788e-01  5.565003e-01   
             
1.808000e+09  7.833097e-01  5.505848e-01   
             
1.812000e+09  7.869579e-01  5.447076e-01   
             
1.816000e+09  7.906473e-01  5.388456e-01   
             
1.820000e+09  7.943929e-01  5.329687e-01   
             
1.824000e+09  7.981991e-01  5.270439e-01   
             
1.828000e+09  8.020594e-01  5.210381e-01   
             
1.832000e+09  8.059571e-01  5.149223e-01   
             
1.836000e+09  8.098670e-01  5.086741e-01   
             
1.840000e+09  8.137581e-01  5.022804e-01   
             
1.844000e+09  8.175973e-01  4.957388e-01   
             
1.848000e+09  8.213521e-01  4.890572e-01   
             
1.852000e+09  8.249949e-01  4.822536e-01   
             
1.856000e+09  8.285053e-01  4.753537e-01   
             
1.860000e+09  8.318725e-01  4.683879e-01   
             
1.864000e+09  8.350964e-01  4.613883e-01   
             
1.868000e+09  8.381869e-01  4.543851e-01   
             
1.872000e+09  8.411637e-01  4.474031e-01   
             
1.876000e+09  8.440532e-01  4.404591e-01   
             
1.880000e+09  8.468860e-01  4.335604e-01   
             
1.884000e+09  8.496935e-01  4.267033e-01   
             
1.888000e+09  8.525042e-01  4.198741e-01   
             
1.892000e+09  8.553407e-01  4.130502e-01   
             
1.896000e+09  8.582171e-01  4.062025e-01   
             
1.900000e+09  8.611375e-01  3.992986e-01   
             
1.904000e+09  8.640952e-01  3.923063e-01   
             
1.908000e+09  8.670736e-01  3.851967e-01   
             
1.912000e+09  8.700477e-01  3.779477e-01   
             
1.916000e+09  8.729869e-01  3.705460e-01   
             
1.920000e+09  8.758579e-01  3.629885e-01   
             
1.924000e+09  8.786282e-01  3.552827e-01   
             
1.928000e+09  8.812699e-01  3.474460e-01   
             
1.932000e+09  8.837620e-01  3.395031e-01   
             
1.936000e+09  8.860932e-01  3.314841e-01   
             
1.940000e+09  8.882623e-01  3.234206e-01   
             
1.944000e+09  8.902788e-01  3.153422e-01   
             
1.948000e+09  8.921616e-01  3.072735e-01   
             
1.952000e+09  8.939366e-01  2.992312e-01   
             
1.956000e+09  8.956341e-01  2.912218e-01   
             
1.960000e+09  8.972849e-01  2.832413e-01   
             
1.964000e+09  8.989173e-01  2.752750e-01   
             
1.968000e+09  9.005534e-01  2.672990e-01   
             
1.972000e+09  9.022067e-01  2.592829e-01   
             
1.976000e+09  9.038802e-01  2.511926e-01   
             
1.980000e+09  9.055657e-01  2.429939e-01   
             
1.984000e+09  9.072445e-01  2.346561e-01   
             
1.988000e+09  9.088893e-01  2.261556e-01   
             
1.992000e+09  9.104661e-01  2.174776e-01   
             
1.996000e+09  9.119385e-01  2.086185e-01   
             
2.000000e+09  9.132705e-01  1.995856e-01   
             
2.004000e+09  9.144308e-01  1.903965e-01   
             
2.008000e+09  9.153953e-01  1.810772e-01   
             
2.012000e+09  9.161500e-01  1.716591e-01   
             
2.016000e+09  9.166920e-01  1.621754e-01   
             
2.020000e+09  9.170295e-01  1.526573e-01   
             
2.024000e+09  9.171808e-01  1.431305e-01   
             
2.028000e+09  9.171720e-01  1.336118e-01   
             
2.032000e+09  9.170336e-01  1.241075e-01   
             
2.036000e+09  9.167968e-01  1.146116e-01   
             
2.040000e+09  9.164895e-01  1.051065e-01   
             
2.044000e+09  9.161327e-01  9.556453e-02   
             
2.048000e+09  9.157376e-01  8.595034e-02   
             
2.052000e+09  9.153029e-01  7.622455e-02   
             
2.056000e+09  9.148150e-01  6.634778e-02   
             
2.060000e+09  9.142474e-01  5.628467e-02   
             
2.064000e+09  9.135636e-01  4.600769e-02   
             
2.068000e+09  9.127192e-01  3.550000e-02   
             
2.072000e+09  9.116664e-01  2.475737e-02   
             
2.076000e+09  9.103577e-01  1.378861e-02   
             
2.080000e+09  9.087504e-01  2.614700e-03   
             
2.084000e+09  9.068102e-01 -8.733509e-03   
             
2.088000e+09  9.045141e-01 -2.021870e-02   
             
2.092000e+09  9.018516e-01 -3.180127e-02   
             
2.096000e+09  8.988252e-01 -4.344389e-02   
             
2.100000e+09  8.954489e-01 -5.511590e-02   
             
2.104000e+09  8.917449e-01 -6.679704e-02   
             
2.108000e+09  8.877401e-01 -7.848017e-02   
             
2.112000e+09  8.834612e-01 -9.017252e-02   
             
2.116000e+09  8.789293e-01 -1.018954e-01   
             
2.120000e+09  8.741559e-01 -1.136821e-01   
             
2.124000e+09  8.691379e-01 -1.255746e-01   
             
2.128000e+09  8.638558e-01 -1.376189e-01   
             
2.132000e+09  8.582718e-01 -1.498595e-01   
             
2.136000e+09  8.523310e-01 -1.623341e-01   
             
2.140000e+09  8.459630e-01 -1.750684e-01   
             
2.144000e+09  8.390866e-01 -1.880715e-01   
             
2.148000e+09  8.316141e-01 -2.013340e-01   
             
2.152000e+09  8.234574e-01 -2.148260e-01   
             
2.156000e+09  8.145334e-01 -2.284991e-01   
             
2.160000e+09  8.047694e-01 -2.422879e-01   
             
2.164000e+09  7.941066e-01 -2.561157e-01   
             
2.168000e+09  7.825024e-01 -2.698986e-01   
             
2.172000e+09  7.699304e-01 -2.835525e-01   
             
2.176000e+09  7.563779e-01 -2.969980e-01   
             
2.180000e+09  7.418423e-01 -3.101651e-01   
             
2.184000e+09  7.263245e-01 -3.229965e-01   
             
2.188000e+09  7.098224e-01 -3.354473e-01   
             
2.192000e+09  6.923234e-01 -3.474834e-01   
             
2.196000e+09  6.737979e-01 -3.590763e-01   
             
2.200000e+09  6.541943e-01 -3.701953e-01   
             
2.204000e+09  6.334367e-01 -3.807978e-01   
             
2.208000e+09  6.114256e-01 -3.908183e-01   
             
2.212000e+09  5.880425e-01 -4.001565e-01   
             
2.216000e+09  5.631585e-01 -4.086671e-01   
             
2.220000e+09  5.366471e-01 -4.161511e-01   
             
2.224000e+09  5.083993e-01 -4.223506e-01   
             
2.228000e+09  4.783418e-01 -4.269480e-01   
             
2.232000e+09  4.464564e-01 -4.295705e-01   
             
2.236000e+09  4.127983e-01 -4.298000e-01   
             
2.240000e+09  3.775132e-01 -4.271888e-01   
             
2.244000e+09  3.408496e-01 -4.212805e-01   
             
2.248000e+09  3.031672e-01 -4.116351e-01   
             
2.252000e+09  2.649375e-01 -3.978567e-01   
             
2.256000e+09  2.267376e-01 -3.796221e-01   
             
2.260000e+09  1.892366e-01 -3.567085e-01   
             
2.264000e+09  1.531739e-01 -3.290175e-01   
             
2.268000e+09  1.193317e-01 -2.965941e-01   
             
2.272000e+09  8.850222e-02 -2.596385e-01   
             
2.276000e+09  6.145266e-02 -2.185088e-01   
             
2.280000e+09  3.888897e-02 -1.737164e-01   
             
2.284000e+09  2.142212e-02 -1.259105e-01   
             
2.288000e+09  9.538479e-03 -7.585658e-02   
             
2.292000e+09  3.576404e-03 -2.440639e-02   
             
2.296000e+09  3.710593e-03  2.753522e-02   
             
2.300000e+09  9.944949e-03  7.904693e-02   
             
2.304000e+09  2.211419e-02  1.292274e-01   
             
2.308000e+09  3.989381e-02  1.772300e-01   
             
2.312000e+09  6.281735e-02  2.222934e-01   
             
2.316000e+09  9.029977e-02  2.637673e-01   
             
2.320000e+09  1.216652e-01  3.011311e-01   
             
2.324000e+09  1.561774e-01  3.340061e-01   
             
2.328000e+09  1.930711e-01  3.621601e-01   
             
2.332000e+09  2.315826e-01  3.855050e-01   
             
2.336000e+09  2.709781e-01  4.040883e-01   
             
2.340000e+09  3.105787e-01  4.180787e-01   
             
2.344000e+09  3.497804e-01  4.277477e-01   
             
2.348000e+09  3.880693e-01  4.334471e-01   
             
2.352000e+09  4.250308e-01  4.355859e-01   
             
2.356000e+09  4.603533e-01  4.346060e-01   
             
2.360000e+09  4.938256e-01  4.309589e-01   
             
2.364000e+09  5.253303e-01  4.250847e-01   
             
2.368000e+09  5.548326e-01  4.173947e-01   
             
2.372000e+09  5.823653e-01  4.082575e-01   
             
2.376000e+09  6.080137e-01  3.979897e-01   
             
2.380000e+09  6.318977e-01  3.868518e-01   
             
2.384000e+09  6.541563e-01  3.750478e-01   
             
2.388000e+09  6.749329e-01  3.627291e-01   
             
2.392000e+09  6.943634e-01  3.500017e-01   
             
2.396000e+09  7.125674e-01  3.369349e-01   
             
2.400000e+09  7.296430e-01  3.235719e-01   
             
2.404000e+09  7.456645e-01  3.099396e-01   
             
2.408000e+09  7.606838e-01  2.960585e-01   
             
2.412000e+09  7.747337e-01  2.819503e-01   
             
2.416000e+09  7.878334e-01  2.676434e-01   
             
2.420000e+09  7.999942e-01  2.531764e-01   
             
2.424000e+09  8.112265e-01  2.385988e-01   
             
2.428000e+09  8.215452e-01  2.239697e-01   
             
2.432000e+09  8.309741e-01  2.093546e-01   
             
2.436000e+09  8.395493e-01  1.948213e-01   
             
2.440000e+09  8.473196e-01  1.804346e-01   
             
2.444000e+09  8.543464e-01  1.662517e-01   
             
2.448000e+09  8.607007e-01  1.523182e-01   
             
2.452000e+09  8.664597e-01  1.386645e-01   
             
2.456000e+09  8.717024e-01  1.253049e-01   
             
2.460000e+09  8.765043e-01  1.122371e-01   
             
2.464000e+09  8.809335e-01  9.944394e-02   
             
2.468000e+09  8.850465e-01  8.689651e-02   
             
2.472000e+09  8.888862e-01  7.455781e-02   
             
2.476000e+09  8.924800e-01  6.238742e-02   
             
2.480000e+09  8.958406e-01  5.034600e-02   
             
2.484000e+09  8.989674e-01  3.839949e-02   
             
2.488000e+09  9.018496e-01  2.652247e-02   
             
2.492000e+09  9.044697e-01  1.470042e-02   
             
2.496000e+09  9.068074e-01  2.930673e-03   
             
2.500000e+09  9.088440e-01 -8.777985e-03   
             
2.504000e+09  9.105660e-01 -2.040694e-02   
             
2.508000e+09  9.119677e-01 -3.193040e-02   
             
2.512000e+09  9.130531e-01 -4.331874e-02   
             
2.516000e+09  9.138367e-01 -5.454217e-02   
             
2.520000e+09  9.143425e-01 -6.557430e-02   
             
2.524000e+09  9.146023e-01 -7.639521e-02   
             
2.528000e+09  9.146535e-01 -8.699377e-02   
             
2.532000e+09  9.145353e-01 -9.736894e-02   
             
2.536000e+09  9.142856e-01 -1.075299e-01   
             
2.540000e+09  9.139379e-01 -1.174951e-01   
             
2.544000e+09  9.135185e-01 -1.272905e-01   
             
2.548000e+09  9.130445e-01 -1.369464e-01   
             
2.552000e+09  9.125231e-01 -1.464951e-01   
             
2.556000e+09  9.119513e-01 -1.559671e-01   
             
2.560000e+09  9.113178e-01 -1.653881e-01   
             
2.564000e+09  9.106043e-01 -1.747772e-01   
             
2.568000e+09  9.097885e-01 -1.841447e-01   
             
2.572000e+09  9.088470e-01 -1.934917e-01   
             
2.576000e+09  9.077586e-01 -2.028104e-01   
             
2.580000e+09  9.065064e-01 -2.120855e-01   
             
2.584000e+09  9.050805e-01 -2.212961e-01   
             
2.588000e+09  9.034792e-01 -2.304181e-01   
             
2.592000e+09  9.017090e-01 -2.394278e-01   
             
2.596000e+09  8.997848e-01 -2.483039e-01   
             
2.600000e+09  8.977277e-01 -2.570303e-01   
             
2.604000e+09  8.955634e-01 -2.655981e-01   
             
2.608000e+09  8.933197e-01 -2.740062e-01   
             
2.612000e+09  8.910231e-01 -2.822620e-01   
             
2.616000e+09  8.886971e-01 -2.903803e-01   
             
2.620000e+09  8.863593e-01 -2.983816e-01   
             
2.624000e+09  8.840201e-01 -3.062904e-01   
             
2.628000e+09  8.816817e-01 -3.141324e-01   
             
2.632000e+09  8.793387e-01 -3.219320e-01   
             
2.636000e+09  8.769783e-01 -3.297094e-01   
             
2.640000e+09  8.745825e-01 -3.374793e-01   
             
2.644000e+09  8.721301e-01 -3.452490e-01   
             
2.648000e+09  8.695992e-01 -3.530181e-01   
             
2.652000e+09  8.669699e-01 -3.607786e-01   
             
2.656000e+09  8.642261e-01 -3.685162e-01   
             
2.660000e+09  8.613581e-01 -3.762119e-01   
             
2.664000e+09  8.583630e-01 -3.838441e-01   
             
2.668000e+09  8.552454e-01 -3.913913e-01   
             
2.672000e+09  8.520171e-01 -3.988345e-01   
             
2.676000e+09  8.486955e-01 -4.061591e-01   
             
2.680000e+09  8.453021e-01 -4.133568e-01   
             
2.684000e+09  8.418600e-01 -4.204264e-01   
             
2.688000e+09  8.383917e-01 -4.273740e-01   
             
2.692000e+09  8.349167e-01 -4.342122e-01   
             
2.696000e+09  8.314494e-01 -4.409591e-01   
             
2.700000e+09  8.279980e-01 -4.476360e-01   
             
2.704000e+09  8.245633e-01 -4.542653e-01   
             
2.708000e+09  8.211391e-01 -4.608683e-01   
             
2.712000e+09  8.177130e-01 -4.674627e-01   
             
2.716000e+09  8.142677e-01 -4.740610e-01   
             
2.720000e+09  8.107830e-01 -4.806690e-01   
             
2.724000e+09  8.072383e-01 -4.872856e-01   
             
2.728000e+09  8.036146e-01 -4.939029e-01   
             
2.732000e+09  7.998969e-01 -5.005069e-01   
             
2.736000e+09  7.960755e-01 -5.070794e-01   
             
2.740000e+09  7.921475e-01 -5.135999e-01   
             
2.744000e+09  7.881170e-01 -5.200481e-01   
             
2.748000e+09  7.839945e-01 -5.264058e-01   
             
2.752000e+09  7.797960e-01 -5.326591e-01   
             
2.756000e+09  7.755413e-01 -5.388000e-01   
             
2.760000e+09  7.712520e-01 -5.448270e-01   
             
2.764000e+09  7.669486e-01 -5.507458e-01   
             
2.768000e+09  7.626493e-01 -5.565682e-01   
             
2.772000e+09  7.583673e-01 -5.623110e-01   
             
