#   Hz   S  RI   R   50
! 
1.400000e+09  2.160771e-01  9.544000e-01   
             
1.404000e+09  2.216695e-01  9.527139e-01   
             
1.408000e+09  2.278800e-01  9.508667e-01   
             
1.412000e+09  2.341067e-01  9.496010e-01   
             
1.416000e+09  2.397241e-01  9.482203e-01   
             
1.420000e+09  2.455031e-01  9.462279e-01   
             
1.424000e+09  2.518034e-01  9.444466e-01   
             
1.428000e+09  2.577738e-01  9.430968e-01   
             
1.432000e+09  2.633324e-01  9.413210e-01   
             
1.436000e+09  2.693216e-01  9.391737e-01   
             
1.440000e+09  2.755572e-01  9.374609e-01   
             
1.444000e+09  2.812880e-01  9.358800e-01   
             
1.448000e+09  2.869231e-01  9.337507e-01   
             
1.452000e+09  2.930565e-01  9.315751e-01   
             
1.456000e+09  2.991101e-01  9.298500e-01   
             
1.460000e+09  3.046923e-01  9.279390e-01   
             
1.464000e+09  3.104797e-01  9.255624e-01   
             
1.468000e+09  3.166373e-01  9.234184e-01   
             
1.472000e+09  3.224639e-01  9.215589e-01   
             
1.476000e+09  3.280172e-01  9.192964e-01   
             
1.480000e+09  3.339536e-01  9.167950e-01   
             
1.484000e+09  3.400125e-01  9.146641e-01   
             
1.488000e+09  3.456434e-01  9.125571e-01   
             
1.492000e+09  3.512676e-01  9.099951e-01   
             
1.496000e+09  3.572827e-01  9.074605e-01   
             
1.500000e+09  3.631599e-01  9.052639e-01   
             
1.504000e+09  3.686798e-01  9.028446e-01   
             
1.508000e+09  3.744194e-01  9.000779e-01   
             
1.512000e+09  3.804096e-01  8.975419e-01   
             
1.516000e+09  3.860851e-01  8.951772e-01   
             
1.520000e+09  3.915910e-01  8.924453e-01   
             
1.524000e+09  3.974261e-01  8.895710e-01   
             
1.528000e+09  4.032950e-01  8.870026e-01   
             
1.532000e+09  4.088084e-01  8.843847e-01   
             
1.536000e+09  4.143716e-01  8.813953e-01   
             
1.540000e+09  4.202327e-01  8.784773e-01   
             
1.544000e+09  4.259240e-01  8.758029e-01   
             
1.548000e+09  4.313506e-01  8.728918e-01   
             
1.552000e+09  4.369927e-01  8.697271e-01   
             
1.556000e+09  4.427916e-01  8.667772e-01   
             
1.560000e+09  4.483021e-01  8.639128e-01   
             
1.564000e+09  4.537189e-01  8.607220e-01   
             
1.568000e+09  4.594097e-01  8.574576e-01   
             
1.572000e+09  4.650723e-01  8.544382e-01   
             
1.576000e+09  4.704446e-01  8.513210e-01   
             
1.580000e+09  4.758997e-01  8.479051e-01   
             
1.584000e+09  4.815738e-01  8.445837e-01   
             
1.588000e+09  4.870642e-01  8.414283e-01   
             
1.592000e+09  4.923636e-01  8.380368e-01   
             
1.596000e+09  4.978627e-01  8.344652e-01   
             
1.600000e+09  5.034462e-01  8.310841e-01   
             
1.604000e+09  5.087720e-01  8.277243e-01   
             
1.608000e+09  5.140572e-01  8.240802e-01   
             
1.612000e+09  5.195640e-01  8.204104e-01   
             
1.616000e+09  5.250009e-01  8.169297e-01   
             
1.620000e+09  5.302039e-01  8.133213e-01   
             
1.624000e+09  5.355058e-01  8.094760e-01   
             
1.628000e+09  5.409605e-01  8.057339e-01   
             
1.632000e+09  5.462291e-01  8.020948e-01   
             
1.636000e+09  5.513640e-01  7.982298e-01   
             
1.640000e+09  5.566762e-01  7.942412e-01   
             
1.644000e+09  5.620177e-01  7.904154e-01   
             
1.648000e+09  5.671330e-01  7.865642e-01   
             
1.652000e+09  5.722440e-01  7.824689e-01   
             
1.656000e+09  5.775285e-01  7.783795e-01   
             
1.660000e+09  5.827155e-01  7.744299e-01   
             
1.664000e+09  5.877168e-01  7.703363e-01   
             
1.668000e+09  5.928213e-01  7.660572e-01   
             
1.672000e+09  5.980241e-01  7.618801e-01   
             
1.676000e+09  6.030462e-01  7.577559e-01   
             
1.680000e+09  6.079784e-01  7.534208e-01   
             
1.684000e+09  6.130621e-01  7.490047e-01   
             
1.688000e+09  6.181336e-01  7.447223e-01   
             
1.692000e+09  6.230090e-01  7.403811e-01   
             
1.696000e+09  6.279036e-01  7.358325e-01   
             
1.700000e+09  6.329280e-01  7.313093e-01   
             
1.704000e+09  6.378383e-01  7.268830e-01   
             
1.708000e+09  6.426024e-01  7.223054e-01   
             
1.712000e+09  6.474661e-01  7.175842e-01   
             
1.716000e+09  6.523834e-01  7.129574e-01   
             
1.720000e+09  6.571294e-01  7.083436e-01   
             
1.724000e+09  6.618178e-01  7.035367e-01   
             
1.728000e+09  6.666309e-01  6.986798e-01   
             
1.732000e+09  6.714008e-01  6.939281e-01   
             
1.736000e+09  6.760020e-01  6.890943e-01   
             
1.740000e+09  6.806358e-01  6.840857e-01   
             
1.744000e+09  6.853607e-01  6.791127e-01   
             
1.748000e+09  6.899622e-01  6.741999e-01   
             
1.752000e+09  6.944493e-01  6.691348e-01   
             
1.756000e+09  6.990269e-01  6.639593e-01   
             
1.760000e+09  7.036218e-01  6.588667e-01   
             
1.764000e+09  7.080567e-01  6.537557e-01   
             
1.768000e+09  7.124573e-01  6.484698e-01   
             
1.772000e+09  7.169557e-01  6.431555e-01   
             
1.776000e+09  7.213881e-01  6.379193e-01   
             
1.780000e+09  7.256759e-01  6.325851e-01   
             
1.784000e+09  7.300019e-01  6.271037e-01   
             
1.788000e+09  7.343850e-01  6.216613e-01   
             
1.792000e+09  7.386403e-01  6.162473e-01   
             
1.796000e+09  7.428062e-01  6.106837e-01   
             
1.800000e+09  7.470495e-01  6.050354e-01   
             
1.804000e+09  7.512803e-01  5.994553e-01   
             
1.808000e+09  7.553629e-01  5.938320e-01   
             
1.812000e+09  7.594261e-01  5.880508e-01   
             
1.816000e+09  7.635610e-01  5.822553e-01   
             
1.820000e+09  7.676128e-01  5.765121e-01   
             
1.824000e+09  7.715398e-01  5.706600e-01   
             
1.828000e+09  7.755047e-01  5.646837e-01   
             
1.832000e+09  7.794963e-01  5.587442e-01   
             
1.836000e+09  7.833587e-01  5.528061e-01   
             
1.840000e+09  7.871498e-01  5.467224e-01   
             
1.844000e+09  7.910027e-01  5.405729e-01   
             
1.848000e+09  7.948181e-01  5.344751e-01   
             
1.852000e+09  7.984960e-01  5.283141e-01   
             
1.856000e+09  8.021629e-01  5.220102e-01   
             
1.860000e+09  8.058758e-01  5.156992e-01   
             
1.864000e+09  8.094923e-01  5.094161e-01   
             
1.868000e+09  8.129995e-01  5.030164e-01   
             
1.872000e+09  8.165390e-01  4.965100e-01   
             
1.876000e+09  8.200780e-01  4.900338e-01   
             
1.880000e+09  8.234869e-01  4.835345e-01   
             
1.884000e+09  8.268363e-01  4.768942e-01   
             
1.888000e+09  8.302293e-01  4.702000e-01   
             
1.892000e+09  8.335633e-01  4.635393e-01   
             
1.896000e+09  8.367678e-01  4.567983e-01   
             
1.900000e+09  8.399629e-01  4.499259e-01   
             
1.904000e+09  8.431785e-01  4.430478e-01   
             
1.908000e+09  8.462861e-01  4.361734e-01   
             
1.912000e+09  8.492943e-01  4.291758e-01   
             
1.916000e+09  8.523241e-01  4.220833e-01   
             
1.920000e+09  8.553273e-01  4.150097e-01   
             
1.924000e+09  8.581983e-01  4.078905e-01   
             
1.928000e+09  8.610147e-01  4.006327e-01   
             
1.932000e+09  8.638533e-01  3.933264e-01   
             
1.936000e+09  8.666119e-01  3.860328e-01   
             
1.940000e+09  8.692445e-01  3.786428e-01   
             
1.944000e+09  8.718623e-01  3.711284e-01   
             
1.948000e+09  8.744734e-01  3.636029e-01   
             
1.952000e+09  8.769632e-01  3.560565e-01   
             
1.956000e+09  8.793564e-01  3.483790e-01   
             
1.960000e+09  8.817540e-01  3.406118e-01   
             
1.964000e+09  8.840975e-01  3.328473e-01   
             
1.968000e+09  8.863022e-01  3.250140e-01   
             
1.972000e+09  8.884481e-01  3.170407e-01   
             
1.976000e+09  8.905891e-01  3.090165e-01   
             
1.980000e+09  8.926263e-01  3.009809e-01   
             
1.984000e+09  8.945328e-01  2.928312e-01   
             
1.988000e+09  8.964094e-01  2.845574e-01   
             
1.992000e+09  8.982462e-01  2.762598e-01   
             
1.996000e+09  8.999427e-01  2.679139e-01   
             
2.000000e+09  9.015339e-01  2.594253e-01   
             
2.004000e+09  9.031019e-01  2.508435e-01   
             
2.008000e+09  9.045811e-01  2.422417e-01   
             
2.012000e+09  9.059047e-01  2.335450e-01   
             
2.016000e+09  9.071508e-01  2.247003e-01   
             
2.020000e+09  9.083536e-01  2.157931e-01   
             
2.024000e+09  9.094185e-01  2.068444e-01   
             
2.028000e+09  9.103328e-01  1.977595e-01   
             
2.032000e+09  9.111845e-01  1.885418e-01   
             
2.036000e+09  9.119498e-01  1.792780e-01   
             
2.040000e+09  9.125400e-01  1.699332e-01   
             
2.044000e+09  9.129950e-01  1.604272e-01   
             
2.048000e+09  9.133787e-01  1.508135e-01   
             
2.052000e+09  9.136202e-01  1.411484e-01   
             
2.056000e+09  9.136660e-01  1.313562e-01   
             
2.060000e+09  9.135883e-01  1.213987e-01   
             
2.064000e+09  9.134030e-01  1.113553e-01   
             
2.068000e+09  9.130188e-01  1.012329e-01   
             
2.072000e+09  9.124313e-01  9.094470e-02   
             
2.076000e+09  9.117132e-01  8.050367e-02   
             
2.080000e+09  9.108278e-01  6.998390e-02   
             
2.084000e+09  9.096938e-01  5.934323e-02   
             
2.088000e+09  9.083499e-01  4.851466e-02   
             
2.092000e+09  9.068398e-01  3.755273e-02   
             
2.096000e+09  9.050866e-01  2.649957e-02   
             
2.100000e+09  9.030426e-01  1.528199e-02   
             
2.104000e+09  9.007676e-01  3.873960e-03   
             
2.108000e+09  8.982577e-01 -7.651462e-03   
             
2.112000e+09  8.954202e-01 -1.929693e-02   
             
2.116000e+09  8.922488e-01 -3.113888e-02   
             
2.120000e+09  8.887947e-01 -4.315680e-02   
             
2.124000e+09  8.850043e-01 -5.528608e-02   
             
2.128000e+09  8.807950e-01 -6.756917e-02   
             
2.132000e+09  8.761913e-01 -8.005835e-02   
             
2.136000e+09  8.712100e-01 -9.269652e-02   
             
2.140000e+09  8.657601e-01 -1.054474e-01   
             
2.144000e+09  8.597854e-01 -1.183730e-01   
             
2.148000e+09  8.533185e-01 -1.314827e-01   
             
2.152000e+09  8.463260e-01 -1.447019e-01   
             
2.156000e+09  8.387002e-01 -1.580274e-01   
             
2.160000e+09  8.304124e-01 -1.715118e-01   
             
2.164000e+09  8.214757e-01 -1.851150e-01   
             
2.168000e+09  8.118053e-01 -1.987620e-01   
             
2.172000e+09  8.012961e-01 -2.124685e-01   
             
2.176000e+09  7.899341e-01 -2.262473e-01   
             
2.180000e+09  7.776901e-01 -2.400105e-01   
             
2.184000e+09  7.644405e-01 -2.536866e-01   
             
2.188000e+09  7.500941e-01 -2.672784e-01   
             
2.192000e+09  7.346325e-01 -2.807302e-01   
             
2.196000e+09  7.179765e-01 -2.939055e-01   
             
2.200000e+09  6.999872e-01 -3.067177e-01   
             
2.204000e+09  6.805949e-01 -3.191088e-01   
             
2.208000e+09  6.597663e-01 -3.309259e-01   
             
2.212000e+09  6.373937e-01 -3.419686e-01   
             
2.216000e+09  6.133633e-01 -3.520889e-01   
             
2.220000e+09  5.876493e-01 -3.611110e-01   
             
2.224000e+09  5.602338e-01 -3.687536e-01   
             
2.228000e+09  5.310532e-01 -3.747197e-01   
             
2.232000e+09  5.001034e-01 -3.787426e-01   
             
2.236000e+09  4.674821e-01 -3.804875e-01   
             
2.240000e+09  4.333030e-01 -3.795378e-01   
             
2.244000e+09  3.977069e-01 -3.754970e-01   
             
2.248000e+09  3.609652e-01 -3.679894e-01   
             
2.252000e+09  3.234734e-01 -3.565934e-01   
             
2.256000e+09  2.856877e-01 -3.408937e-01   
             
2.260000e+09  2.481695e-01 -3.205752e-01   
             
2.264000e+09  2.116390e-01 -2.954132e-01   
             
2.268000e+09  1.769176e-01 -2.652682e-01   
             
2.272000e+09  1.448707e-01 -2.301708e-01   
             
2.276000e+09  1.164153e-01 -1.903772e-01   
             
2.280000e+09  9.247940e-02 -1.463470e-01   
             
2.284000e+09  7.390013e-02 -9.874588e-02   
             
2.288000e+09  6.136254e-02 -4.846186e-02   
             
2.292000e+09  5.536384e-02  3.446142e-03   
             
2.296000e+09  5.615055e-02  5.582563e-02   
             
2.300000e+09  6.368727e-02  1.074858e-01   
             
2.304000e+09  7.768016e-02  1.572791e-01   
             
2.308000e+09  9.759409e-02  2.041929e-01   
             
2.312000e+09  1.226858e-01  2.473859e-01   
             
2.316000e+09  1.520966e-01  2.862096e-01   
             
2.320000e+09  1.849253e-01  3.202575e-01   
             
2.324000e+09  2.202456e-01  3.493556e-01   
             
2.328000e+09  2.571656e-01  3.734884e-01   
             
2.332000e+09  2.949150e-01  3.927840e-01   
             
2.336000e+09  3.328372e-01  4.075280e-01   
             
2.340000e+09  3.703471e-01  4.180868e-01   
             
2.344000e+09  4.069796e-01  4.248259e-01   
             
2.348000e+09  4.424257e-01  4.281429e-01   
             
2.352000e+09  4.764512e-01  4.284831e-01   
             
2.356000e+09  5.088543e-01  4.262480e-01   
             
2.360000e+09  5.395356e-01  4.217668e-01   
             
2.364000e+09  5.684905e-01  4.153800e-01   
             
2.368000e+09  5.957063e-01  4.074308e-01   
             
2.372000e+09  6.211708e-01  3.981717e-01   
             
2.376000e+09  6.449546e-01  3.877991e-01   
             
2.380000e+09  6.671593e-01  3.765430e-01   
             
2.384000e+09  6.878282e-01  3.646110e-01   
             
2.388000e+09  7.070143e-01  3.521161e-01   
             
2.392000e+09  7.248423e-01  3.391623e-01   
             
2.396000e+09  7.414132e-01  3.259014e-01   
             
2.400000e+09  7.567625e-01  3.124348e-01   
             
2.404000e+09  7.709654e-01  2.987893e-01   
             
2.408000e+09  7.841471e-01  2.850308e-01   
             
2.412000e+09  7.963696e-01  2.712601e-01   
             
2.416000e+09  8.076536e-01  2.575030e-01   
             
2.420000e+09  8.180864e-01  2.437502e-01   
             
2.424000e+09  8.277678e-01  2.300607e-01   
             
2.428000e+09  8.367165e-01  2.164939e-01   
             
2.432000e+09  8.449527e-01  2.030267e-01   
             
2.436000e+09  8.525691e-01  1.896494e-01   
             
2.440000e+09  8.596266e-01  1.764223e-01   
             
2.444000e+09  8.661139e-01  1.633641e-01   
             
2.448000e+09  8.720655e-01  1.504285e-01   
             
2.452000e+09  8.775680e-01  1.376257e-01   
             
2.456000e+09  8.826392e-01  1.250099e-01   
             
2.460000e+09  8.872591e-01  1.125615e-01   
             
2.464000e+09  8.914826e-01  1.002359e-01   
             
2.468000e+09  8.953747e-01  8.806760e-02   
             
2.472000e+09  8.989173e-01  7.609086e-02   
             
2.476000e+09  9.021025e-01  6.425835e-02   
             
2.480000e+09  9.049993e-01  5.254666e-02   
             
2.484000e+09  9.076389e-01  4.100602e-02   
             
2.488000e+09  9.099836e-01  2.963944e-02   
             
2.492000e+09  9.120512e-01  1.838961e-02   
             
2.496000e+09  9.139093e-01  7.264571e-03   
             
2.500000e+09  9.155518e-01 -3.687228e-03   
             
2.504000e+09  9.169424e-01 -1.449566e-02   
             
2.508000e+09  9.181262e-01 -2.520741e-02   
             
2.512000e+09  9.191515e-01 -3.578536e-02   
             
2.516000e+09  9.199820e-01 -4.620121e-02   
             
2.520000e+09  9.206026e-01 -5.650816e-02   
             
2.524000e+09  9.210748e-01 -6.672541e-02   
             
2.528000e+09  9.214142e-01 -7.680064e-02   
             
2.532000e+09  9.215718e-01 -8.673756e-02   
             
2.536000e+09  9.215637e-01 -9.659437e-02   
             
2.540000e+09  9.214496e-01 -1.063560e-01   
             
2.544000e+09  9.212093e-01 -1.159750e-01   
             
2.548000e+09  9.208027e-01 -1.254875e-01   
             
2.552000e+09  9.202748e-01 -1.349360e-01   
             
2.556000e+09  9.196641e-01 -1.442770e-01   
             
2.560000e+09  9.189241e-01 -1.534868e-01   
             
2.564000e+09  9.180412e-01 -1.626220e-01   
             
2.568000e+09  9.170758e-01 -1.716942e-01   
             
2.572000e+09  9.160320e-01 -1.806480e-01   
             
2.576000e+09  9.148564e-01 -1.894940e-01   
             
2.580000e+09  9.135694e-01 -1.982892e-01   
             
2.584000e+09  9.122261e-01 -2.070098e-01   
             
2.588000e+09  9.107958e-01 -2.156104e-01   
             
2.592000e+09  9.092394e-01 -2.241331e-01   
             
2.596000e+09  9.076062e-01 -2.326148e-01   
             
2.600000e+09  9.059262e-01 -2.410053e-01   
             
2.604000e+09  9.041460e-01 -2.492870e-01   
             
2.608000e+09  9.022576e-01 -2.575194e-01   
             
2.612000e+09  9.003221e-01 -2.657052e-01   
             
2.616000e+09  8.983333e-01 -2.737870e-01   
             
2.620000e+09  8.962362e-01 -2.817833e-01   
             
2.624000e+09  8.940584e-01 -2.897490e-01   
             
2.628000e+09  8.918509e-01 -2.976513e-01   
             
2.632000e+09  8.895736e-01 -3.054479e-01   
             
2.636000e+09  8.871916e-01 -3.131878e-01   
             
2.640000e+09  8.847594e-01 -3.209009e-01   
             
2.644000e+09  8.822987e-01 -3.285310e-01   
             
2.648000e+09  8.797508e-01 -3.360679e-01   
             
2.652000e+09  8.771154e-01 -3.435738e-01   
             
2.656000e+09  8.744545e-01 -3.510414e-01   
             
2.660000e+09  8.717518e-01 -3.584127e-01   
             
2.664000e+09  8.689526e-01 -3.657151e-01   
             
2.668000e+09  8.660929e-01 -3.730004e-01   
             
2.672000e+09  8.632190e-01 -3.802267e-01   
             
2.676000e+09  8.602823e-01 -3.873566e-01   
             
2.680000e+09  8.572537e-01 -3.944457e-01   
             
2.684000e+09  8.541933e-01 -4.015161e-01   
             
2.688000e+09  8.511138e-01 -4.085061e-01   
             
2.692000e+09  8.479524e-01 -4.154145e-01   
             
2.696000e+09  8.447179e-01 -4.223052e-01   
             
2.700000e+09  8.414728e-01 -4.291607e-01   
             
2.704000e+09  8.381901e-01 -4.359233e-01   
             
2.708000e+09  8.348172e-01 -4.426301e-01   
             
2.712000e+09  8.313992e-01 -4.493289e-01   
             
2.716000e+09  8.279768e-01 -4.559683e-01   
             
2.720000e+09  8.244930e-01 -4.625174e-01   
             
2.724000e+09  8.209262e-01 -4.690387e-01   
             
2.728000e+09  8.173422e-01 -4.755449e-01   
             
2.732000e+09  8.137434e-01 -4.819697e-01   
             
2.736000e+09  8.100638e-01 -4.883222e-01   
             
2.740000e+09  8.063232e-01 -4.946674e-01   
             
2.744000e+09  8.025831e-01 -5.009764e-01   
             
2.748000e+09  7.988054e-01 -5.071936e-01   
             
2.752000e+09  7.949412e-01 -5.133663e-01   
             
2.756000e+09  7.910452e-01 -5.195366e-01   
             
2.760000e+09  7.871511e-01 -5.256441e-01   
             
2.764000e+09  7.831936e-01 -5.316659e-01   
             
2.768000e+09  7.791605e-01 -5.376710e-01   
             
2.772000e+09  7.751227e-01 -5.436614e-01   
             
