#   Hz   S  RI   R   50
! 
1.400000e+09  4.492430e-01  8.601757e-01   
             
1.404000e+09  4.544405e-01  8.574988e-01   
             
1.408000e+09  4.598060e-01  8.549457e-01   
             
1.412000e+09  4.653769e-01  8.524491e-01   
             
1.416000e+09  4.711681e-01  8.499347e-01   
             
1.420000e+09  4.771711e-01  8.473280e-01   
             
1.424000e+09  4.833558e-01  8.445617e-01   
             
1.428000e+09  4.896732e-01  8.415813e-01   
             
1.432000e+09  4.960614e-01  8.383506e-01   
             
1.436000e+09  5.024509e-01  8.348539e-01   
             
1.440000e+09  5.087719e-01  8.310972e-01   
             
1.444000e+09  5.149602e-01  8.271071e-01   
             
1.448000e+09  5.209638e-01  8.229279e-01   
             
1.452000e+09  5.267465e-01  8.186166e-01   
             
1.456000e+09  5.322917e-01  8.142380e-01   
             
1.460000e+09  5.376033e-01  8.098577e-01   
             
1.464000e+09  5.427044e-01  8.055364e-01   
             
1.468000e+09  5.476350e-01  8.013240e-01   
             
1.472000e+09  5.524479e-01  7.972554e-01   
             
1.476000e+09  5.572032e-01  7.933474e-01   
             
1.480000e+09  5.619623e-01  7.895978e-01   
             
1.484000e+09  5.667824e-01  7.859857e-01   
             
1.488000e+09  5.717107e-01  7.824743e-01   
             
1.492000e+09  5.767806e-01  7.790147e-01   
             
1.496000e+09  5.820087e-01  7.755506e-01   
             
1.500000e+09  5.873935e-01  7.720243e-01   
             
1.504000e+09  5.929164e-01  7.683816e-01   
             
1.508000e+09  5.985433e-01  7.645773e-01   
             
1.512000e+09  6.042285e-01  7.605790e-01   
             
1.516000e+09  6.099192e-01  7.563699e-01   
             
1.520000e+09  6.155606e-01  7.519499e-01   
             
1.524000e+09  6.211010e-01  7.473355e-01   
             
1.528000e+09  6.264965e-01  7.425576e-01   
             
1.532000e+09  6.317152e-01  7.376587e-01   
             
1.536000e+09  6.367396e-01  7.326881e-01   
             
1.540000e+09  6.415682e-01  7.276979e-01   
             
1.544000e+09  6.462152e-01  7.227372e-01   
             
1.548000e+09  6.507086e-01  7.178481e-01   
             
1.552000e+09  6.550877e-01  7.130617e-01   
             
1.556000e+09  6.593987e-01  7.083954e-01   
             
1.560000e+09  6.636904e-01  7.038516e-01   
             
1.564000e+09  6.680094e-01  6.994177e-01   
             
1.568000e+09  6.723957e-01  6.950678e-01   
             
1.572000e+09  6.768793e-01  6.907652e-01   
             
1.576000e+09  6.814772e-01  6.864662e-01   
             
1.580000e+09  6.861920e-01  6.821247e-01   
             
1.584000e+09  6.910124e-01  6.776961e-01   
             
1.588000e+09  6.959142e-01  6.731418e-01   
             
1.592000e+09  7.008629e-01  6.684328e-01   
             
1.596000e+09  7.058169e-01  6.635519e-01   
             
1.600000e+09  7.107322e-01  6.584956e-01   
             
1.604000e+09  7.155656e-01  6.532736e-01   
             
1.608000e+09  7.202797e-01  6.479082e-01   
             
1.612000e+09  7.248457e-01  6.424315e-01   
             
1.616000e+09  7.292460e-01  6.368828e-01   
             
1.620000e+09  7.334759e-01  6.313042e-01   
             
1.624000e+09  7.375437e-01  6.257367e-01   
             
1.628000e+09  7.414694e-01  6.202167e-01   
             
1.632000e+09  7.452829e-01  6.147722e-01   
             
1.636000e+09  7.490212e-01  6.094208e-01   
             
1.640000e+09  7.527239e-01  6.041676e-01   
             
1.644000e+09  7.564303e-01  5.990055e-01   
             
1.648000e+09  7.601751e-01  5.939157e-01   
             
1.652000e+09  7.639855e-01  5.888700e-01   
             
1.656000e+09  7.678783e-01  5.838335e-01   
             
1.660000e+09  7.718590e-01  5.787681e-01   
             
1.664000e+09  7.759211e-01  5.736359e-01   
             
1.668000e+09  7.800469e-01  5.684034e-01   
             
1.672000e+09  7.842095e-01  5.630438e-01   
             
1.676000e+09  7.883754e-01  5.575403e-01   
             
1.680000e+09  7.925077e-01  5.518868e-01   
             
1.684000e+09  7.965696e-01  5.460888e-01   
             
1.688000e+09  8.005281e-01  5.401624e-01   
             
1.692000e+09  8.043568e-01  5.341330e-01   
             
1.696000e+09  8.080382e-01  5.280324e-01   
             
1.700000e+09  8.115654e-01  5.218959e-01   
             
1.704000e+09  8.149426e-01  5.157591e-01   
             
1.708000e+09  8.181846e-01  5.096541e-01   
             
1.712000e+09  8.213148e-01  5.036067e-01   
             
1.716000e+09  8.243635e-01  4.976344e-01   
             
1.720000e+09  8.273642e-01  4.917443e-01   
             
1.724000e+09  8.303509e-01  4.859327e-01   
             
1.728000e+09  8.333546e-01  4.801861e-01   
             
1.732000e+09  8.364004e-01  4.744821e-01   
             
1.736000e+09  8.395053e-01  4.687915e-01   
             
1.740000e+09  8.426763e-01  4.630820e-01   
             
1.744000e+09  8.459104e-01  4.573205e-01   
             
1.748000e+09  8.491943e-01  4.514765e-01   
             
1.752000e+09  8.525065e-01  4.455253e-01   
             
1.756000e+09  8.558188e-01  4.394499e-01   
             
1.760000e+09  8.590995e-01  4.332425e-01   
             
1.764000e+09  8.623160e-01  4.269056e-01   
             
1.768000e+09  8.654382e-01  4.204510e-01   
             
1.772000e+09  8.684412e-01  4.138994e-01   
             
1.776000e+09  8.713075e-01  4.072775e-01   
             
1.780000e+09  8.740287e-01  4.006161e-01   
             
1.784000e+09  8.766061e-01  3.939467e-01   
             
1.788000e+09  8.790505e-01  3.872988e-01   
             
1.792000e+09  8.813810e-01  3.806968e-01   
             
1.796000e+09  8.836231e-01  3.741582e-01   
             
1.800000e+09  8.858062e-01  3.676916e-01   
             
1.804000e+09  8.879608e-01  3.612960e-01   
             
1.808000e+09  8.901156e-01  3.549613e-01   
             
1.812000e+09  8.922943e-01  3.486690e-01   
             
1.816000e+09  8.945140e-01  3.423941e-01   
             
1.820000e+09  8.967832e-01  3.361080e-01   
             
1.824000e+09  8.991012e-01  3.297806e-01   
             
1.828000e+09  9.014579e-01  3.233834e-01   
             
1.832000e+09  9.038354e-01  3.168927e-01   
             
1.836000e+09  9.062092e-01  3.102910e-01   
             
1.840000e+09  9.085506e-01  3.035693e-01   
             
1.844000e+09  9.108298e-01  2.967276e-01   
             
1.848000e+09  9.130183e-01  2.897749e-01   
             
1.852000e+09  9.150920e-01  2.827282e-01   
             
1.856000e+09  9.170327e-01  2.756111e-01   
             
1.860000e+09  9.188307e-01  2.684512e-01   
             
1.864000e+09  9.204850e-01  2.612778e-01   
             
1.868000e+09  9.220034e-01  2.541188e-01   
             
1.872000e+09  9.234020e-01  2.469982e-01   
             
1.876000e+09  9.247033e-01  2.399337e-01   
             
1.880000e+09  9.259339e-01  2.329353e-01   
             
1.884000e+09  9.271222e-01  2.260040e-01   
             
1.888000e+09  9.282956e-01  2.191322e-01   
             
1.892000e+09  9.294773e-01  2.123041e-01   
             
1.896000e+09  9.306850e-01  2.054973e-01   
             
1.900000e+09  9.319284e-01  1.986852e-01   
             
1.904000e+09  9.332085e-01  1.918394e-01   
             
1.908000e+09  9.345175e-01  1.849323e-01   
             
1.912000e+09  9.358398e-01  1.779400e-01   
             
1.916000e+09  9.371529e-01  1.708442e-01   
             
1.920000e+09  9.384300e-01  1.636345e-01   
             
1.924000e+09  9.396422e-01  1.563089e-01   
             
1.928000e+09  9.407614e-01  1.488741e-01   
             
1.932000e+09  9.417630e-01  1.413449e-01   
             
1.936000e+09  9.426278e-01  1.337428e-01   
             
1.940000e+09  9.433444e-01  1.260939e-01   
             
1.944000e+09  9.439096e-01  1.184264e-01   
             
1.948000e+09  9.443291e-01  1.107679e-01   
             
1.952000e+09  9.446167e-01  1.031427e-01   
             
1.956000e+09  9.447928e-01  9.556964e-02   
             
1.960000e+09  9.448827e-01  8.806003e-02   
             
1.964000e+09  9.449140e-01  8.061675e-02   
             
1.968000e+09  9.449136e-01  7.323390e-02   
             
1.972000e+09  9.449055e-01  6.589732e-02   
             
1.976000e+09  9.449080e-01  5.858597e-02   
             
1.980000e+09  9.449321e-01  5.127389e-02   
             
1.984000e+09  9.449804e-01  4.393272e-02   
             
1.988000e+09  9.450464e-01  3.653439e-02   
             
1.992000e+09  9.451155e-01  2.905381e-02   
             
1.996000e+09  9.451659e-01  2.147127e-02   
             
2.000000e+09  9.451707e-01  1.377436e-02   
             
2.004000e+09  9.451004e-01  5.959181e-03   
             
2.008000e+09  9.449255e-01 -1.969268e-03   
             
2.012000e+09  9.446196e-01 -9.997520e-03   
             
2.016000e+09  9.441614e-01 -1.810490e-02   
             
2.020000e+09  9.435367e-01 -2.626550e-02   
             
2.024000e+09  9.427400e-01 -3.445063e-02   
             
2.028000e+09  9.417750e-01 -4.263157e-02   
             
2.032000e+09  9.406535e-01 -5.078237e-02   
             
2.036000e+09  9.393952e-01 -5.888239e-02   
             
2.040000e+09  9.380249e-01 -6.691831e-02   
             
2.044000e+09  9.365703e-01 -7.488550e-02   
             
2.048000e+09  9.350593e-01 -8.278856e-02   
             
2.052000e+09  9.335171e-01 -9.064098e-02   
             
2.056000e+09  9.319634e-01 -9.846388e-02   
             
2.060000e+09  9.304107e-01 -1.062841e-01   
             
2.064000e+09  9.288622e-01 -1.141316e-01   
             
2.068000e+09  9.273118e-01 -1.220367e-01   
             
2.072000e+09  9.257444e-01 -1.300271e-01   
             
2.076000e+09  9.241365e-01 -1.381253e-01   
             
2.080000e+09  9.224588e-01 -1.463462e-01   
             
2.084000e+09  9.206784e-01 -1.546957e-01   
             
2.088000e+09  9.187618e-01 -1.631700e-01   
             
2.092000e+09  9.166780e-01 -1.717560e-01   
             
2.096000e+09  9.144010e-01 -1.804322e-01   
             
2.100000e+09  9.119125e-01 -1.891708e-01   
             
2.104000e+09  9.092032e-01 -1.979405e-01   
             
2.108000e+09  9.062736e-01 -2.067090e-01   
             
2.112000e+09  9.031341e-01 -2.154467e-01   
             
2.116000e+09  8.998033e-01 -2.241293e-01   
             
2.120000e+09  8.963065e-01 -2.327403e-01   
             
2.124000e+09  8.926725e-01 -2.412727e-01   
             
2.128000e+09  8.889309e-01 -2.497299e-01   
             
2.132000e+09  8.851087e-01 -2.581256e-01   
             
2.136000e+09  8.812271e-01 -2.664823e-01   
             
2.140000e+09  8.772988e-01 -2.748296e-01   
             
2.144000e+09  8.733265e-01 -2.832014e-01   
             
2.148000e+09  8.693018e-01 -2.916323e-01   
             
2.152000e+09  8.652050e-01 -3.001546e-01   
             
2.156000e+09  8.610066e-01 -3.087946e-01   
             
2.160000e+09  8.566693e-01 -3.175702e-01   
             
2.164000e+09  8.521509e-01 -3.264888e-01   
             
2.168000e+09  8.474074e-01 -3.355460e-01   
             
2.172000e+09  8.423971e-01 -3.447261e-01   
             
2.176000e+09  8.370834e-01 -3.540026e-01   
             
2.180000e+09  8.314385e-01 -3.633410e-01   
             
2.184000e+09  8.254446e-01 -3.727014e-01   
             
2.188000e+09  8.190962e-01 -3.820421e-01   
             
2.192000e+09  8.123988e-01 -3.913237e-01   
             
2.196000e+09  8.053688e-01 -4.005125e-01   
             
2.200000e+09  7.980306e-01 -4.095837e-01   
             
2.204000e+09  7.904133e-01 -4.185239e-01   
             
2.208000e+09  7.825469e-01 -4.273321e-01   
             
2.212000e+09  7.744581e-01 -4.360202e-01   
             
2.216000e+09  7.661665e-01 -4.446108e-01   
             
2.220000e+09  7.576805e-01 -4.531358e-01   
             
2.224000e+09  7.489947e-01 -4.616317e-01   
             
2.228000e+09  7.400890e-01 -4.701361e-01   
             
2.232000e+09  7.309276e-01 -4.786826e-01   
             
2.236000e+09  7.214607e-01 -4.872966e-01   
             
2.240000e+09  7.116270e-01 -4.959908e-01   
             
2.244000e+09  7.013575e-01 -5.047623e-01   
             
2.248000e+09  6.905798e-01 -5.135909e-01   
             
2.252000e+09  6.792234e-01 -5.224381e-01   
             
2.256000e+09  6.672244e-01 -5.312489e-01   
             
2.260000e+09  6.545300e-01 -5.399536e-01   
             
2.264000e+09  6.411014e-01 -5.484721e-01   
             
2.268000e+09  6.269166e-01 -5.567188e-01   
             
2.272000e+09  6.119702e-01 -5.646071e-01   
             
2.276000e+09  5.962719e-01 -5.720551e-01   
             
2.280000e+09  5.798438e-01 -5.789899e-01   
             
2.284000e+09  5.627157e-01 -5.853503e-01   
             
2.288000e+09  5.449195e-01 -5.910890e-01   
             
2.292000e+09  5.264832e-01 -5.961717e-01   
             
2.296000e+09  5.074252e-01 -6.005744e-01   
             
2.300000e+09  4.877489e-01 -6.042788e-01   
             
2.304000e+09  4.674397e-01 -6.072655e-01   
             
2.308000e+09  4.464635e-01 -6.095062e-01   
             
2.312000e+09  4.247682e-01 -6.109546e-01   
             
2.316000e+09  4.022878e-01 -6.115378e-01   
             
2.320000e+09  3.789501e-01 -6.111488e-01   
             
2.324000e+09  3.546859e-01 -6.096404e-01   
             
2.328000e+09  3.294418e-01 -6.068216e-01   
             
2.332000e+09  3.031936e-01 -6.024585e-01   
             
2.336000e+09  2.759610e-01 -5.962776e-01   
             
2.340000e+09  2.478209e-01 -5.879745e-01   
             
2.344000e+09  2.189196e-01 -5.772261e-01   
             
2.348000e+09  1.894825e-01 -5.637066e-01   
             
2.352000e+09  1.598187e-01 -5.471065e-01   
             
2.356000e+09  1.303220e-01 -5.271540e-01   
             
2.360000e+09  1.014654e-01 -5.036359e-01   
             
2.364000e+09  7.379056e-02 -4.764191e-01   
             
2.368000e+09  4.789189e-02 -4.454684e-01   
             
2.372000e+09  2.439532e-02 -4.108614e-01   
             
2.376000e+09  3.933867e-03 -3.727974e-01   
             
2.380000e+09 -1.287933e-02 -3.316011e-01   
             
2.384000e+09 -2.547854e-02 -2.877192e-01   
             
2.388000e+09 -3.337200e-02 -2.417105e-01   
             
2.392000e+09 -3.616566e-02 -1.942302e-01   
             
2.396000e+09 -3.358292e-02 -1.460085e-01   
             
2.400000e+09 -2.547893e-02 -9.782564e-02   
             
2.404000e+09 -1.184892e-02 -5.048416e-02   
             
2.408000e+09  7.169837e-03 -4.780024e-03   
             
2.412000e+09  3.130245e-02  3.852546e-02   
             
2.416000e+09  6.014665e-02  7.873194e-02   
             
2.420000e+09  9.318824e-02  1.152232e-01   
             
2.424000e+09  1.298207e-01  1.474861e-01   
             
2.428000e+09  1.693682e-01  1.751250e-01   
             
2.432000e+09  2.111099e-01  1.978708e-01   
             
2.436000e+09  2.543061e-01  2.155844e-01   
             
2.440000e+09  2.982232e-01  2.282552e-01   
             
2.444000e+09  3.421577e-01  2.359947e-01   
             
2.448000e+09  3.854578e-01  2.390249e-01   
             
2.452000e+09  4.275416e-01  2.376636e-01   
             
2.456000e+09  4.679118e-01  2.323064e-01   
             
2.460000e+09  5.061658e-01  2.234058e-01   
             
2.464000e+09  5.420008e-01  2.114506e-01   
             
2.468000e+09  5.752150e-01  1.969443e-01   
             
2.472000e+09  6.057034e-01  1.803844e-01   
             
2.476000e+09  6.334497e-01  1.622443e-01   
             
2.480000e+09  6.585151e-01  1.429577e-01   
             
2.484000e+09  6.810236e-01  1.229068e-01   
             
2.488000e+09  7.011468e-01  1.024139e-01   
             
2.492000e+09  7.190869e-01  8.173820e-02   
             
2.496000e+09  7.350610e-01  6.107547e-02   
             
2.500000e+09  7.492866e-01  4.056226e-02   
             
2.504000e+09  7.619688e-01  2.028276e-02   
             
2.508000e+09  7.732913e-01  2.779875e-04   
             
2.512000e+09  7.834098e-01 -1.944364e-02   
             
2.516000e+09  7.924487e-01 -3.889527e-02   
             
2.520000e+09  8.005015e-01 -5.810108e-02   
             
2.524000e+09  8.076329e-01 -7.708688e-02   
             
2.528000e+09  8.138840e-01 -9.587251e-02   
             
2.532000e+09  8.192787e-01 -1.144665e-01   
             
2.536000e+09  8.238301e-01 -1.328630e-01   
             
2.540000e+09  8.275479e-01 -1.510412e-01   
             
2.544000e+09  8.304445e-01 -1.689669e-01   
             
2.548000e+09  8.325404e-01 -1.865956e-01   
             
2.552000e+09  8.338673e-01 -2.038768e-01   
             
2.556000e+09  8.344702e-01 -2.207595e-01   
             
2.560000e+09  8.344074e-01 -2.371971e-01   
             
2.564000e+09  8.337481e-01 -2.531524e-01   
             
2.568000e+09  8.325699e-01 -2.686007e-01   
             
2.572000e+09  8.309545e-01 -2.835332e-01   
             
2.576000e+09  8.289826e-01 -2.979571e-01   
             
2.580000e+09  8.267297e-01 -3.118955e-01   
             
2.584000e+09  8.242615e-01 -3.253853e-01   
             
2.588000e+09  8.216308e-01 -3.384738e-01   
             
2.592000e+09  8.188750e-01 -3.512147e-01   
             
2.596000e+09  8.160151e-01 -3.636639e-01   
             
2.600000e+09  8.130568e-01 -3.758744e-01   
             
2.604000e+09  8.099917e-01 -3.878926e-01   
             
2.608000e+09  8.068004e-01 -3.997549e-01   
             
2.612000e+09  8.034564e-01 -4.114851e-01   
             
2.616000e+09  7.999301e-01 -4.230940e-01   
             
2.620000e+09  7.961930e-01 -4.345789e-01   
             
2.624000e+09  7.922214e-01 -4.459257e-01   
             
2.628000e+09  7.879998e-01 -4.571110e-01   
             
2.632000e+09  7.835231e-01 -4.681055e-01   
             
2.636000e+09  7.787972e-01 -4.788778e-01   
             
2.640000e+09  7.738396e-01 -4.893978e-01   
             
2.644000e+09  7.686775e-01 -4.996407e-01   
             
2.648000e+09  7.633460e-01 -5.095895e-01   
             
2.652000e+09  7.578851e-01 -5.192373e-01   
             
2.656000e+09  7.523360e-01 -5.285880e-01   
             
2.660000e+09  7.467381e-01 -5.376564e-01   
             
2.664000e+09  7.411254e-01 -5.464670e-01   
             
2.668000e+09  7.355239e-01 -5.550519e-01   
             
2.672000e+09  7.299497e-01 -5.634480e-01   
             
2.676000e+09  7.244081e-01 -5.716940e-01   
             
2.680000e+09  7.188939e-01 -5.798268e-01   
             
2.684000e+09  7.133918e-01 -5.878786e-01   
             
2.688000e+09  7.078790e-01 -5.958743e-01   
             
2.692000e+09  7.023277e-01 -6.038295e-01   
             
2.696000e+09  6.967078e-01 -6.117499e-01   
             
2.700000e+09  6.909904e-01 -6.196308e-01   
             
2.704000e+09  6.851506e-01 -6.274584e-01   
             
2.708000e+09  6.791700e-01 -6.352115e-01   
             
2.712000e+09  6.730388e-01 -6.428640e-01   
             
2.716000e+09  6.667564e-01 -6.503876e-01   
             
2.720000e+09  6.603317e-01 -6.577550e-01   
             
2.724000e+09  6.537822e-01 -6.649427e-01   
             
2.728000e+09  6.471324e-01 -6.719333e-01   
             
2.732000e+09  6.404114e-01 -6.787176e-01   
             
2.736000e+09  6.336502e-01 -6.852952e-01   
             
2.740000e+09  6.268789e-01 -6.916750e-01   
             
2.744000e+09  6.201239e-01 -6.978741e-01   
             
2.748000e+09  6.134054e-01 -7.039164e-01   
             
2.752000e+09  6.067359e-01 -7.098304e-01   
             
2.756000e+09  6.001191e-01 -7.156468e-01   
             
2.760000e+09  5.935496e-01 -7.213951e-01   
             
2.764000e+09  5.870137e-01 -7.271017e-01   
             
2.768000e+09  5.804910e-01 -7.327869e-01   
             
2.772000e+09  5.739564e-01 -7.384637e-01   
             
