#   Hz   S  RI   R   50
! 
1.400000e+09  4.391959e-01  8.678023e-01   
             
1.404000e+09  4.452483e-01  8.655126e-01   
             
1.408000e+09  4.515219e-01  8.630603e-01   
             
1.412000e+09  4.579609e-01  8.603761e-01   
             
1.416000e+09  4.644906e-01  8.574128e-01   
             
1.420000e+09  4.710266e-01  8.541504e-01   
             
1.424000e+09  4.774834e-01  8.505971e-01   
             
1.428000e+09  4.837839e-01  8.467878e-01   
             
1.432000e+09  4.898672e-01  8.427797e-01   
             
1.436000e+09  4.956947e-01  8.386457e-01   
             
1.440000e+09  5.012537e-01  8.344662e-01   
             
1.444000e+09  5.065580e-01  8.303202e-01   
             
1.448000e+09  5.116457e-01  8.262770e-01   
             
1.452000e+09  5.165748e-01  8.223891e-01   
             
1.456000e+09  5.214162e-01  8.186868e-01   
             
1.460000e+09  5.262456e-01  8.151755e-01   
             
1.464000e+09  5.311354e-01  8.118358e-01   
             
1.468000e+09  5.361471e-01  8.086264e-01   
             
1.472000e+09  5.413244e-01  8.054887e-01   
             
1.476000e+09  5.466895e-01  8.023543e-01   
             
1.480000e+09  5.522410e-01  7.991518e-01   
             
1.484000e+09  5.579546e-01  7.958152e-01   
             
1.488000e+09  5.637865e-01  7.922904e-01   
             
1.492000e+09  5.696782e-01  7.885411e-01   
             
1.496000e+09  5.755637e-01  7.845518e-01   
             
1.500000e+09  5.813758e-01  7.803293e-01   
             
1.504000e+09  5.870542e-01  7.759014e-01   
             
1.508000e+09  5.925513e-01  7.713133e-01   
             
1.512000e+09  5.978369e-01  7.666228e-01   
             
1.516000e+09  6.029014e-01  7.618932e-01   
             
1.520000e+09  6.077560e-01  7.571869e-01   
             
1.524000e+09  6.124313e-01  7.525587e-01   
             
1.528000e+09  6.169734e-01  7.480497e-01   
             
1.532000e+09  6.214387e-01  7.436837e-01   
             
1.536000e+09  6.258875e-01  7.394646e-01   
             
1.540000e+09  6.303771e-01  7.353766e-01   
             
1.544000e+09  6.349564e-01  7.313864e-01   
             
1.548000e+09  6.396599e-01  7.274471e-01   
             
1.552000e+09  6.445050e-01  7.235036e-01   
             
1.556000e+09  6.494901e-01  7.194990e-01   
             
1.560000e+09  6.545953e-01  7.153801e-01   
             
1.564000e+09  6.597849e-01  7.111040e-01   
             
1.568000e+09  6.650115e-01  7.066415e-01   
             
1.572000e+09  6.702215e-01  7.019808e-01   
             
1.576000e+09  6.753607e-01  6.971278e-01   
             
1.580000e+09  6.803804e-01  6.921055e-01   
             
1.584000e+09  6.852420e-01  6.869511e-01   
             
1.588000e+09  6.899216e-01  6.817118e-01   
             
1.592000e+09  6.944117e-01  6.764393e-01   
             
1.596000e+09  6.987221e-01  6.711844e-01   
             
1.600000e+09  7.028781e-01  6.659918e-01   
             
1.604000e+09  7.069178e-01  6.608948e-01   
             
1.608000e+09  7.108877e-01  6.559123e-01   
             
1.612000e+09  7.148371e-01  6.510471e-01   
             
1.616000e+09  7.188134e-01  6.462857e-01   
             
1.620000e+09  7.228562e-01  6.416002e-01   
             
1.624000e+09  7.269939e-01  6.369516e-01   
             
1.628000e+09  7.312401e-01  6.322943e-01   
             
1.632000e+09  7.355930e-01  6.275808e-01   
             
1.636000e+09  7.400356e-01  6.227675e-01   
             
1.640000e+09  7.445376e-01  6.178188e-01   
             
1.644000e+09  7.490593e-01  6.127110e-01   
             
1.648000e+09  7.535557e-01  6.074346e-01   
             
1.652000e+09  7.579814e-01  6.019953e-01   
             
1.656000e+09  7.622958e-01  5.964129e-01   
             
1.660000e+09  7.664669e-01  5.907190e-01   
             
1.664000e+09  7.704750e-01  5.849535e-01   
             
1.668000e+09  7.743145e-01  5.791604e-01   
             
1.672000e+09  7.779940e-01  5.733823e-01   
             
1.676000e+09  7.815354e-01  5.676567e-01   
             
1.680000e+09  7.849715e-01  5.620114e-01   
             
1.684000e+09  7.883418e-01  5.564620e-01   
             
1.688000e+09  7.916884e-01  5.510103e-01   
             
1.692000e+09  7.950513e-01  5.456441e-01   
             
1.696000e+09  7.984640e-01  5.403393e-01   
             
1.700000e+09  8.019503e-01  5.350621e-01   
             
1.704000e+09  8.055212e-01  5.297732e-01   
             
1.708000e+09  8.091746e-01  5.244321e-01   
             
1.712000e+09  8.128951e-01  5.190012e-01   
             
1.716000e+09  8.166563e-01  5.134505e-01   
             
1.720000e+09  8.204234e-01  5.077598e-01   
             
1.724000e+09  8.241574e-01  5.019217e-01   
             
1.728000e+09  8.278189e-01  4.959417e-01   
             
1.732000e+09  8.313730e-01  4.898375e-01   
             
1.736000e+09  8.347921e-01  4.836371e-01   
             
1.740000e+09  8.380596e-01  4.773757e-01   
             
1.744000e+09  8.411712e-01  4.710916e-01   
             
1.748000e+09  8.441350e-01  4.648220e-01   
             
1.752000e+09  8.469708e-01  4.585996e-01   
             
1.756000e+09  8.497077e-01  4.524482e-01   
             
1.760000e+09  8.523806e-01  4.463809e-01   
             
1.764000e+09  8.550266e-01  4.403987e-01   
             
1.768000e+09  8.576809e-01  4.344903e-01   
             
1.772000e+09  8.603728e-01  4.286336e-01   
             
1.776000e+09  8.631226e-01  4.227985e-01   
             
1.780000e+09  8.659396e-01  4.169497e-01   
             
1.784000e+09  8.688210e-01  4.110512e-01   
             
1.788000e+09  8.717527e-01  4.050698e-01   
             
1.792000e+09  8.747103e-01  3.989788e-01   
             
1.796000e+09  8.776624e-01  3.927609e-01   
             
1.800000e+09  8.805735e-01  3.864101e-01   
             
1.804000e+09  8.834085e-01  3.799318e-01   
             
1.808000e+09  8.861358e-01  3.733428e-01   
             
1.812000e+09  8.887313e-01  3.666688e-01   
             
1.816000e+09  8.911802e-01  3.599419e-01   
             
1.820000e+09  8.934794e-01  3.531968e-01   
             
1.824000e+09  8.956368e-01  3.464675e-01   
             
1.828000e+09  8.976709e-01  3.397830e-01   
             
1.832000e+09  8.996087e-01  3.331647e-01   
             
1.836000e+09  9.014824e-01  3.266239e-01   
             
1.840000e+09  9.033259e-01  3.201607e-01   
             
1.844000e+09  9.051711e-01  3.137640e-01   
             
1.848000e+09  9.070445e-01  3.074131e-01   
             
1.852000e+09  9.089643e-01  3.010794e-01   
             
1.856000e+09  9.109382e-01  2.947304e-01   
             
1.860000e+09  9.129629e-01  2.883325e-01   
             
1.864000e+09  9.150244e-01  2.818552e-01   
             
1.868000e+09  9.170994e-01  2.752742e-01   
             
1.872000e+09  9.191580e-01  2.685738e-01   
             
1.876000e+09  9.211671e-01  2.617491e-01   
             
1.880000e+09  9.230935e-01  2.548061e-01   
             
1.884000e+09  9.249080e-01  2.477608e-01   
             
1.888000e+09  9.265880e-01  2.406382e-01   
             
1.892000e+09  9.281205e-01  2.334687e-01   
             
1.896000e+09  9.295028e-01  2.262853e-01   
             
1.900000e+09  9.307433e-01  2.191198e-01   
             
1.904000e+09  9.318602e-01  2.119994e-01   
             
1.908000e+09  9.328793e-01  2.049438e-01   
             
1.912000e+09  9.338314e-01  1.979630e-01   
             
1.916000e+09  9.347490e-01  1.910563e-01   
             
1.920000e+09  9.356622e-01  1.842121e-01   
             
1.924000e+09  9.365959e-01  1.774098e-01   
             
1.928000e+09  9.375667e-01  1.706215e-01   
             
1.932000e+09  9.385811e-01  1.638153e-01   
             
1.936000e+09  9.396348e-01  1.569589e-01   
             
1.940000e+09  9.407134e-01  1.500228e-01   
             
1.944000e+09  9.417934e-01  1.429839e-01   
             
1.948000e+09  9.428450e-01  1.358275e-01   
             
1.952000e+09  9.438353e-01  1.285497e-01   
             
1.956000e+09  9.447318e-01  1.211569e-01   
             
1.960000e+09  9.455059e-01  1.136659e-01   
             
1.964000e+09  9.461358e-01  1.061016e-01   
             
1.968000e+09  9.466093e-01  9.849431e-02   
             
1.972000e+09  9.469242e-01  9.087679e-02   
             
1.976000e+09  9.470896e-01  8.328032e-02   
             
1.980000e+09  9.471239e-01  7.573141e-02   
             
1.984000e+09  9.470533e-01  6.824886e-02   
             
1.988000e+09  9.469087e-01  6.084167e-02   
             
1.992000e+09  9.467222e-01  5.350803e-02   
             
1.996000e+09  9.465236e-01  4.623545e-02   
             
2.000000e+09  9.463370e-01  3.900208e-02   
             
2.004000e+09  9.461779e-01  3.177911e-02   
             
2.008000e+09  9.460518e-01  2.453382e-02   
             
2.012000e+09  9.459528e-01  1.723320e-02   
             
2.016000e+09  9.458647e-01  9.847519e-03   
             
2.020000e+09  9.457624e-01  2.353598e-03   
             
2.024000e+09  9.456142e-01 -5.262618e-03   
             
2.028000e+09  9.453856e-01 -1.300449e-02   
             
2.032000e+09  9.450427e-01 -2.086424e-02   
             
2.036000e+09  9.445558e-01 -2.882377e-02   
             
2.040000e+09  9.439026e-01 -3.685656e-02   
             
2.044000e+09  9.430706e-01 -4.493056e-02   
             
2.048000e+09  9.420583e-01 -5.301165e-02   
             
2.052000e+09  9.408755e-01 -6.106739e-02   
             
2.056000e+09  9.395419e-01 -6.907067e-02   
             
2.060000e+09  9.380852e-01 -7.700272e-02   
             
2.064000e+09  9.365377e-01 -8.485528e-02   
             
2.068000e+09  9.349329e-01 -9.263166e-02   
             
2.072000e+09  9.333011e-01 -1.003465e-01   
             
2.076000e+09  9.316664e-01 -1.080243e-01   
             
2.080000e+09  9.300435e-01 -1.156968e-01   
             
2.084000e+09  9.284359e-01 -1.233998e-01   
             
2.088000e+09  9.268349e-01 -1.311688e-01   
             
2.092000e+09  9.252205e-01 -1.390358e-01   
             
2.096000e+09  9.235630e-01 -1.470250e-01   
             
2.100000e+09  9.218261e-01 -1.551505e-01   
             
2.104000e+09  9.199703e-01 -1.634148e-01   
             
2.108000e+09  9.179570e-01 -1.718078e-01   
             
2.112000e+09  9.157528e-01 -1.803081e-01   
             
2.116000e+09  9.133325e-01 -1.888853e-01   
             
2.120000e+09  9.106820e-01 -1.975031e-01   
             
2.124000e+09  9.077995e-01 -2.061231e-01   
             
2.128000e+09  9.046957e-01 -2.147092e-01   
             
2.132000e+09  9.013926e-01 -2.232318e-01   
             
2.136000e+09  8.979204e-01 -2.316710e-01   
             
2.140000e+09  8.943142e-01 -2.400188e-01   
             
2.144000e+09  8.906096e-01 -2.482807e-01   
             
2.148000e+09  8.868387e-01 -2.564752e-01   
             
2.152000e+09  8.830250e-01 -2.646317e-01   
             
2.156000e+09  8.791811e-01 -2.727876e-01   
             
2.160000e+09  8.753058e-01 -2.809846e-01   
             
2.164000e+09  8.713838e-01 -2.892634e-01   
             
2.168000e+09  8.673858e-01 -2.976599e-01   
             
2.172000e+09  8.632715e-01 -3.062004e-01   
             
2.176000e+09  8.589928e-01 -3.148986e-01   
             
2.180000e+09  8.544979e-01 -3.237537e-01   
             
2.184000e+09  8.497366e-01 -3.327499e-01   
             
2.188000e+09  8.446652e-01 -3.418578e-01   
             
2.192000e+09  8.392499e-01 -3.510368e-01   
             
2.196000e+09  8.334707e-01 -3.602396e-01   
             
2.200000e+09  8.273226e-01 -3.694166e-01   
             
2.204000e+09  8.208156e-01 -3.785218e-01   
             
2.208000e+09  8.139726e-01 -3.875170e-01   
             
2.212000e+09  8.068264e-01 -3.963766e-01   
             
2.216000e+09  7.994144e-01 -4.050902e-01   
             
2.220000e+09  7.917735e-01 -4.136639e-01   
             
2.224000e+09  7.839340e-01 -4.221195e-01   
             
2.228000e+09  7.759145e-01 -4.304920e-01   
             
2.232000e+09  7.677176e-01 -4.388253e-01   
             
2.236000e+09  7.593266e-01 -4.471666e-01   
             
2.240000e+09  7.507053e-01 -4.555602e-01   
             
2.244000e+09  7.417989e-01 -4.640410e-01   
             
2.248000e+09  7.325370e-01 -4.726291e-01   
             
2.252000e+09  7.228389e-01 -4.813248e-01   
             
2.256000e+09  7.126195e-01 -4.901064e-01   
             
2.260000e+09  7.017962e-01 -4.989291e-01   
             
2.264000e+09  6.902960e-01 -5.077272e-01   
             
2.268000e+09  6.780605e-01 -5.164176e-01   
             
2.272000e+09  6.650512e-01 -5.249055e-01   
             
2.276000e+09  6.512506e-01 -5.330912e-01   
             
2.280000e+09  6.366626e-01 -5.408776e-01   
             
2.284000e+09  6.213092e-01 -5.481764e-01   
             
2.288000e+09  6.052249e-01 -5.549143e-01   
             
2.292000e+09  5.884503e-01 -5.610354e-01   
             
2.296000e+09  5.710228e-01 -5.665027e-01   
             
2.300000e+09  5.529691e-01 -5.712945e-01   
             
2.304000e+09  5.342971e-01 -5.753992e-01   
             
2.308000e+09  5.149906e-01 -5.788062e-01   
             
2.312000e+09  4.950073e-01 -5.814955e-01   
             
2.316000e+09  4.742796e-01 -5.834249e-01   
             
2.320000e+09  4.527207e-01 -5.845185e-01   
             
2.324000e+09  4.302345e-01 -5.846556e-01   
             
2.328000e+09  4.067293e-01 -5.836629e-01   
             
2.332000e+09  3.821349e-01 -5.813105e-01   
             
2.336000e+09  3.564219e-01 -5.773133e-01   
             
2.340000e+09  3.296207e-01 -5.713376e-01   
             
2.344000e+09  3.018402e-01 -5.630147e-01   
             
2.348000e+09  2.732821e-01 -5.519592e-01   
             
2.352000e+09  2.442520e-01 -5.377933e-01   
             
2.356000e+09  2.151619e-01 -5.201740e-01   
             
2.360000e+09  1.865273e-01 -4.988219e-01   
             
2.364000e+09  1.589543e-01 -4.735500e-01   
             
2.368000e+09  1.331202e-01 -4.442891e-01   
             
2.372000e+09  1.097463e-01 -4.111084e-01   
             
2.376000e+09  8.956489e-02 -3.742287e-01   
             
2.380000e+09  7.328394e-02 -3.340268e-01   
             
2.384000e+09  6.154959e-02 -2.910311e-01   
             
2.388000e+09  5.491120e-02 -2.459072e-01   
             
2.392000e+09  5.379038e-02 -1.994352e-01   
             
2.396000e+09  5.845634e-02 -1.524797e-01   
             
2.400000e+09  6.900930e-02 -1.059548e-01   
             
2.404000e+09  8.537285e-02 -6.078587e-02   
             
2.408000e+09  1.072955e-01 -1.787144e-02   
             
2.412000e+09  1.343610e-01  2.195389e-02   
             
2.416000e+09  1.660071e-01  5.795205e-02   
             
2.420000e+09  2.015500e-01  8.950897e-02   
             
2.424000e+09  2.402149e-01  1.161551e-01   
             
2.428000e+09  2.811688e-01  1.375788e-01   
             
2.432000e+09  3.235556e-01  1.536312e-01   
             
2.436000e+09  3.665298e-01  1.643241e-01   
             
2.440000e+09  4.092890e-01  1.698201e-01   
             
2.444000e+09  4.511021e-01  1.704163e-01   
             
2.448000e+09  4.913331e-01  1.665224e-01   
             
2.452000e+09  5.294585e-01  1.586352e-01   
             
2.456000e+09  5.650782e-01  1.473098e-01   
             
2.460000e+09  5.979197e-01  1.331307e-01   
             
2.464000e+09  6.278346e-01  1.166830e-01   
             
2.468000e+09  6.547900e-01  9.852671e-02   
             
2.472000e+09  6.788534e-01  7.917415e-02   
             
2.476000e+09  7.001739e-01  5.907326e-02   
             
2.480000e+09  7.189605e-01  3.859611e-02   
             
2.484000e+09  7.354599e-01  1.803367e-02   
             
2.488000e+09  7.499347e-01 -2.403394e-03   
             
2.492000e+09  7.626433e-01 -2.257877e-02   
             
2.496000e+09  7.738246e-01 -4.242013e-02   
             
2.500000e+09  7.836854e-01 -6.190579e-02   
             
2.504000e+09  7.923934e-01 -8.104978e-02   
             
2.508000e+09  8.000752e-01 -9.988677e-02   
             
2.512000e+09  8.068178e-01 -1.184581e-01   
             
2.516000e+09  8.126742e-01 -1.368001e-01   
             
2.520000e+09  8.176716e-01 -1.549355e-01   
             
2.524000e+09  8.218208e-01 -1.728683e-01   
             
2.528000e+09  8.251259e-01 -1.905817e-01   
             
2.532000e+09  8.275937e-01 -2.080405e-01   
             
2.536000e+09  8.292408e-01 -2.251943e-01   
             
2.540000e+09  8.300988e-01 -2.419845e-01   
             
2.544000e+09  8.302168e-01 -2.583510e-01   
             
2.548000e+09  8.296610e-01 -2.742396e-01   
             
2.552000e+09  8.285122e-01 -2.896083e-01   
             
2.556000e+09  8.268609e-01 -3.044323e-01   
             
2.560000e+09  8.248017e-01 -3.187070e-01   
             
2.564000e+09  8.224262e-01 -3.324483e-01   
             
2.568000e+09  8.198172e-01 -3.456918e-01   
             
2.572000e+09  8.170429e-01 -3.584884e-01   
             
2.576000e+09  8.141534e-01 -3.708999e-01   
             
2.580000e+09  8.111784e-01 -3.829925e-01   
             
2.584000e+09  8.081272e-01 -3.948310e-01   
             
2.588000e+09  8.049910e-01 -4.064726e-01   
             
2.592000e+09  8.017463e-01 -4.179624e-01   
             
2.596000e+09  7.983600e-01 -4.293299e-01   
             
2.600000e+09  7.947950e-01 -4.405874e-01   
             
2.604000e+09  7.910158e-01 -4.517308e-01   
             
2.608000e+09  7.869937e-01 -4.627410e-01   
             
2.612000e+09  7.827111e-01 -4.735879e-01   
             
2.616000e+09  7.781638e-01 -4.842351e-01   
             
2.620000e+09  7.733624e-01 -4.946447e-01   
             
2.624000e+09  7.683314e-01 -5.047825e-01   
             
2.628000e+09  7.631069e-01 -5.146223e-01   
             
2.632000e+09  7.577333e-01 -5.241497e-01   
             
2.636000e+09  7.522586e-01 -5.333636e-01   
             
2.640000e+09  7.467297e-01 -5.422769e-01   
             
2.644000e+09  7.411885e-01 -5.509153e-01   
             
2.648000e+09  7.356670e-01 -5.593150e-01   
             
2.652000e+09  7.301854e-01 -5.675187e-01   
             
2.656000e+09  7.247502e-01 -5.755715e-01   
             
2.660000e+09  7.193545e-01 -5.835169e-01   
             
2.664000e+09  7.139792e-01 -5.913918e-01   
             
2.668000e+09  7.085960e-01 -5.992238e-01   
             
2.672000e+09  7.031707e-01 -6.070286e-01   
             
2.676000e+09  6.976677e-01 -6.148091e-01   
             
2.680000e+09  6.920539e-01 -6.225556e-01   
             
2.684000e+09  6.863027e-01 -6.302479e-01   
             
2.688000e+09  6.803970e-01 -6.378574e-01   
             
2.692000e+09  6.743307e-01 -6.453518e-01   
             
2.696000e+09  6.681100e-01 -6.526979e-01   
             
2.700000e+09  6.617521e-01 -6.598664e-01   
             
2.704000e+09  6.552837e-01 -6.668350e-01   
             
2.708000e+09  6.487377e-01 -6.735908e-01   
             
2.712000e+09  6.421501e-01 -6.801323e-01   
             
2.716000e+09  6.355558e-01 -6.864692e-01   
             
2.720000e+09  6.289850e-01 -6.926216e-01   
             
2.724000e+09  6.224604e-01 -6.986179e-01   
             
2.728000e+09  6.159945e-01 -7.044916e-01   
             
2.732000e+09  6.095888e-01 -7.102783e-01   
             
2.736000e+09  6.032341e-01 -7.160111e-01   
             
2.740000e+09  5.969110e-01 -7.217182e-01   
             
2.744000e+09  5.905932e-01 -7.274193e-01   
             
2.748000e+09  5.842498e-01 -7.331244e-01   
             
2.752000e+09  5.778492e-01 -7.388324e-01   
             
2.756000e+09  5.713624e-01 -7.445318e-01   
             
2.760000e+09  5.647665e-01 -7.502023e-01   
             
2.764000e+09  5.580467e-01 -7.558173e-01   
             
2.768000e+09  5.511985e-01 -7.613466e-01   
             
2.772000e+09  5.442277e-01 -7.667602e-01   
             
