#   Hz   S  RI   R   50
! 
1.400000e+09  4.868478e-01  8.419102e-01   
             
1.404000e+09  4.920212e-01  8.380541e-01   
             
1.408000e+09  4.970607e-01  8.343681e-01   
             
1.412000e+09  5.020452e-01  8.308737e-01   
             
1.416000e+09  5.070551e-01  8.275640e-01   
             
1.420000e+09  5.121622e-01  8.244053e-01   
             
1.424000e+09  5.174215e-01  8.213422e-01   
             
1.428000e+09  5.228651e-01  8.183046e-01   
             
1.432000e+09  5.284986e-01  8.152169e-01   
             
1.436000e+09  5.343018e-01  8.120071e-01   
             
1.440000e+09  5.402312e-01  8.086154e-01   
             
1.444000e+09  5.462264e-01  8.050013e-01   
             
1.448000e+09  5.522177e-01  8.011477e-01   
             
1.452000e+09  5.581348e-01  7.970623e-01   
             
1.456000e+09  5.639154e-01  7.927762e-01   
             
1.460000e+09  5.695120e-01  7.883392e-01   
             
1.464000e+09  5.748979e-01  7.838131e-01   
             
1.468000e+09  5.800692e-01  7.792644e-01   
             
1.472000e+09  5.850445e-01  7.747556e-01   
             
1.476000e+09  5.898625e-01  7.703382e-01   
             
1.480000e+09  5.945762e-01  7.660467e-01   
             
1.484000e+09  5.992461e-01  7.618951e-01   
             
1.488000e+09  6.039333e-01  7.578757e-01   
             
1.492000e+09  6.086912e-01  7.539606e-01   
             
1.496000e+09  6.135600e-01  7.501058e-01   
             
1.500000e+09  6.185621e-01  7.462568e-01   
             
1.504000e+09  6.236994e-01  7.423556e-01   
             
1.508000e+09  6.289541e-01  7.383476e-01   
             
1.512000e+09  6.342909e-01  7.341882e-01   
             
1.516000e+09  6.396621e-01  7.298482e-01   
             
1.520000e+09  6.450134e-01  7.253165e-01   
             
1.524000e+09  6.502907e-01  7.206013e-01   
             
1.528000e+09  6.554466e-01  7.157284e-01   
             
1.532000e+09  6.604459e-01  7.107379e-01   
             
1.536000e+09  6.652694e-01  7.056786e-01   
             
1.540000e+09  6.699161e-01  7.006024e-01   
             
1.544000e+09  6.744024e-01  6.955575e-01   
             
1.548000e+09  6.787598e-01  6.905831e-01   
             
1.552000e+09  6.830308e-01  6.857047e-01   
             
1.556000e+09  6.872634e-01  6.809314e-01   
             
1.560000e+09  6.915050e-01  6.762555e-01   
             
1.564000e+09  6.957970e-01  6.716534e-01   
             
1.568000e+09  7.001699e-01  6.670893e-01   
             
1.572000e+09  7.046394e-01  6.625195e-01   
             
1.576000e+09  7.092055e-01  6.578981e-01   
             
1.580000e+09  7.138523e-01  6.531824e-01   
             
1.584000e+09  7.185506e-01  6.483379e-01   
             
1.588000e+09  7.232614e-01  6.433429e-01   
             
1.592000e+09  7.279411e-01  6.381901e-01   
             
1.596000e+09  7.325466e-01  6.328876e-01   
             
1.600000e+09  7.370408e-01  6.274574e-01   
             
1.604000e+09  7.413965e-01  6.219328e-01   
             
1.608000e+09  7.455998e-01  6.163535e-01   
             
1.612000e+09  7.496510e-01  6.107612e-01   
             
1.616000e+09  7.535648e-01  6.051946e-01   
             
1.620000e+09  7.573677e-01  5.996843e-01   
             
1.624000e+09  7.610948e-01  5.942498e-01   
             
1.628000e+09  7.647852e-01  5.888973e-01   
             
1.632000e+09  7.684773e-01  5.836190e-01   
             
1.636000e+09  7.722040e-01  5.783946e-01   
             
1.640000e+09  7.759892e-01  5.731942e-01   
             
1.644000e+09  7.798444e-01  5.679815e-01   
             
1.648000e+09  7.837682e-01  5.627189e-01   
             
1.652000e+09  7.877465e-01  5.573718e-01   
             
1.656000e+09  7.917540e-01  5.519128e-01   
             
1.660000e+09  7.957581e-01  5.463250e-01   
             
1.664000e+09  7.997224e-01  5.406036e-01   
             
1.668000e+09  8.036117e-01  5.347566e-01   
             
1.672000e+09  8.073954e-01  5.288033e-01   
             
1.676000e+09  8.110521e-01  5.227720e-01   
             
1.680000e+09  8.145710e-01  5.166962e-01   
             
1.684000e+09  8.179537e-01  5.106109e-01   
             
1.688000e+09  8.212134e-01  5.045477e-01   
             
1.692000e+09  8.243731e-01  4.985318e-01   
             
1.696000e+09  8.274628e-01  4.925784e-01   
             
1.700000e+09  8.305154e-01  4.866918e-01   
             
1.704000e+09  8.335630e-01  4.808643e-01   
             
1.708000e+09  8.366329e-01  4.750779e-01   
             
1.712000e+09  8.397443e-01  4.693065e-01   
             
1.716000e+09  8.429060e-01  4.635192e-01   
             
1.720000e+09  8.461157e-01  4.576839e-01   
             
1.724000e+09  8.493603e-01  4.517717e-01   
             
1.728000e+09  8.526174e-01  4.457598e-01   
             
1.732000e+09  8.558586e-01  4.396346e-01   
             
1.736000e+09  8.590526e-01  4.333932e-01   
             
1.740000e+09  8.621691e-01  4.270433e-01   
             
1.744000e+09  8.651825e-01  4.206024e-01   
             
1.748000e+09  8.680748e-01  4.140955e-01   
             
1.752000e+09  8.708378e-01  4.075519e-01   
             
1.756000e+09  8.734736e-01  4.010018e-01   
             
1.760000e+09  8.759944e-01  3.944723e-01   
             
1.764000e+09  8.784211e-01  3.879846e-01   
             
1.768000e+09  8.807800e-01  3.815513e-01   
             
1.772000e+09  8.831000e-01  3.751751e-01   
             
1.776000e+09  8.854089e-01  3.688484e-01   
             
1.780000e+09  8.877301e-01  3.625547e-01   
             
1.784000e+09  8.900797e-01  3.562703e-01   
             
1.788000e+09  8.924644e-01  3.499678e-01   
             
1.792000e+09  8.948813e-01  3.436189e-01   
             
1.796000e+09  8.973177e-01  3.371983e-01   
             
1.800000e+09  8.997533e-01  3.306864e-01   
             
1.804000e+09  9.021621e-01  3.240721e-01   
             
1.808000e+09  9.045161e-01  3.173533e-01   
             
1.812000e+09  9.067884e-01  3.105381e-01   
             
1.816000e+09  9.089564e-01  3.036426e-01   
             
1.820000e+09  9.110046e-01  2.966899e-01   
             
1.824000e+09  9.129263e-01  2.897066e-01   
             
1.828000e+09  9.147242e-01  2.827197e-01   
             
1.832000e+09  9.164101e-01  2.757536e-01   
             
1.836000e+09  9.180032e-01  2.688267e-01   
             
1.840000e+09  9.195278e-01  2.619497e-01   
             
1.844000e+09  9.210103e-01  2.551242e-01   
             
1.848000e+09  9.224757e-01  2.483423e-01   
             
1.852000e+09  9.239447e-01  2.415884e-01   
             
1.856000e+09  9.254312e-01  2.348401e-01   
             
1.860000e+09  9.269406e-01  2.280719e-01   
             
1.864000e+09  9.284692e-01  2.212579e-01   
             
1.868000e+09  9.300043e-01  2.143750e-01   
             
1.872000e+09  9.315263e-01  2.074057e-01   
             
1.876000e+09  9.330107e-01  2.003402e-01   
             
1.880000e+09  9.344312e-01  1.931777e-01   
             
1.884000e+09  9.357627e-01  1.859262e-01   
             
1.888000e+09  9.369844e-01  1.786018e-01   
             
1.892000e+09  9.380824e-01  1.712262e-01   
             
1.896000e+09  9.390509e-01  1.638248e-01   
             
1.900000e+09  9.398933e-01  1.564230e-01   
             
1.904000e+09  9.406212e-01  1.490432e-01   
             
1.908000e+09  9.412533e-01  1.417024e-01   
             
1.912000e+09  9.418128e-01  1.344099e-01   
             
1.916000e+09  9.423245e-01  1.271662e-01   
             
1.920000e+09  9.428121e-01  1.199631e-01   
             
1.924000e+09  9.432947e-01  1.127846e-01   
             
1.928000e+09  9.437846e-01  1.056089e-01   
             
1.932000e+09  9.442859e-01  9.841120e-02   
             
1.936000e+09  9.447938e-01  9.116641e-02   
             
1.940000e+09  9.452952e-01  8.385255e-02   
             
1.944000e+09  9.457702e-01  7.645322e-02   
             
1.948000e+09  9.461941e-01  6.895968e-02   
             
1.952000e+09  9.465410e-01  6.137191e-02   
             
1.956000e+09  9.467863e-01  5.369859e-02   
             
1.960000e+09  9.469099e-01  4.595608e-02   
             
1.964000e+09  9.468984e-01  3.816642e-02   
             
1.968000e+09  9.467467e-01  3.035462e-02   
             
1.972000e+09  9.464587e-01  2.254567e-02   
             
1.976000e+09  9.460465e-01  1.476144e-02   
             
1.980000e+09  9.455288e-01  7.018021e-03   
             
1.984000e+09  9.449288e-01 -6.762514e-04   
             
1.988000e+09  9.442712e-01 -8.321859e-03   
             
1.992000e+09  9.435787e-01 -1.592807e-02   
             
1.996000e+09  9.428698e-01 -2.351184e-02   
             
2.000000e+09  9.421554e-01 -3.109578e-02   
             
2.004000e+09  9.414384e-01 -3.870544e-02   
             
2.008000e+09  9.407124e-01 -4.636618e-02   
             
2.012000e+09  9.399624e-01 -5.410006e-02   
             
2.016000e+09  9.391667e-01 -6.192318e-02   
             
2.020000e+09  9.382992e-01 -6.984359e-02   
             
2.024000e+09  9.373323e-01 -7.786034e-02   
             
2.028000e+09  9.362404e-01 -8.596347e-02   
             
2.032000e+09  9.350025e-01 -9.413522e-02   
             
2.036000e+09  9.336048e-01 -1.023521e-01   
             
2.040000e+09  9.320425e-01 -1.105878e-01   
             
2.044000e+09  9.303199e-01 -1.188164e-01   
             
2.048000e+09  9.284497e-01 -1.270154e-01   
             
2.052000e+09  9.264519e-01 -1.351688e-01   
             
2.056000e+09  9.243504e-01 -1.432688e-01   
             
2.060000e+09  9.221704e-01 -1.513173e-01   
             
2.064000e+09  9.199349e-01 -1.593251e-01   
             
2.068000e+09  9.176615e-01 -1.673116e-01   
             
2.072000e+09  9.153601e-01 -1.753017e-01   
             
2.076000e+09  9.130309e-01 -1.833231e-01   
             
2.080000e+09  9.106644e-01 -1.914029e-01   
             
2.084000e+09  9.082420e-01 -1.995646e-01   
             
2.088000e+09  9.057375e-01 -2.078244e-01   
             
2.092000e+09  9.031202e-01 -2.161898e-01   
             
2.096000e+09  9.003582e-01 -2.246581e-01   
             
2.100000e+09  8.974219e-01 -2.332167e-01   
             
2.104000e+09  8.942872e-01 -2.418444e-01   
             
2.108000e+09  8.909383e-01 -2.505142e-01   
             
2.112000e+09  8.873691e-01 -2.591958e-01   
             
2.116000e+09  8.835839e-01 -2.678600e-01   
             
2.120000e+09  8.795964e-01 -2.764819e-01   
             
2.124000e+09  8.754278e-01 -2.850440e-01   
             
2.128000e+09  8.711034e-01 -2.935387e-01   
             
2.132000e+09  8.666493e-01 -3.019691e-01   
             
2.136000e+09  8.620884e-01 -3.103489e-01   
             
2.140000e+09  8.574367e-01 -3.187007e-01   
             
2.144000e+09  8.527006e-01 -3.270536e-01   
             
2.148000e+09  8.478749e-01 -3.354390e-01   
             
2.152000e+09  8.429426e-01 -3.438873e-01   
             
2.156000e+09  8.378759e-01 -3.524232e-01   
             
2.160000e+09  8.326380e-01 -3.610627e-01   
             
2.164000e+09  8.271872e-01 -3.698105e-01   
             
2.168000e+09  8.214804e-01 -3.786588e-01   
             
2.172000e+09  8.154777e-01 -3.875876e-01   
             
2.176000e+09  8.091461e-01 -3.965664e-01   
             
2.180000e+09  8.024628e-01 -4.055578e-01   
             
2.184000e+09  7.954170e-01 -4.145206e-01   
             
2.188000e+09  7.880102e-01 -4.234153e-01   
             
2.192000e+09  7.802549e-01 -4.322079e-01   
             
2.196000e+09  7.721720e-01 -4.408738e-01   
             
2.200000e+09  7.637864e-01 -4.494004e-01   
             
2.204000e+09  7.551224e-01 -4.577885e-01   
             
2.208000e+09  7.461990e-01 -4.660512e-01   
             
2.212000e+09  7.370244e-01 -4.742118e-01   
             
2.216000e+09  7.275932e-01 -4.822995e-01   
             
2.220000e+09  7.178838e-01 -4.903451e-01   
             
2.224000e+09  7.078583e-01 -4.983743e-01   
             
2.228000e+09  6.974639e-01 -5.064031e-01   
             
2.232000e+09  6.866364e-01 -5.144323e-01   
             
2.236000e+09  6.753050e-01 -5.224446e-01   
             
2.240000e+09  6.633982e-01 -5.304027e-01   
             
2.244000e+09  6.508501e-01 -5.382498e-01   
             
2.248000e+09  6.376054e-01 -5.459118e-01   
             
2.252000e+09  6.236244e-01 -5.533023e-01   
             
2.256000e+09  6.088853e-01 -5.603274e-01   
             
2.260000e+09  5.933841e-01 -5.668926e-01   
             
2.264000e+09  5.771336e-01 -5.729078e-01   
             
2.268000e+09  5.601581e-01 -5.782928e-01   
             
2.272000e+09  5.424884e-01 -5.829796e-01   
             
2.276000e+09  5.241542e-01 -5.869128e-01   
             
2.280000e+09  5.051779e-01 -5.900469e-01   
             
2.284000e+09  4.855688e-01 -5.923408e-01   
             
2.288000e+09  4.653190e-01 -5.937498e-01   
             
2.292000e+09  4.444036e-01 -5.942155e-01   
             
2.296000e+09  4.227837e-01 -5.936559e-01   
             
2.300000e+09  4.004138e-01 -5.919555e-01   
             
2.304000e+09  3.772531e-01 -5.889575e-01   
             
2.308000e+09  3.532799e-01 -5.844595e-01   
             
2.312000e+09  3.285090e-01 -5.782141e-01   
             
2.316000e+09  3.030087e-01 -5.699348e-01   
             
2.320000e+09  2.769180e-01 -5.593077e-01   
             
2.324000e+09  2.504602e-01 -5.460091e-01   
             
2.328000e+09  2.239522e-01 -5.297278e-01   
             
2.332000e+09  1.978072e-01 -5.101909e-01   
             
2.336000e+09  1.725299e-01 -4.871918e-01   
             
2.340000e+09  1.487044e-01 -4.606167e-01   
             
2.344000e+09  1.269729e-01 -4.304688e-01   
             
2.348000e+09  1.080088e-01 -3.968867e-01   
             
2.352000e+09  9.248331e-02 -3.601551e-01   
             
2.356000e+09  8.103002e-02 -3.207072e-01   
             
2.360000e+09  7.420838e-02 -2.791170e-01   
             
2.364000e+09  7.247001e-02 -2.360821e-01   
             
2.368000e+09  7.612983e-02 -1.923978e-01   
             
2.372000e+09  8.534448e-02 -1.489251e-01   
             
2.376000e+09  1.000995e-01 -1.065532e-01   
             
2.380000e+09  1.202063e-01 -6.616039e-02   
             
2.384000e+09  1.453084e-01 -2.857544e-02   
             
2.388000e+09  1.748975e-01  5.457710e-03   
             
2.392000e+09  2.083360e-01  3.531050e-02   
             
2.396000e+09  2.448875e-01  6.049326e-02   
             
2.400000e+09  2.837492e-01  8.067098e-02   
             
2.404000e+09  3.240881e-01  9.567059e-02   
             
2.408000e+09  3.650765e-01  1.054799e-01   
             
2.412000e+09  4.059250e-01  1.102386e-01   
             
2.416000e+09  4.459125e-01  1.102219e-01   
             
2.420000e+09  4.844107e-01  1.058189e-01   
             
2.424000e+09  5.209018e-01  9.750596e-02   
             
2.428000e+09  5.549900e-01  8.581770e-02   
             
2.432000e+09  5.864049e-01  7.131742e-02   
             
2.436000e+09  6.149979e-01  5.456832e-02   
             
2.440000e+09  6.407323e-01  3.610763e-02   
             
2.444000e+09  6.636675e-01  1.642512e-02   
             
2.448000e+09  6.839398e-01 -4.053032e-03   
             
2.452000e+09  7.017405e-01 -2.497407e-02   
             
2.456000e+09  7.172936e-01 -4.606237e-02   
             
2.460000e+09  7.308352e-01 -6.711708e-02   
             
2.464000e+09  7.425949e-01 -8.800479e-02   
             
2.468000e+09  7.527822e-01 -1.086484e-01   
             
2.472000e+09  7.615762e-01 -1.290133e-01   
             
2.476000e+09  7.691216e-01 -1.490934e-01   
             
2.480000e+09  7.755280e-01 -1.688971e-01   
             
2.484000e+09  7.808738e-01 -1.884353e-01   
             
2.488000e+09  7.852127e-01 -2.077127e-01   
             
2.492000e+09  7.885820e-01 -2.267217e-01   
             
2.496000e+09  7.910113e-01 -2.454403e-01   
             
2.500000e+09  7.925309e-01 -2.638329e-01   
             
2.504000e+09  7.931780e-01 -2.818541e-01   
             
2.508000e+09  7.930016e-01 -2.994536e-01   
             
2.512000e+09  7.920639e-01 -3.165831e-01   
             
2.516000e+09  7.904397e-01 -3.332019e-01   
             
2.520000e+09  7.882136e-01 -3.492826e-01   
             
2.524000e+09  7.854750e-01 -3.648142e-01   
             
2.528000e+09  7.823124e-01 -3.798045e-01   
             
2.532000e+09  7.788080e-01 -3.942788e-01   
             
2.536000e+09  7.750319e-01 -4.082776e-01   
             
2.540000e+09  7.710383e-01 -4.218521e-01   
             
2.544000e+09  7.668633e-01 -4.350593e-01   
             
2.548000e+09  7.625244e-01 -4.479557e-01   
             
2.552000e+09  7.580225e-01 -4.605918e-01   
             
2.556000e+09  7.533446e-01 -4.730081e-01   
             
2.560000e+09  7.484688e-01 -4.852313e-01   
             
2.564000e+09  7.433697e-01 -4.972733e-01   
             
2.568000e+09  7.380230e-01 -5.091317e-01   
             
2.572000e+09  7.324108e-01 -5.207914e-01   
             
2.576000e+09  7.265251e-01 -5.322286e-01   
             
2.580000e+09  7.203696e-01 -5.434153e-01   
             
2.584000e+09  7.139605e-01 -5.543236e-01   
             
2.588000e+09  7.073248e-01 -5.649304e-01   
             
2.592000e+09  7.004985e-01 -5.752211e-01   
             
2.596000e+09  6.935221e-01 -5.851925e-01   
             
2.600000e+09  6.864366e-01 -5.948529e-01   
             
2.604000e+09  6.792794e-01 -6.042227e-01   
             
2.608000e+09  6.720801e-01 -6.133313e-01   
             
2.612000e+09  6.648584e-01 -6.222150e-01   
             
2.616000e+09  6.576215e-01 -6.309124e-01   
             
2.620000e+09  6.503652e-01 -6.394605e-01   
             
2.624000e+09  6.430741e-01 -6.478912e-01   
             
2.628000e+09  6.357250e-01 -6.562275e-01   
             
2.632000e+09  6.282898e-01 -6.644818e-01   
             
2.636000e+09  6.207397e-01 -6.726554e-01   
             
2.640000e+09  6.130487e-01 -6.807386e-01   
             
2.644000e+09  6.051974e-01 -6.887129e-01   
             
2.648000e+09  5.971752e-01 -6.965539e-01   
             
2.652000e+09  5.889817e-01 -7.042346e-01   
             
2.656000e+09  5.806267e-01 -7.117295e-01   
             
2.660000e+09  5.721291e-01 -7.190178e-01   
             
2.664000e+09  5.635144e-01 -7.260862e-01   
             
2.668000e+09  5.548116e-01 -7.329307e-01   
             
2.672000e+09  5.460499e-01 -7.395574e-01   
             
2.676000e+09  5.372546e-01 -7.459816e-01   
             
2.680000e+09  5.284450e-01 -7.522263e-01   
             
2.684000e+09  5.196315e-01 -7.583188e-01   
             
2.688000e+09  5.108146e-01 -7.642884e-01   
             
2.692000e+09  5.019853e-01 -7.701622e-01   
             
2.696000e+09  4.931264e-01 -7.759623e-01   
             
2.700000e+09  4.842143e-01 -7.817031e-01   
             
2.704000e+09  4.752224e-01 -7.873900e-01   
             
2.708000e+09  4.661242e-01 -7.930187e-01   
             
2.712000e+09  4.568966e-01 -7.985760e-01   
             
2.716000e+09  4.475227e-01 -8.040418e-01   
             
2.720000e+09  4.379937e-01 -8.093913e-01   
             
2.724000e+09  4.283099e-01 -8.145984e-01   
             
2.728000e+09  4.184806e-01 -8.196389e-01   
             
2.732000e+09  4.085225e-01 -8.244933e-01   
             
2.736000e+09  3.984580e-01 -8.291495e-01   
             
2.740000e+09  3.883118e-01 -8.336035e-01   
             
2.744000e+09  3.781081e-01 -8.378605e-01   
             
2.748000e+09  3.678675e-01 -8.419335e-01   
             
2.752000e+09  3.576045e-01 -8.458420e-01   
             
2.756000e+09  3.473251e-01 -8.496091e-01   
             
2.760000e+09  3.370271e-01 -8.532585e-01   
             
2.764000e+09  3.266992e-01 -8.568117e-01   
             
2.768000e+09  3.163232e-01 -8.602850e-01   
             
2.772000e+09  3.058759e-01 -8.636875e-01   
             
