#   Hz   S  RI   R   50
! 
1.400000e+09  4.565970e-01  8.612861e-01   
             
1.404000e+09  4.632081e-01  8.579725e-01   
             
1.408000e+09  4.697308e-01  8.543998e-01   
             
1.412000e+09  4.761052e-01  8.505997e-01   
             
1.416000e+09  4.822839e-01  8.466194e-01   
             
1.420000e+09  4.882359e-01  8.425171e-01   
             
1.424000e+09  4.939489e-01  8.383565e-01   
             
1.428000e+09  4.994296e-01  8.342015e-01   
             
1.432000e+09  5.047028e-01  8.301100e-01   
             
1.436000e+09  5.098089e-01  8.261297e-01   
             
1.440000e+09  5.147997e-01  8.222935e-01   
             
1.444000e+09  5.197335e-01  8.186173e-01   
             
1.448000e+09  5.246702e-01  8.150991e-01   
             
1.452000e+09  5.296653e-01  8.117197e-01   
             
1.456000e+09  5.347655e-01  8.084445e-01   
             
1.460000e+09  5.400048e-01  8.052272e-01   
             
1.464000e+09  5.454018e-01  8.020145e-01   
             
1.468000e+09  5.509584e-01  7.987503e-01   
             
1.472000e+09  5.566599e-01  7.953815e-01   
             
1.476000e+09  5.624772e-01  7.918619e-01   
             
1.480000e+09  5.683691e-01  7.881564e-01   
             
1.484000e+09  5.742868e-01  7.842439e-01   
             
1.488000e+09  5.801778e-01  7.801184e-01   
             
1.492000e+09  5.859907e-01  7.757896e-01   
             
1.496000e+09  5.916801e-01  7.712816e-01   
             
1.500000e+09  5.972095e-01  7.666301e-01   
             
1.504000e+09  6.025554e-01  7.618794e-01   
             
1.508000e+09  6.077078e-01  7.570784e-01   
             
1.512000e+09  6.126721e-01  7.522759e-01   
             
1.516000e+09  6.174669e-01  7.475165e-01   
             
1.520000e+09  6.221233e-01  7.428367e-01   
             
1.524000e+09  6.266810e-01  7.382620e-01   
             
1.528000e+09  6.311849e-01  7.338049e-01   
             
1.532000e+09  6.356811e-01  7.294639e-01   
             
1.536000e+09  6.402126e-01  7.252242e-01   
             
1.540000e+09  6.448155e-01  7.210591e-01   
             
1.544000e+09  6.495164e-01  7.169327e-01   
             
1.548000e+09  6.543297e-01  7.128035e-01   
             
1.552000e+09  6.592567e-01  7.086280e-01   
             
1.556000e+09  6.642863e-01  7.043646e-01   
             
1.560000e+09  6.693953e-01  6.999770e-01   
             
1.564000e+09  6.745516e-01  6.954379e-01   
             
1.568000e+09  6.797167e-01  6.907306e-01   
             
1.572000e+09  6.848491e-01  6.858505e-01   
             
1.576000e+09  6.899084e-01  6.808053e-01   
             
1.580000e+09  6.948584e-01  6.756140e-01   
             
1.584000e+09  6.996704e-01  6.703052e-01   
             
1.588000e+09  7.043256e-01  6.649140e-01   
             
1.592000e+09  7.088164e-01  6.594793e-01   
             
1.596000e+09  7.131468e-01  6.540401e-01   
             
1.600000e+09  7.173319e-01  6.486318e-01   
             
1.604000e+09  7.213964e-01  6.432837e-01   
             
1.608000e+09  7.253723e-01  6.380162e-01   
             
1.612000e+09  7.292956e-01  6.328391e-01   
             
1.616000e+09  7.332033e-01  6.277512e-01   
             
1.620000e+09  7.371299e-01  6.227404e-01   
             
1.624000e+09  7.411046e-01  6.177852e-01   
             
1.628000e+09  7.451486e-01  6.128564e-01   
             
1.632000e+09  7.492734e-01  6.079205e-01   
             
1.636000e+09  7.534800e-01  6.029419e-01   
             
1.640000e+09  7.577591e-01  5.978869e-01   
             
1.644000e+09  7.620917e-01  5.927262e-01   
             
1.648000e+09  7.664513e-01  5.874373e-01   
             
1.652000e+09  7.708063e-01  5.820069e-01   
             
1.656000e+09  7.751226e-01  5.764313e-01   
             
1.660000e+09  7.793669e-01  5.707172e-01   
             
1.664000e+09  7.835094e-01  5.648802e-01   
             
1.668000e+09  7.875266e-01  5.589442e-01   
             
1.672000e+09  7.914030e-01  5.529383e-01   
             
1.676000e+09  7.951324e-01  5.468949e-01   
             
1.680000e+09  7.987183e-01  5.408462e-01   
             
1.684000e+09  8.021735e-01  5.348218e-01   
             
1.688000e+09  8.055187e-01  5.288458e-01   
             
1.692000e+09  8.087806e-01  5.229352e-01   
             
1.696000e+09  8.119894e-01  5.170980e-01   
             
1.700000e+09  8.151760e-01  5.113328e-01   
             
1.704000e+09  8.183694e-01  5.056294e-01   
             
1.708000e+09  8.215940e-01  4.999694e-01   
             
1.712000e+09  8.248673e-01  4.943281e-01   
             
1.716000e+09  8.281989e-01  4.886769e-01   
             
1.720000e+09  8.315892e-01  4.829859e-01   
             
1.724000e+09  8.350301e-01  4.772264e-01   
             
1.728000e+09  8.385050e-01  4.713735e-01   
             
1.732000e+09  8.419913e-01  4.654084e-01   
             
1.736000e+09  8.454616e-01  4.593198e-01   
             
1.740000e+09  8.488866e-01  4.531049e-01   
             
1.744000e+09  8.522378e-01  4.467696e-01   
             
1.748000e+09  8.554896e-01  4.403278e-01   
             
1.752000e+09  8.586218e-01  4.338001e-01   
             
1.756000e+09  8.616211e-01  4.272119e-01   
             
1.760000e+09  8.644826e-01  4.205912e-01   
             
1.764000e+09  8.672094e-01  4.139660e-01   
             
1.768000e+09  8.698129e-01  4.073619e-01   
             
1.772000e+09  8.723112e-01  4.007997e-01   
             
1.776000e+09  8.747279e-01  3.942939e-01   
             
1.780000e+09  8.770893e-01  3.878511e-01   
             
1.784000e+09  8.794224e-01  3.814700e-01   
             
1.788000e+09  8.817525e-01  3.751411e-01   
             
1.792000e+09  8.841007e-01  3.688479e-01   
             
1.796000e+09  8.864824e-01  3.625686e-01   
             
1.800000e+09  8.889054e-01  3.562776e-01   
             
1.804000e+09  8.913698e-01  3.499483e-01   
             
1.808000e+09  8.938678e-01  3.435553e-01   
             
1.812000e+09  8.963845e-01  3.370767e-01   
             
1.816000e+09  8.988990e-01  3.304957e-01   
             
1.820000e+09  9.013867e-01  3.238027e-01   
             
1.824000e+09  9.038213e-01  3.169955e-01   
             
1.828000e+09  9.061770e-01  3.100796e-01   
             
1.832000e+09  9.084307e-01  3.030679e-01   
             
1.836000e+09  9.105643e-01  2.959793e-01   
             
1.840000e+09  9.125662e-01  2.888370e-01   
             
1.844000e+09  9.144319e-01  2.816663e-01   
             
1.848000e+09  9.161647e-01  2.744926e-01   
             
1.852000e+09  9.177752e-01  2.673391e-01   
             
1.856000e+09  9.192800e-01  2.602246e-01   
             
1.860000e+09  9.207008e-01  2.531618e-01   
             
1.864000e+09  9.220617e-01  2.461565e-01   
             
1.868000e+09  9.233876e-01  2.392070e-01   
             
1.872000e+09  9.247013e-01  2.323041e-01   
             
1.876000e+09  9.260220e-01  2.254321e-01   
             
1.880000e+09  9.273633e-01  2.185705e-01   
             
1.884000e+09  9.287322e-01  2.116953e-01   
             
1.888000e+09  9.301279e-01  2.047818e-01   
             
1.892000e+09  9.315426e-01  1.978061e-01   
             
1.896000e+09  9.329617e-01  1.907479e-01   
             
1.900000e+09  9.343653e-01  1.835919e-01   
             
1.904000e+09  9.357296e-01  1.763292e-01   
             
1.908000e+09  9.370295e-01  1.689582e-01   
             
1.912000e+09  9.382405e-01  1.614846e-01   
             
1.916000e+09  9.393408e-01  1.539209e-01   
             
1.920000e+09  9.403133e-01  1.462853e-01   
             
1.924000e+09  9.411469e-01  1.386002e-01   
             
1.928000e+09  9.418376e-01  1.308897e-01   
             
1.932000e+09  9.423889e-01  1.231782e-01   
             
1.936000e+09  9.428110e-01  1.154876e-01   
             
1.940000e+09  9.431202e-01  1.078355e-01   
             
1.944000e+09  9.433373e-01  1.002338e-01   
             
1.948000e+09  9.434856e-01  9.268760e-02   
             
1.952000e+09  9.435887e-01  8.519440e-02   
             
1.956000e+09  9.436685e-01  7.774475e-02   
             
1.960000e+09  9.437431e-01  7.032286e-02   
             
1.964000e+09  9.438249e-01  6.290809e-02   
             
1.968000e+09  9.439198e-01  5.547672e-02   
             
1.972000e+09  9.440262e-01  4.800414e-02   
             
1.976000e+09  9.441353e-01  4.046699e-02   
             
1.980000e+09  9.442318e-01  3.284528e-02   
             
1.984000e+09  9.442948e-01  2.512417e-02   
             
1.988000e+09  9.443002e-01  1.729529e-02   
             
1.992000e+09  9.442223e-01  9.357553e-03   
             
1.996000e+09  9.440359e-01  1.317196e-03   
             
2.000000e+09  9.437191e-01 -6.812703e-03   
             
2.004000e+09  9.432543e-01 -1.501340e-02   
             
2.008000e+09  9.426305e-01 -2.326215e-02   
             
2.012000e+09  9.418438e-01 -3.153422e-02   
             
2.016000e+09  9.408975e-01 -3.980513e-02   
             
2.020000e+09  9.398021e-01 -4.805287e-02   
             
2.024000e+09  9.385744e-01 -5.625985e-02   
             
2.028000e+09  9.372351e-01 -6.441459e-02   
             
2.032000e+09  9.358078e-01 -7.251277e-02   
             
2.036000e+09  9.343161e-01 -8.055766e-02   
             
2.040000e+09  9.327817e-01 -8.855992e-02   
             
2.044000e+09  9.312220e-01 -9.653669e-02   
             
2.048000e+09  9.296485e-01 -1.045101e-01   
             
2.052000e+09  9.280655e-01 -1.125053e-01   
             
2.056000e+09  9.264697e-01 -1.205483e-01   
             
2.060000e+09  9.248497e-01 -1.286635e-01   
             
2.064000e+09  9.231876e-01 -1.368718e-01   
             
2.068000e+09  9.214594e-01 -1.451882e-01   
             
2.072000e+09  9.196378e-01 -1.536209e-01   
             
2.076000e+09  9.176939e-01 -1.621700e-01   
             
2.080000e+09  9.155995e-01 -1.708280e-01   
             
2.084000e+09  9.133299e-01 -1.795798e-01   
             
2.088000e+09  9.108655e-01 -1.884043e-01   
             
2.092000e+09  9.081935e-01 -1.972763e-01   
             
2.096000e+09  9.053089e-01 -2.061685e-01   
             
2.100000e+09  9.022149e-01 -2.150541e-01   
             
2.104000e+09  8.989222e-01 -2.239090e-01   
             
2.108000e+09  8.954481e-01 -2.327145e-01   
             
2.112000e+09  8.918143e-01 -2.414585e-01   
             
2.116000e+09  8.880453e-01 -2.501371e-01   
             
2.120000e+09  8.841651e-01 -2.587548e-01   
             
2.124000e+09  8.801951e-01 -2.673244e-01   
             
2.128000e+09  8.761519e-01 -2.758658e-01   
             
2.132000e+09  8.720446e-01 -2.844043e-01   
             
2.136000e+09  8.678741e-01 -2.929684e-01   
             
2.140000e+09  8.636321e-01 -3.015871e-01   
             
2.144000e+09  8.593012e-01 -3.102873e-01   
             
2.148000e+09  8.548559e-01 -3.190913e-01   
             
2.152000e+09  8.502642e-01 -3.280143e-01   
             
2.156000e+09  8.454897e-01 -3.370632e-01   
             
2.160000e+09  8.404945e-01 -3.462352e-01   
             
2.164000e+09  8.352417e-01 -3.555182e-01   
             
2.168000e+09  8.296984e-01 -3.648912e-01   
             
2.172000e+09  8.238380e-01 -3.743259e-01   
             
2.176000e+09  8.176420e-01 -3.837892e-01   
             
2.180000e+09  8.111011e-01 -3.932454e-01   
             
2.184000e+09  8.042157e-01 -4.026598e-01   
             
2.188000e+09  7.969949e-01 -4.120011e-01   
             
2.192000e+09  7.894551e-01 -4.212444e-01   
             
2.196000e+09  7.816178e-01 -4.303729e-01   
             
2.200000e+09  7.735066e-01 -4.393799e-01   
             
2.204000e+09  7.651441e-01 -4.482687e-01   
             
2.208000e+09  7.565484e-01 -4.570523e-01   
             
2.212000e+09  7.477301e-01 -4.657519e-01   
             
2.216000e+09  7.386901e-01 -4.743944e-01   
             
2.220000e+09  7.294172e-01 -4.830093e-01   
             
2.224000e+09  7.198881e-01 -4.916254e-01   
             
2.228000e+09  7.100668e-01 -5.002668e-01   
             
2.232000e+09  6.999066e-01 -5.089499e-01   
             
2.236000e+09  6.893520e-01 -5.176795e-01   
             
2.240000e+09  6.783418e-01 -5.264475e-01   
             
2.244000e+09  6.668131e-01 -5.352308e-01   
             
2.248000e+09  6.547047e-01 -5.439918e-01   
             
2.252000e+09  6.419616e-01 -5.526787e-01   
             
2.256000e+09  6.285375e-01 -5.612283e-01   
             
2.260000e+09  6.143982e-01 -5.695682e-01   
             
2.264000e+09  5.995224e-01 -5.776213e-01   
             
2.268000e+09  5.839028e-01 -5.853091e-01   
             
2.272000e+09  5.675444e-01 -5.925560e-01   
             
2.276000e+09  5.504625e-01 -5.992925e-01   
             
2.280000e+09  5.326795e-01 -6.054581e-01   
             
2.284000e+09  5.142205e-01 -6.110020e-01   
             
2.288000e+09  4.951088e-01 -6.158834e-01   
             
2.292000e+09  4.753613e-01 -6.200695e-01   
             
2.296000e+09  4.549851e-01 -6.235321e-01   
             
2.300000e+09  4.339738e-01 -6.262427e-01   
             
2.304000e+09  4.123071e-01 -6.281665e-01   
             
2.308000e+09  3.899509e-01 -6.292560e-01   
             
2.312000e+09  3.668602e-01 -6.294438e-01   
             
2.316000e+09  3.429842e-01 -6.286368e-01   
             
2.320000e+09  3.182735e-01 -6.267106e-01   
             
2.324000e+09  2.926891e-01 -6.235066e-01   
             
2.328000e+09  2.662128e-01 -6.188312e-01   
             
2.332000e+09  2.388587e-01 -6.124575e-01   
             
2.336000e+09  2.106839e-01 -6.041306e-01   
             
2.340000e+09  1.817993e-01 -5.935762e-01   
             
2.344000e+09  1.523781e-01 -5.805113e-01   
             
2.348000e+09  1.226615e-01 -5.646592e-01   
             
2.352000e+09  9.296181e-02 -5.457646e-01   
             
2.356000e+09  6.366069e-02 -5.236117e-01   
             
2.360000e+09  3.520370e-02 -4.980409e-01   
             
2.364000e+09  8.090224e-03 -4.689653e-01   
             
2.368000e+09 -1.714068e-02 -4.363847e-01   
             
2.372000e+09 -3.992798e-02 -4.003967e-01   
             
2.376000e+09 -5.970907e-02 -3.612031e-01   
             
2.380000e+09 -7.594176e-02 -3.191120e-01   
             
2.384000e+09 -8.812663e-02 -2.745345e-01   
             
2.388000e+09 -9.582845e-02 -2.279764e-01   
             
2.392000e+09 -9.869550e-02 -1.800251e-01   
             
2.396000e+09 -9.647555e-02 -1.313326e-01   
             
2.400000e+09 -8.902781e-02 -8.259496e-02   
             
2.404000e+09 -7.633020e-02 -3.453027e-02   
             
2.408000e+09 -5.848164e-02  1.214500e-02   
             
2.412000e+09 -3.569939e-02  5.673888e-02   
             
2.416000e+09 -8.311792e-03  9.860568e-02   
             
2.420000e+09  2.325323e-02  1.371656e-01   
             
2.424000e+09  5.848309e-02  1.719210e-01   
             
2.428000e+09  9.679817e-02  2.024700e-01   
             
2.432000e+09  1.375713e-01  2.285147e-01   
             
2.436000e+09  1.801483e-01  2.498668e-01   
             
2.440000e+09  2.238686e-01  2.664481e-01   
             
2.444000e+09  2.680851e-01  2.782871e-01   
             
2.448000e+09  3.121828e-01  2.855128e-01   
             
2.452000e+09  3.555954e-01  2.883438e-01   
             
2.456000e+09  3.978190e-01  2.870759e-01   
             
2.460000e+09  4.384228e-01  2.820667e-01   
             
2.464000e+09  4.770564e-01  2.737196e-01   
             
2.468000e+09  5.134537e-01  2.624660e-01   
             
2.472000e+09  5.474328e-01  2.487489e-01   
             
2.476000e+09  5.788926e-01  2.330063e-01   
             
2.480000e+09  6.078066e-01  2.156570e-01   
             
2.484000e+09  6.342135e-01  1.970877e-01   
             
2.488000e+09  6.582061e-01  1.776438e-01   
             
2.492000e+09  6.799189e-01  1.576225e-01   
             
2.496000e+09  6.995153e-01  1.372693e-01   
             
2.500000e+09  7.171744e-01  1.167778e-01   
             
2.504000e+09  7.330798e-01  9.629182e-02   
             
2.508000e+09  7.474091e-01  7.591028e-02   
             
2.512000e+09  7.603256e-01  5.569407e-02   
             
2.516000e+09  7.719726e-01  3.567380e-02   
             
2.520000e+09  7.824700e-01  1.585832e-02   
             
2.524000e+09  7.919131e-01 -3.756875e-03   
             
2.528000e+09  8.003740e-01 -2.318201e-02   
             
2.532000e+09  8.079041e-01 -4.242642e-02   
             
2.536000e+09  8.145388e-01 -6.149358e-02   
             
2.540000e+09  8.203021e-01 -8.037781e-02   
             
2.544000e+09  8.252121e-01 -9.906271e-02   
             
2.548000e+09  8.292863e-01 -1.175214e-01   
             
2.552000e+09  8.325456e-01 -1.357182e-01   
             
2.556000e+09  8.350183e-01 -1.536112e-01   
             
2.560000e+09  8.367417e-01 -1.711561e-01   
             
2.564000e+09  8.377633e-01 -1.883099e-01   
             
2.568000e+09  8.381404e-01 -2.050350e-01   
             
2.572000e+09  8.379380e-01 -2.213021e-01   
             
2.576000e+09  8.372266e-01 -2.370933e-01   
             
2.580000e+09  8.360789e-01 -2.524033e-01   
             
2.584000e+09  8.345656e-01 -2.672401e-01   
             
2.588000e+09  8.327526e-01 -2.816243e-01   
             
2.592000e+09  8.306974e-01 -2.955873e-01   
             
2.596000e+09  8.284466e-01 -3.091688e-01   
             
2.600000e+09  8.260343e-01 -3.224136e-01   
             
2.604000e+09  8.234814e-01 -3.353682e-01   
             
2.608000e+09  8.207963e-01 -3.480771e-01   
             
2.612000e+09  8.179757e-01 -3.605795e-01   
             
2.616000e+09  8.150073e-01 -3.729073e-01   
             
2.620000e+09  8.118723e-01 -3.850823e-01   
             
2.624000e+09  8.085489e-01 -3.971160e-01   
             
2.628000e+09  8.050153e-01 -4.090094e-01   
             
2.632000e+09  8.012527e-01 -4.207535e-01   
             
2.636000e+09  7.972482e-01 -4.323318e-01   
             
2.640000e+09  7.929964e-01 -4.437221e-01   
             
2.644000e+09  7.885008e-01 -4.548993e-01   
             
2.648000e+09  7.837738e-01 -4.658387e-01   
             
2.652000e+09  7.788360e-01 -4.765184e-01   
             
2.656000e+09  7.737154e-01 -4.869219e-01   
             
2.660000e+09  7.684443e-01 -4.970402e-01   
             
2.664000e+09  7.630580e-01 -5.068725e-01   
             
2.668000e+09  7.575913e-01 -5.164269e-01   
             
2.672000e+09  7.520760e-01 -5.257199e-01   
             
2.676000e+09  7.465388e-01 -5.347751e-01   
             
2.680000e+09  7.409995e-01 -5.436213e-01   
             
2.684000e+09  7.354692e-01 -5.522904e-01   
             
2.688000e+09  7.299506e-01 -5.608149e-01   
             
2.692000e+09  7.244377e-01 -5.692251e-01   
             
2.696000e+09  7.189171e-01 -5.775470e-01   
             
2.700000e+09  7.133695e-01 -5.858005e-01   
             
2.704000e+09  7.077719e-01 -5.939978e-01   
             
2.708000e+09  7.021000e-01 -6.021428e-01   
             
2.712000e+09  6.963304e-01 -6.102316e-01   
             
2.716000e+09  6.904433e-01 -6.182527e-01   
             
2.720000e+09  6.844239e-01 -6.261888e-01   
             
2.724000e+09  6.782644e-01 -6.340188e-01   
             
2.728000e+09  6.719643e-01 -6.417196e-01   
             
2.732000e+09  6.655307e-01 -6.492686e-01   
             
2.736000e+09  6.589779e-01 -6.566463e-01   
             
2.740000e+09  6.523256e-01 -6.638378e-01   
             
2.744000e+09  6.455979e-01 -6.708342e-01   
             
2.748000e+09  6.388206e-01 -6.776340e-01   
             
2.752000e+09  6.320196e-01 -6.842429e-01   
             
2.756000e+09  6.252180e-01 -6.906737e-01   
             
2.760000e+09  6.184348e-01 -6.969448e-01   
             
2.764000e+09  6.116830e-01 -7.030792e-01   
             
2.768000e+09  6.049688e-01 -7.091021e-01   
             
2.772000e+09  5.982910e-01 -7.150392e-01   
             
