!---------------------------------------------------------------------
! ZVRE, 3.52
!---------------------------------------------------------------------
! symbol freq-unit parameter-type data-format keyword impedance-ohm
#        HZ        S              RI          R       50
!---------------------------------------------------------------------
! freq                reS11          imS11           reS21          imS21           reS12          imS12           reS22          imS22           
  1.00000000000E+09 -0.13342         0.0902876      0.123769        0.926667       0.12413         0.925206      -0.142202        0.0835398    
  1.00500000000E+09 -0.139124        0.0975582      0.149374        0.921722       0.149692        0.919642      -0.148035        0.0920505    
  1.01000000000E+09 -0.144603        0.1053         0.17388         0.915127       0.174346        0.912697      -0.1535          0.100676     
  1.01500000000E+09 -0.149649        0.11348        0.199363        0.907851       0.199347        0.905862      -0.158345        0.109844     
  1.02000000000E+09 -0.15415         0.121844       0.223787        0.89981        0.223402        0.898044      -0.16311         0.119026     
  1.02500000000E+09 -0.158317        0.130812       0.2471          0.89184        0.247587        0.889507      -0.16712         0.128535     
  1.03000000000E+09 -0.162074        0.139857       0.270983        0.882973       0.271267        0.880021      -0.170671        0.13837      
  1.03500000000E+09 -0.165099        0.149165       0.294889        0.873012       0.294849        0.870656      -0.173691        0.148464     
  1.04000000000E+09 -0.167948        0.158885       0.318105        0.862782       0.318038        0.859861      -0.17624         0.158527     
  1.04500000000E+09 -0.170045        0.168995       0.341593        0.85189        0.34071         0.849152      -0.178424        0.168988     
  1.05000000000E+09 -0.17187         0.179035       0.364436        0.839176       0.363324        0.83734       -0.179964        0.179642     
  1.05500000000E+09 -0.173004        0.189543       0.38709         0.826266       0.385494        0.824227      -0.180802        0.190196     
  1.06000000000E+09 -0.173678        0.200165       0.409037        0.811971       0.40725         0.811676      -0.181659        0.201099     
  1.06500000000E+09 -0.173717        0.210653       0.429029        0.797903       0.42717         0.797231      -0.181636        0.211917     
  1.07000000000E+09 -0.17337         0.221542       0.448861        0.782667       0.447174        0.783003      -0.18122         0.222889     
  1.07500000000E+09 -0.172436        0.232533       0.467842        0.767655       0.466386        0.768406      -0.180026        0.233897     
  1.08000000000E+09 -0.170974        0.243406       0.486553        0.75277        0.484843        0.752621      -0.178307        0.244877     
  1.08500000000E+09 -0.16925         0.254201       0.504676        0.737008       0.503765        0.737584      -0.176258        0.255924     
  1.09000000000E+09 -0.166944        0.264958       0.521893        0.722541       0.521028        0.722328      -0.173572        0.266746     
  1.09500000000E+09 -0.164068        0.275548       0.539396        0.707331       0.538506        0.706092      -0.170307        0.277548     
  1.10000000000E+09 -0.161002        0.286068       0.556901        0.690897       0.55612         0.689998      -0.166431        0.288383     
  1.10500000000E+09 -0.157213        0.296362       0.574457        0.674277       0.573103        0.672789      -0.162173        0.298926     
  1.11000000000E+09 -0.152912        0.306728       0.591468        0.655884       0.59009         0.654363      -0.157243        0.309642     
  1.11500000000E+09 -0.148287        0.316967       0.607685        0.637544       0.605302        0.635319      -0.15177         0.319819     
  1.12000000000E+09 -0.143047        0.326847       0.622777        0.617519       0.619873        0.616226      -0.146064        0.330001     
  1.12500000000E+09 -0.137591        0.3363         0.63626         0.597468       0.633298        0.597081      -0.139925        0.339958     
  1.13000000000E+09 -0.131745        0.345688       0.648826        0.578096       0.645463        0.57744       -0.132934        0.349647     
  1.13500000000E+09 -0.125319        0.354989       0.659925        0.558135       0.656801        0.558803      -0.125632        0.358943     
  1.14000000000E+09 -0.118554        0.363869       0.670762        0.539001       0.667549        0.540308      -0.117844        0.368078     
  1.14500000000E+09 -0.111275        0.372341       0.68181         0.521112       0.677922        0.522184      -0.109456        0.376694     
  1.15000000000E+09 -0.103763        0.380388       0.691973        0.503294       0.688875        0.504949      -0.100864        0.384851     
  1.15500000000E+09 -0.096107        0.388075       0.702993        0.485909       0.700581        0.487043      -0.0920423       0.392993     
  1.16000000000E+09 -0.0879302       0.395465       0.714515        0.467318       0.711836        0.468844      -0.0826868       0.400701     
  1.16500000000E+09 -0.0794569       0.402508       0.725627        0.448015       0.723363        0.449736      -0.0730807       0.407842     
  1.17000000000E+09 -0.070526        0.409122       0.737106        0.427664       0.734408        0.429268      -0.0628329       0.414645     
  1.17500000000E+09 -0.061288        0.415457       0.747196        0.406634       0.744453        0.40859       -0.0523357       0.420956     
  1.18000000000E+09 -0.0511987       0.421612       0.75643         0.384459       0.753479        0.386203      -0.0418044       0.426761     
  1.18500000000E+09 -0.0412252       0.427307       0.764214        0.362318       0.760607        0.364677      -0.030821        0.432021     
  1.19000000000E+09 -0.0310421       0.432235       0.769989        0.340562       0.767003        0.342829      -0.0197056       0.436773     
  1.19500000000E+09 -0.0201666       0.436667       0.77543         0.319571       0.77252         0.32116       -0.00830403      0.441057     
  1.20000000000E+09 -0.00929723      0.440611       0.779663        0.298202       0.777637        0.301429       0.00315576      0.444899     
  1.20500000000E+09  0.00195157      0.444417       0.784839        0.278384       0.782853        0.281637       0.0148644       0.448205     
  1.21000000000E+09  0.0131292       0.447671       0.790237        0.259168       0.78825         0.261994       0.0266651       0.451027     
  1.21500000000E+09  0.0246282       0.450372       0.795866        0.238167       0.793521        0.242212       0.0384911       0.453144     
  1.22000000000E+09  0.0362747       0.452449       0.801291        0.218082       0.799167        0.221755       0.0505331       0.454966     
  1.22500000000E+09  0.0480638       0.45438        0.806334        0.197181       0.803885        0.200081       0.062319        0.45603      
  1.23000000000E+09  0.0601387       0.455793       0.810958        0.174022       0.808051        0.178253       0.0742347       0.456691     
  1.23500000000E+09  0.0719805       0.456267       0.813126        0.151469       0.810734        0.15562        0.0862909       0.456781     
  1.24000000000E+09  0.0842501       0.456666       0.814356        0.128324       0.812074        0.132725       0.0982114       0.456319     
  1.24500000000E+09  0.0962787       0.456547       0.814814        0.105492       0.812223        0.110889       0.109889        0.455398     
  1.25000000000E+09  0.108419        0.455839       0.813766        0.0844783      0.811872        0.0902847      0.121632        0.454102     
  1.25500000000E+09  0.120669        0.454333       0.8121          0.0650891      0.810744        0.0697995      0.133568        0.451764     
  1.26000000000E+09  0.132719        0.452319       0.81038         0.0461906      0.810747        0.0507728      0.145421        0.449248     
  1.26500000000E+09  0.144669        0.450133       0.810547        0.0274978      0.810881        0.0332956      0.156612        0.446128     
  1.27000000000E+09  0.156229        0.446651       0.811598        0.00915584     0.812036        0.0137254      0.167942        0.442472     
  1.27500000000E+09  0.16776         0.443343       0.812861       -0.00953903     0.813972       -0.00623874     0.178938        0.438098     
  1.28000000000E+09  0.178851        0.439456       0.815246       -0.0298506      0.815018       -0.0272228      0.189793        0.433619     
  1.28500000000E+09  0.189755        0.434619       0.816635       -0.0517958      0.816109       -0.0507117      0.200848        0.428724     
  1.29000000000E+09  0.200685        0.429846       0.81727        -0.0750423      0.815689       -0.0740643      0.211711        0.423051     
  1.29500000000E+09  0.211493        0.424126       0.815279       -0.0998174      0.81309        -0.097978       0.221899        0.41666      
  1.30000000000E+09  0.221734        0.418113       0.811592       -0.124089       0.80868        -0.121816       0.232169        0.409923     
  1.30500000000E+09  0.231653        0.411451       0.806046       -0.147565       0.802923       -0.145243       0.241903        0.402879     
  1.31000000000E+09  0.241326        0.404717       0.799503       -0.170093       0.796246       -0.16638        0.251399        0.395136     
  1.31500000000E+09  0.250381        0.397254       0.792003       -0.190315       0.788929       -0.186463       0.260389        0.38701      
  1.32000000000E+09  0.259327        0.389133       0.785401       -0.209699       0.782482       -0.205736       0.269398        0.378496     
  1.32500000000E+09  0.267371        0.380344       0.779261       -0.229132       0.776834       -0.223894       0.277689        0.36882      
  1.33000000000E+09  0.275234        0.371207       0.773888       -0.248028       0.771669       -0.242712       0.285724        0.359159     
  1.33500000000E+09  0.282094        0.361787       0.769434       -0.267218       0.767553       -0.261564       0.29267         0.349012     
  1.34000000000E+09  0.288545        0.351749       0.764801       -0.287936       0.762922       -0.281696       0.299129        0.338224     
  1.34500000000E+09  0.294789        0.341598       0.760238       -0.309799       0.758059       -0.304174       0.305338        0.327662     
  1.35000000000E+09  0.300085        0.33101        0.753936       -0.333307       0.752802       -0.327072       0.311152        0.316567     
  1.35500000000E+09  0.305101        0.3201         0.745737       -0.357444       0.744956       -0.350037       0.316071        0.304859     
  1.36000000000E+09  0.309643        0.308816       0.736077       -0.380618       0.736185       -0.373204       0.320417        0.292825     
  1.36500000000E+09  0.313312        0.297116       0.724504       -0.403503       0.725797       -0.395219       0.323976        0.280428     
  1.37000000000E+09  0.316263        0.285141       0.712206       -0.424985       0.714864       -0.416863       0.326893        0.268025     
  1.37500000000E+09  0.318762        0.272726       0.700403       -0.445687       0.703574       -0.437548       0.329079        0.255044     
  1.38000000000E+09  0.32056         0.260307       0.688231       -0.465212       0.692249       -0.458349       0.330406        0.242011     
  1.38500000000E+09  0.320855        0.247493       0.676639       -0.485407       0.682558       -0.478902       0.330545        0.228875     
  1.39000000000E+09  0.321193        0.234874       0.665501       -0.50604        0.671527       -0.501651       0.330103        0.215819     
  1.39500000000E+09  0.320002        0.222216       0.653674       -0.528695       0.660532       -0.525114       0.32877         0.202537     
  1.40000000000E+09  0.318711        0.209552       0.640453       -0.552187       0.647473       -0.549179       0.32679         0.189347     
  1.40500000000E+09  0.316313        0.196457       0.625864       -0.576516       0.631935       -0.574916       0.323915        0.175981     
  1.41000000000E+09  0.313035        0.183518       0.608381       -0.60174        0.613977       -0.599662       0.319817        0.162462     
  1.41500000000E+09  0.308735        0.170411       0.58821        -0.625958       0.594092       -0.624013       0.314769        0.149257     
  1.42000000000E+09  0.303142        0.157827       0.566756       -0.648724       0.571733       -0.64661        0.308522        0.136479     
  1.42500000000E+09  0.296531        0.145349       0.542956       -0.668784       0.547877       -0.66752        0.301186        0.12395      
  1.43000000000E+09  0.28898         0.133484       0.51923        -0.687618       0.524075       -0.687049       0.292865        0.111817     
  1.43500000000E+09  0.280307        0.121909       0.495085       -0.705262       0.500664       -0.704448       0.283381        0.10007      
  1.44000000000E+09  0.270632        0.110693       0.471162       -0.7214         0.47707        -0.721673       0.272866        0.0888352    
  1.44500000000E+09  0.259636        0.10039        0.44727        -0.738824       0.453494       -0.739327       0.261248        0.0783219    
  1.45000000000E+09  0.247443        0.0909059      0.424185       -0.755715       0.429244       -0.756973       0.248321        0.0687541    
  1.45500000000E+09  0.234321        0.0823942      0.399167       -0.773455       0.40406        -0.77537        0.234283        0.0601924    
  1.46000000000E+09  0.220197        0.0749149      0.372653       -0.791298       0.375789       -0.793339       0.219379        0.0526536    
  1.46500000000E+09  0.204993        0.0683284      0.343338       -0.808763       0.346554       -0.810167       0.20341         0.0462333    
  1.47000000000E+09  0.188766        0.0629662      0.310702       -0.824446       0.314089       -0.825824       0.186363        0.0410016    
  1.47500000000E+09  0.171629        0.0591576      0.27804        -0.839007       0.279765       -0.839543       0.168437        0.0371122    
  1.48000000000E+09  0.153604        0.0566018      0.242247       -0.851041       0.245089       -0.851365       0.149678        0.034902     
  1.48500000000E+09  0.134995        0.0558221      0.205981       -0.86078        0.208711       -0.861427       0.130403        0.0345373    
  1.49000000000E+09  0.116021        0.0567345      0.16982        -0.868313       0.171772       -0.868878       0.1105          0.0359146    
  1.49500000000E+09  0.0963619       0.0596834      0.132849       -0.873714       0.13522        -0.87491        0.0902982       0.0392003    
  1.50000000000E+09  0.0764646       0.0643266      0.0956552      -0.877126       0.0964315      -0.877922       0.0696951       0.0443124    
  1.50500000000E+09  0.0564876       0.0709669      0.0574774      -0.879038       0.058758       -0.880364       0.049221        0.0515664    
  1.51000000000E+09  0.0366565       0.0799489      0.0196059      -0.879408       0.0196342      -0.879902       0.0288424       0.061126     
  1.51500000000E+09  0.0173575       0.090755      -0.0207001      -0.876916      -0.0196849      -0.877311       0.00892694      0.0727463    
  1.52000000000E+09 -0.00135011      0.103937      -0.0597196      -0.872085      -0.0593843      -0.871779      -0.010387        0.0864843    
  1.52500000000E+09 -0.0191274       0.119048      -0.101572       -0.863861      -0.0987988      -0.86476       -0.0288159       0.102536     
  1.53000000000E+09 -0.0358401       0.136591      -0.139542       -0.853344      -0.138025       -0.854303      -0.0459334       0.120853     
  1.53500000000E+09 -0.0511141       0.155728      -0.177512       -0.840534      -0.176488       -0.842126      -0.0618602       0.141057     
  1.54000000000E+09 -0.0648726       0.176665      -0.214506       -0.825913      -0.214426       -0.826529      -0.0761864       0.163142     
  1.54500000000E+09 -0.0766838       0.199646      -0.250493       -0.809808      -0.252213       -0.809435      -0.0884447       0.187057     
  1.55000000000E+09 -0.0866119       0.224016      -0.286846       -0.790438      -0.288416       -0.788959      -0.0985577       0.212472     
  1.55500000000E+09 -0.0941389       0.249398      -0.322651       -0.768352      -0.324008       -0.764899      -0.106604        0.239033     
  1.56000000000E+09 -0.0992588       0.276134      -0.35698        -0.743116      -0.357245       -0.738553      -0.11197         0.267071     
  1.56500000000E+09 -0.102159        0.303459      -0.389416       -0.714767      -0.386502       -0.708861      -0.115235        0.295602     
  1.57000000000E+09 -0.102371        0.331523      -0.417558       -0.682946      -0.412729       -0.677936      -0.116197        0.324683     
  1.57500000000E+09 -0.0998939       0.359914      -0.442089       -0.649955      -0.434633       -0.645414      -0.113903        0.354495     
  1.58000000000E+09 -0.0946674       0.388653      -0.462638       -0.616209      -0.453014       -0.614527      -0.109347        0.383973     
  1.58500000000E+09 -0.0867322       0.416734      -0.478722       -0.583825      -0.468813       -0.583744      -0.101785        0.413027     
  1.59000000000E+09 -0.0757691       0.444144      -0.492237       -0.551902      -0.483227       -0.554765      -0.0917583       0.441525     
  1.59500000000E+09 -0.0629022       0.47023       -0.504671       -0.52249       -0.497411       -0.52731       -0.0793467       0.469023     
  1.60000000000E+09 -0.0483831       0.495478      -0.51694        -0.494116      -0.511372       -0.499115      -0.0651786       0.494854     
  1.60500000000E+09 -0.031052        0.519935      -0.529327       -0.464707      -0.525746       -0.46977       -0.0490421       0.520491     
  1.61000000000E+09 -0.012274        0.5436        -0.542515       -0.434299      -0.539377       -0.438372      -0.0305571       0.544888     
  1.61500000000E+09  0.00884024      0.565335      -0.553373       -0.401239      -0.550691       -0.404879      -0.0102138       0.567896     
  1.62000000000E+09  0.0317731       0.585237      -0.561706       -0.366488      -0.557682       -0.368625       0.0120167       0.588987     
  1.62500000000E+09  0.0557482       0.60307       -0.565046       -0.32951       -0.559974       -0.332173       0.035161        0.607985     
  1.63000000000E+09  0.0810101       0.619271      -0.563646       -0.293568      -0.557375       -0.297728       0.0596646       0.624944     
  1.63500000000E+09  0.107392        0.633741      -0.558459       -0.26006       -0.551607       -0.265788       0.0852435       0.640536     
  1.64000000000E+09  0.134261        0.646603      -0.549695       -0.23045       -0.543759       -0.23782        0.111493        0.654443     
  1.64500000000E+09  0.162326        0.657163      -0.540087       -0.204736      -0.535001       -0.213348       0.138632        0.666032     
  1.65000000000E+09  0.190338        0.666729      -0.530676       -0.182243      -0.527678       -0.192042       0.166568        0.676118     
  1.65500000000E+09  0.218277        0.673638      -0.523125       -0.162152      -0.521477       -0.171999       0.194357        0.683508     
  1.66000000000E+09  0.246571        0.679234      -0.516852       -0.143816      -0.516692       -0.152115       0.222157        0.689815     
  1.66500000000E+09  0.274457        0.683354      -0.51246        -0.124329      -0.512829       -0.131012       0.250154        0.694981     
